!Agilent Technologies,N5224A,MY51441093,A.09.90.21
!Agilent N5224A: A.09.90.21
!Date: Friday, December 19, 2025 16:35:16
!Correction: S11(Full 4 Port(1,2,3,4)) 
!S12(Full 4 Port(1,2,3,4)) 
!S13(Full 4 Port(1,2,3,4)) 
!S14(Full 4 Port(1,2,3,4)) 
!S21(Full 4 Port(1,2,3,4)) 
!S22(Full 4 Port(1,2,3,4)) 
!S23(Full 4 Port(1,2,3,4)) 
!S24(Full 4 Port(1,2,3,4)) 
!S31(Full 4 Port(1,2,3,4)) 
!S32(Full 4 Port(1,2,3,4)) 
!S33(Full 4 Port(1,2,3,4)) 
!S34(Full 4 Port(1,2,3,4)) 
!S41(Full 4 Port(1,2,3,4)) 
!S42(Full 4 Port(1,2,3,4)) 
!S43(Full 4 Port(1,2,3,4)) 
!S44(Full 4 Port(1,2,3,4)) 
!S4P File: Measurements: <S11,S12,S13,S14>,
!<S21,S22,S23,S24>,
!<S31,S32,S33,S34>,
!<S41,S42,S43,S44>:
# Hz S  dB   R 50
2000000000 -10.291826 -46.376236 -9.51196 -75.426521 -9.5116673 -95.652466 -9.7444057 -123.86117
-9.5181475 -75.488251 -20.744658 104.9351 -30.421946 0.63727325 -35.022854 -10.201739
-9.5666037 -95.490471 -30.487072 0.84617728 -23.478199 26.863533 -35.257648 -30.604736
-9.6307116 -123.63424 -34.912323 -9.9795809 -35.094254 -30.445585 -14.231175 -3.9036171
2010000000 -10.447919 -50.577564 -9.4787092 -80.588425 -9.4808226 -100.86288 -9.7257347 -128.93184
-9.4882956 -80.635437 -20.941109 99.694321 -30.457016 -6.1452918 -35.116623 -20.522697
-9.5328617 -100.69273 -30.49725 -5.9241867 -23.196444 21.392035 -35.361038 -40.969589
-9.6093769 -128.68842 -34.990437 -20.207788 -35.195934 -40.810604 -14.191309 -7.5845461
2020000000 -10.633624 -54.79282 -9.4502306 -85.750359 -9.4544487 -106.06892 -9.7061958 -134.00403
-9.4569788 -85.79361 -21.131563 94.307213 -30.468298 -12.916514 -35.184078 -30.716877
-9.5045652 -105.89989 -30.510996 -12.70018 -22.930433 16.054049 -35.438362 -51.108131
-9.5862389 -133.75446 -35.054192 -30.42902 -35.281227 -51.053177 -14.149384 -11.257158
2030000000 -10.842966 -59.007626 -9.4213552 -90.920578 -9.4263239 -111.27653 -9.6862469 -139.0699
-9.4257298 -90.953796 -21.325306 88.800644 -30.46784 -19.817347 -35.234341 -40.95562
-9.4777508 -111.1102 -30.518087 -19.584692 -22.673948 10.766967 -35.491043 -61.469334
-9.56563 -138.8219 -35.096554 -40.631531 -35.336262 -61.33493 -14.114593 -14.947248
2040000000 -11.071365 -63.247841 -9.3905306 -96.088791 -9.3997192 -116.48827 -9.6653376 -144.13353
-9.3925915 -96.137581 -21.526655 83.138161 -30.453024 -26.844196 -35.28828 -51.406498
-9.4505196 -116.33255 -30.50362 -26.633184 -22.429348 5.5316038 -35.540554 -71.849976
-9.5438538 -143.88902 -35.157021 -51.035637 -35.361797 -71.740013 -14.083291 -18.629377
2050000000 -11.320907 -67.506187 -9.3559179 -101.28636 -9.3706589 -121.71199 -9.6426058 -149.21077
-9.3606339 -101.34055 -21.727207 77.367409 -30.464577 -34.02787 -35.327507 -61.884029
-9.4225225 -121.56659 -30.508703 -33.831818 -22.195141 0.36744681 -35.600819 -82.507195
-9.5225534 -148.97572 -35.216751 -61.582127 -35.438396 -82.351501 -14.05516 -22.28451
2060000000 -11.593429 -71.779663 -9.3239183 -106.49293 -9.3446207 -126.95367 -9.6193161 -154.29691
-9.3313961 -106.55775 -21.913088 71.50425 -30.47744 -41.186028 -35.419357 -72.161346
-9.3966932 -126.8061 -30.530209 -40.992939 -21.96624 -4.6776175 -35.687054 -92.830315
-9.4995689 -154.0584 -35.296204 -71.95179 -35.509911 -92.841156 -14.021466 -25.911829
2070000000 -11.887137 -76.069862 -9.295125 -111.72246 -9.3202162 -132.20406 -9.5980177 -159.39793
-9.3021641 -111.7775 -22.08843 65.520004 -30.506893 -48.321426 -35.504086 -82.364433
-9.3727026 -132.05475 -30.561188 -48.114986 -21.736305 -9.5942593 -35.740757 -103.24441
-9.4788704 -159.14799 -35.3806 -82.17836 -35.579353 -103.12373 -13.985663 -29.490152
2080000000 -12.200104 -80.405289 -9.2698545 -116.94659 -9.296464 -137.4493 -9.5782871 -164.50072
-9.2748098 -117.00585 -22.250668 59.380089 -30.514366 -55.401241 -35.58131 -92.520523
-9.349268 -137.31139 -30.563879 -55.233376 -21.50172 -14.468289 -35.794159 -113.3985
-9.4574547 -164.25154 -35.447235 -92.198685 -35.633324 -113.35764 -13.948146 -33.051167
2090000000 -12.537931 -84.808662 -9.2462606 -122.16746 -9.2738314 -142.69852 -9.55756 -169.59631
-9.2510834 -122.23181 -22.404676 53.121105 -30.512581 -62.525883 -35.629074 -102.59956
-9.3271589 -142.56476 -30.567225 -62.363918 -21.26684 -19.233246 -35.810703 -123.63201
-9.4378014 -169.35422 -35.497955 -102.24445 -35.62738 -123.59203 -13.909749 -36.581696
2100000000 -12.908659 -89.346947 -9.221734 -127.38004 -9.2517805 -147.95013 -9.5390272 -174.7014
-9.2255955 -127.4455 -22.54175 46.760132 -30.514082 -69.719543 -35.655258 -112.76804
-9.3063745 -147.81487 -30.564344 -69.497192 -21.049202 -23.864666 -35.828072 -134.07227
-9.4164877 -174.45908 -35.532421 -112.50086 -35.644623 -133.96529 -13.875542 -40.023647
2110000000 -13.328888 -93.965553 -9.1977196 -132.60576 -9.2309055 -153.21747 -9.5178232 -179.80835
-9.2002277 -132.66191 -22.656582 40.371838 -30.513813 -76.915474 -35.700138 -122.89721
-9.2866974 -153.08406 -30.57514 -76.742493 -20.839863 -28.38006 -35.81778 -144.52147
-9.3962917 -179.57983 -35.576351 -122.60415 -35.657719 -144.45366 -13.840816 -43.383862
2120000000 -13.79841 -98.58078 -9.1737728 -137.84871 -9.2113247 -158.49794 -9.499382 175.06865
-9.1744576 -137.8941 -22.753359 33.93943 -30.516958 -84.154907 -35.726097 -133.05249
-9.266366 -158.35754 -30.574263 -84.024307 -20.637375 -32.768753 -35.850567 -155.02356
-9.3758669 175.29771 -35.609364 -132.83844 -35.667656 -154.95923 -13.810646 -46.664753
2130000000 -14.30757 -103.20322 -9.1487713 -143.08876 -9.1953392 -163.76445 -9.480916 169.94447
-9.149519 -143.13705 -22.813326 27.488802 -30.525986 -91.37738 -35.758854 -143.16257
-9.2496319 -163.63348 -30.578924 -91.177574 -20.450106 -36.998726 -35.88855 -165.45006
-9.3593521 170.16928 -35.642059 -142.93405 -35.70216 -165.39233 -13.784966 -49.88625
2140000000 -14.854947 -107.89701 -9.1284285 -148.34222 -9.1811256 -169.04338 -9.4658871 164.8275
-9.1282377 -148.39372 -22.843466 21.038525 -30.525751 -98.585083 -35.774536 -153.34839
-9.2383976 -168.90918 -30.576874 -98.402046 -20.276888 -41.135708 -35.886307 -175.70563
-9.3415136 165.04143 -35.652706 -153.03818 -35.717705 -175.69005 -13.765614 -53.068794
2150000000 -15.441072 -112.76592 -9.1096029 -153.60106 -9.169095 -174.30566 -9.4488039 159.70119
-9.1085358 -153.64691 -22.845745 14.568131 -30.516901 -105.71637 -35.780567 -163.43803
-9.2233629 -174.18317 -30.571127 -105.5519 -20.113266 -45.198318 -35.891422 173.99156
-9.3237238 159.92574 -35.655674 -163.25894 -35.719246 174.0439 -13.751755 -56.221237
2160000000 -16.091072 -117.8739 -9.0923233 -158.85144 -9.1552048 -179.57565 -9.4329834 154.57573
-9.09128 -158.88766 -22.819159 8.2099237 -30.492559 -112.92255 -35.762268 -173.5697
-9.2124043 -179.44685 -30.550859 -112.8364 -19.967239 -49.171364 -35.887352 163.56154
-9.306119 154.80444 -35.646355 -173.48349 -35.708683 163.61464 -13.749506 -59.316063
2170000000 -16.802202 -123.23412 -9.0781918 -164.09634 -9.1457329 175.15495 -9.4161139 149.4502
-9.0753241 -164.13708 -22.768982 1.9420738 -30.488108 -120.17711 -35.771034 176.0899
-9.2022038 175.27791 -30.556576 -120.00803 -19.831743 -53.083027 -35.888187 153.33252
-9.289176 149.67091 -35.639732 176.31325 -35.692554 153.3364 -13.749272 -62.407124
2180000000 -17.592947 -128.91655 -9.066165 -169.34372 -9.1383791 169.89244 -9.400034 144.31161
-9.0625 -169.38516 -22.699165 -4.1505303 -30.486452 -127.32981 -35.758324 165.75182
-9.1939812 170.00632 -30.545662 -127.16656 -19.714737 -56.919186 -35.883312 142.91464
-9.2720318 144.52559 -35.649303 165.98973 -35.699551 142.90298 -13.759637 -65.471672
2190000000 -18.464582 -134.98662 -9.0536699 -174.57056 -9.1324501 164.62263 -9.3843851 139.16948
-9.0511456 -174.62332 -22.587223 -10.15468 -30.481066 -134.39607 -35.780674 155.43869
-9.1884508 164.73904 -30.543589 -134.18266 -19.590927 -60.700836 -35.878269 132.51219
-9.257225 139.37552 -35.666653 155.61479 -35.691055 132.59708 -13.77063 -68.515091
2200000000 -19.450289 -141.52798 -9.0428753 -179.80305 -9.1268749 159.36778 -9.3717842 134.02522
-9.0394249 -179.85291 -22.456385 -15.996785 -30.46759 -141.3709 -35.828598 145.1322
-9.1841021 159.47327 -30.526308 -141.2383 -19.473991 -64.423248 -35.907021 122.14793
-9.2440138 134.22227 -35.698597 145.40355 -35.721939 122.20565 -13.783687 -71.561768
2210000000 -20.545425 -148.62683 -9.0331278 174.97794 -9.1247559 154.11407 -9.360199 128.87193
-9.0291481 174.90512 -22.309532 -21.700178 -30.436848 -148.28719 -35.839436 135.12398
-9.1814289 154.20842 -30.505966 -148.05644 -19.355366 -68.148613 -35.90234 112.04469
-9.2323542 129.05434 -35.724724 135.26506 -35.719528 112.02576 -13.796862 -74.609749
2220000000 -21.757586 -156.5742 -9.0246468 169.75136 -9.1262321 148.8721 -9.3522215 123.72389
-9.0202446 169.66336 -22.136766 -27.298573 -30.407827 -155.23061 -35.847977 125.04526
-9.1817369 148.95177 -30.475927 -155.02017 -19.242872 -71.835426 -35.917046 101.91477
-9.2221069 123.90334 -35.734386 125.26019 -35.724358 101.95998 -13.810552 -77.631523
2230000000 -23.086294 -165.76906 -9.0213423 164.52283 -9.1291847 143.6468 -9.3431835 118.57848
-9.0147305 164.43089 -21.964951 -32.760983 -30.367786 -162.08583 -35.864349 114.85313
-9.1845989 143.71877 -30.434071 -161.97678 -19.134733 -75.482941 -35.904663 91.726593
-9.2126799 118.75034 -35.742588 115.09621 -35.71661 91.800262 -13.824779 -80.615311
2240000000 -24.512445 -176.94266 -9.0159607 159.30708 -9.1287222 138.42801 -9.3347988 113.43768
-9.0121174 159.217 -21.779629 -38.053482 -30.325708 -168.97791 -35.868542 104.7625
-9.186307 138.50407 -30.38541 -168.78587 -19.025385 -79.070137 -35.906261 81.744415
-9.2021914 113.60696 -35.760178 104.89558 -35.715664 81.769394 -13.836098 -83.561531
2250000000 -25.986549 168.87984 -9.0156736 154.10364 -9.132947 133.21863 -9.3298311 108.29679
-9.0110245 154.00943 -21.583595 -43.18338 -30.286768 -175.78001 -35.893524 94.609169
-9.1916218 133.2834 -30.341286 -175.59688 -18.913647 -82.61377 -35.909515 71.497063
-9.1962328 108.45647 -35.766457 94.837761 -35.715233 71.598938 -13.84547 -86.442383
2260000000 -27.341669 150.80576 -9.0160275 148.91945 -9.137023 128.01566 -9.3237095 103.15971
-9.0102262 148.82391 -21.378605 -48.17445 -30.231583 177.60362 -35.947586 84.543793
-9.1963739 128.07263 -30.30526 177.75221 -18.804026 -86.102081 -35.951878 61.527287
-9.1915274 103.31348 -35.807957 84.875084 -35.740643 61.468323 -13.854589 -89.300026
2270000000 -28.158131 128.7887 -9.0164881 143.7408 -9.1426086 122.8232 -9.318717 98.019897
-9.0082722 143.64986 -21.168797 -53.068481 -30.172251 170.99669 -35.965061 74.67366
-9.2001944 122.88538 -30.238319 171.12334 -18.697163 -89.574425 -35.976639 51.661884
-9.1860886 98.174164 -35.847401 74.935539 -35.788124 51.718327 -13.869597 -92.087105
2280000000 -28.059397 105.38576 -9.014555 138.57811 -9.1479616 117.63833 -9.3149967 92.889458
-9.0076323 138.4752 -20.949669 -57.804096 -30.084696 164.4169 -35.983288 64.861816
-9.2083054 117.70785 -30.152315 164.68185 -18.600164 -92.969116 -36.005299 41.829876
-9.1821709 93.044327 -35.872543 65.139778 -35.81604 41.859802 -13.885736 -94.828987
2290000000 -27.118694 84.279434 -9.0135632 133.41371 -9.1555882 112.46605 -9.3117027 87.761162
-9.0078897 133.31297 -20.742533 -62.43705 -29.995089 157.96213 -35.995289 55.24065
-9.2142916 112.53812 -30.057446 158.13416 -18.514988 -96.309258 -36.010571 32.179089
-9.1771774 87.918221 -35.856224 55.367023 -35.829998 32.237282 -13.906022 -97.520012
2300000000 -25.785145 67.297974 -9.012044 128.24998 -9.1623096 107.30877 -9.3078661 82.631287
-9.0082054 128.16083 -20.535664 -66.865707 -29.890123 151.42888 -35.998043 45.336449
-9.2205925 107.38126 -29.962521 151.59599 -18.436924 -99.610916 -36.027069 22.523794
-9.174098 82.790779 -35.860081 45.522747 -35.83625 22.594234 -13.929736 -100.13702
2310000000 -24.418768 53.990231 -9.0149632 123.08979 -9.1710119 102.16579 -9.3060589 77.518135
-9.0083923 123.01945 -20.32572 -71.154808 -29.79509 144.98088 -36.016155 35.520771
-9.2304935 102.23528 -29.864758 145.13269 -18.366533 -102.85654 -36.038021 12.846918
-9.17418 77.662636 -35.883114 35.734665 -35.858147 12.907791 -13.955776 -102.74459
2320000000 -23.153931 43.451275 -9.0161076 117.95104 -9.1773243 97.043999 -9.3056183 72.4039
-9.0084743 117.87711 -20.123009 -75.301102 -29.677099 138.64554 -36.019779 25.914246
-9.2381573 97.096649 -29.744144 138.72464 -18.303402 -106.07275 -36.075439 3.2505796
-9.1729927 72.532516 -35.899963 26.035038 -35.898151 3.3446071 -13.989375 -105.34308
2330000000 -21.999662 34.81974 -9.0181971 112.83118 -9.1840305 91.930092 -9.3061829 67.309067
-9.0124693 112.74637 -19.930634 -79.360931 -29.539654 132.2944 -36.035851 16.258358
-9.2453299 91.968948 -29.61104 132.40149 -18.250376 -109.27435 -36.125999 -6.1507754
-9.1736345 67.415039 -35.923882 16.426157 -35.921204 -6.0278916 -14.024719 -107.93611
2340000000 -20.964424 27.295532 -9.0201435 107.72508 -9.1919498 86.823792 -9.3060179 62.200237
-9.0157042 107.63106 -19.75984 -83.234482 -29.385757 125.86457 -36.041721 6.8453865
-9.2519484 86.856979 -29.459473 126.01799 -18.211287 -112.43563 -36.141232 -15.319843
-9.1739388 62.290993 -35.924831 6.9415984 -35.937328 -15.262836 -14.063815 -110.52352
2350000000 -20.033501 20.445639 -9.021594 102.63583 -9.1973696 81.719994 -9.3055668 57.103325
-9.0175705 102.52929 -19.596485 -86.934189 -29.233675 119.45441 -36.003815 -2.7948406
-9.2600021 81.746864 -29.306948 119.58636 -18.178101 -115.55548 -36.121578 -24.511282
-9.1749411 57.182987 -35.895691 -2.6984725 -35.928432 -24.429207 -14.100619 -113.06996
2360000000 -19.224043 14.02109 -9.021574 97.552856 -9.2016916 76.627357 -9.3067303 52.003304
-9.0173178 97.455498 -19.44013 -90.51223 -29.075941 113.05004 -35.995163 -12.60451
-9.2655191 76.659294 -29.147863 113.14487 -18.151154 -118.62333 -36.08712 -33.737503
-9.1755438 52.079597 -35.871849 -12.36982 -35.895145 -33.752216 -14.134205 -115.62303
2370000000 -18.529596 7.8677659 -9.0214157 92.475777 -9.2084608 71.541039 -9.3093004 46.908356
-9.0165682 92.368668 -19.291281 -93.980766 -28.912519 106.60598 -36.015556 -22.51948
-9.2713728 71.564857 -28.977987 106.74136 -18.125185 -121.64522 -36.083157 -43.162395
-9.1772203 46.970463 -35.898888 -22.297083 -35.878029 -43.176861 -14.170587 -118.16424
2380000000 -17.931192 2.0857179 -9.0169506 87.398743 -9.2124538 66.468544 -9.3093576 41.812523
-9.0154381 87.279808 -19.15576 -97.386391 -28.740198 100.18388 -36.069366 -32.135242
-9.2758217 66.480827 -28.813974 100.29144 -18.114216 -124.64519 -36.087807 -52.591545
-9.1780205 41.864025 -35.951923 -31.955963 -35.883327 -52.548622 -14.201649 -120.65134
2390000000 -17.40288 -3.4278059 -9.0139084 82.319695 -9.2159042 61.402882 -9.3120308 36.716873
-9.0137081 82.197372 -19.030811 -100.74336 -28.549582 93.747833 -36.143883 -41.481621
-9.2816782 61.400852 -28.620583 93.853287 -18.108711 -127.55116 -36.10994 -61.827412
-9.1794224 36.745411 -36.009129 -41.420429 -35.91563 -61.766201 -14.230159 -123.05946
2400000000 -16.934851 -8.7747984 -9.0103235 77.237991 -9.2178669 56.338818 -9.314497 31.612209
-9.0099335 77.118584 -18.915979 -103.9976 -28.367712 87.205383 -36.181686 -50.527046
-9.2856131 56.336243 -28.429819 87.290543 -18.105417 -130.36958 -36.13932 -70.898674
-9.1843119 31.638386 -36.047989 -50.421135 -35.941563 -70.984024 -14.252645 -125.36744
2410000000 -16.52816 -14.044147 -9.0080452 72.16555 -9.2207623 51.279697 -9.3193922 26.512001
-9.0073051 72.03965 -18.814194 -107.16228 -28.190844 80.58078 -36.191887 -59.595791
-9.2881317 51.282223 -28.25235 80.691803 -18.116312 -133.05707 -36.142025 -79.934837
-9.1902494 26.540552 -36.05439 -59.578018 -35.945053 -79.893845 -14.265037 -127.60021
2420000000 -16.168581 -19.16675 -9.003891 67.089844 -9.2219725 46.222637 -9.3232088 21.410786
-9.0057182 66.964836 -18.711338 -110.21947 -28.021807 73.950172 -36.188259 -68.867935
-9.2897873 46.231342 -28.091356 74.11161 -18.121214 -135.62009 -36.166286 -89.034485
-9.1944799 21.442049 -36.060333 -68.773804 -35.967659 -89.028908 -14.272117 -129.73822
2430000000 -15.85099 -24.183855 -8.9999256 62.03656 -9.2209673 41.170139 -9.3310471 16.316063
-9.0018978 61.892422 -18.60935 -113.2174 -27.864201 67.392059 -36.204494 -78.209984
-9.2884464 41.175056 -27.938032 67.568047 -18.125765 -138.12616 -36.171181 -98.306473
-9.2015162 16.346649 -36.06583 -78.043076 -35.963757 -98.225433 -14.276469 -131.8158
2440000000 -15.559939 -29.190296 -8.9939003 56.965557 -9.2184792 36.110756 -9.3383913 11.22839
-8.998292 56.828819 -18.519876 -116.10842 -27.694605 60.912537 -36.243668 -87.314713
-9.2870493 36.119389 -27.768179 61.082924 -18.139053 -140.50752 -36.208797 -107.31799
-9.2123213 11.264502 -36.119652 -87.107552 -36.028618 -107.38396 -14.285541 -133.80299
2450000000 -15.306577 -34.266121 -8.9858227 51.884029 -9.2143116 31.034338 -9.3455667 6.1352139
-8.9909744 51.762299 -18.435188 -118.88231 -27.517353 54.382813 -36.30695 -96.235878
-9.2846918 31.054409 -27.591318 54.538544 -18.155167 -142.7755 -36.268051 -116.15881
-9.220603 6.177207 -36.179153 -96.047516 -36.080002 -116.2091 -14.295146 -135.71162
2460000000 -15.10378 -39.386913 -8.978529 46.792965 -9.2127781 25.95286 -9.3560543 1.0480335
-8.9814863 46.682388 -18.349161 -121.45637 -27.342371 47.741386 -36.324753 -104.85338
-9.2809706 25.983219 -27.40719 47.885361 -18.167587 -144.95886 -36.331993 -124.79155
-9.2299585 1.1001943 -36.202545 -104.73343 -36.128906 -124.74232 -14.303055 -137.53377
2470000000 -14.958884 -44.432701 -8.972456 41.684296 -9.2113886 20.884098 -9.3670454 -4.0252748
-8.9765253 41.585659 -18.264666 -123.88536 -27.167515 41.069187 -36.315426 -113.5073
-9.2799921 20.914944 -27.237097 41.173988 -18.173599 -147.04822 -36.362942 -133.31004
-9.242528 -3.964138 -36.168911 -113.36143 -36.18169 -133.25615 -14.308215 -139.3493
2480000000 -14.852062 -49.382507 -8.9680138 36.578323 -9.2097044 15.816881 -9.3803177 -9.0774212
-8.9713631 36.471962 -18.174002 -126.12014 -27.013445 34.319344 -36.265499 -122.07516
-9.2787752 15.847717 -27.080399 34.468063 -18.167902 -149.0509 -36.345711 -141.82391
-9.2543135 -9.0263758 -36.150166 -121.97931 -36.160854 -141.77045 -14.311757 -141.17014
2490000000 -14.778534 -54.205853 -8.9646378 31.481903 -9.2069368 10.748245 -9.3925953 -14.118788
-8.9707661 31.370537 -18.074234 -128.26743 -26.882034 27.593214 -36.234966 -130.97836
-9.2758017 10.773827 -26.944992 27.729895 -18.155508 -151.0493 -36.360188 -150.34328
-9.2689695 -14.075918 -36.122013 -130.8248 -36.163498 -150.34207 -14.310986 -143.03029
2500000000 -14.722909 -59.03767 -8.9625597 26.391184 -9.203866 5.6721988 -9.4021626 -19.153355
-8.9691353 26.29014 -17.974823 -130.29115 -26.75424 20.923845 -36.23069 -139.78784
-9.2742023 5.6967106 -26.81657 21.057346 -18.133698 -153.01421 -36.384598 -158.95093
-9.2798443 -19.119907 -36.105965 -139.68974 -36.186188 -159.01291 -14.311572 -144.93578
2510000000 -14.69595 -63.883709 -8.9603825 21.308867 -9.2011652 0.59256172 -9.4132471 -24.188906
-8.9690199 21.198721 -17.875433 -132.20038 -26.623421 14.318536 -36.237583 -148.5582
-9.2700348 0.6028083 -26.682402 14.421055 -18.099998 -154.94858 -36.408024 -167.43463
-9.2949133 -24.157873 -36.115105 -148.41786 -36.208725 -167.31758 -14.306593 -146.90605
2520000000 -14.695353 -68.802658 -8.9581051 16.221436 -9.1994314 -4.4933691 -9.4261189 -29.223169
-8.9649706 16.125399 -17.767506 -134.07103 -26.496706 7.6183758 -36.238571 -157.16977
-9.2695436 -4.4794765 -26.565184 7.7220755 -18.053162 -156.85651 -36.403915 -175.71169
-9.3085299 -29.175858 -36.118103 -156.99278 -36.205162 -175.64609 -14.295586 -148.94586
2530000000 -14.726927 -73.834763 -8.9543915 11.142201 -9.1994896 -9.5813122 -9.4401207 -34.238831
-8.9632893 11.040017 -17.651411 -135.89153 -26.374058 0.92128283 -36.222416 -165.62663
-9.2693939 -9.5640802 -26.443649 1.0668581 -17.992331 -158.76549 -36.391727 176.01546
-9.3221474 -34.190453 -36.106697 -165.50308 -36.201317 176.10786 -14.278118 -151.07356
2540000000 -14.795671 -78.983833 -8.9520969 6.0529537 -9.2001801 -14.658141 -9.4568081 -39.239048
-8.9614868 5.9546442 -17.533268 -137.74652 -26.273558 -5.7423139 -36.198513 -173.83635
