!Agilent Technologies,N5224A,MY51441093,A.09.90.21
!Agilent N5224A: A.09.90.21
!Date: Friday, December 19, 2025 16:34:45
!Correction: S11(Full 4 Port(1,2,3,4)) 
!S12(Full 4 Port(1,2,3,4)) 
!S13(Full 4 Port(1,2,3,4)) 
!S14(Full 4 Port(1,2,3,4)) 
!S21(Full 4 Port(1,2,3,4)) 
!S22(Full 4 Port(1,2,3,4)) 
!S23(Full 4 Port(1,2,3,4)) 
!S24(Full 4 Port(1,2,3,4)) 
!S31(Full 4 Port(1,2,3,4)) 
!S32(Full 4 Port(1,2,3,4)) 
!S33(Full 4 Port(1,2,3,4)) 
!S34(Full 4 Port(1,2,3,4)) 
!S41(Full 4 Port(1,2,3,4)) 
!S42(Full 4 Port(1,2,3,4)) 
!S43(Full 4 Port(1,2,3,4)) 
!S44(Full 4 Port(1,2,3,4)) 
!S4P File: Measurements: <S11,S12,S13,S14>,
!<S21,S22,S23,S24>,
!<S31,S32,S33,S34>,
!<S41,S42,S43,S44>:
# Hz S  dB   R 50
2000000000 -10.170612 -47.706352 -9.5045967 -75.248932 -9.6224327 -75.211044 -9.6786966 -75.219116
-9.5072689 -75.312553 -20.73625 104.94161 -30.5383 21.218565 -34.954346 38.502155
-9.6784534 -75.047661 -30.595337 21.463358 -20.351721 90.264252 -35.244316 38.96476
-9.5622206 -74.993622 -34.845573 38.820789 -35.059845 39.021496 -20.521265 99.613472
2010000000 -10.368302 -51.970753 -9.4702396 -80.427147 -9.5885029 -80.389046 -9.648838 -80.39032
-9.476675 -80.472466 -20.926043 99.692085 -30.564388 14.446868 -35.040699 28.006451
-9.640584 -80.224968 -30.615274 14.628673 -20.348518 85.39576 -35.339481 28.726215
-9.5315189 -80.151451 -34.921684 28.284655 -35.155079 28.71139 -20.565262 94.592079
2020000000 -10.596434 -56.216988 -9.4390135 -85.608955 -9.556097 -85.574181 -9.61936 -85.57238
-9.4441061 -85.648438 -21.121431 94.313637 -30.568657 7.7261019 -35.096245 17.734241
-9.6072483 -85.409035 -30.623985 7.8979478 -20.358057 80.540924 -35.379452 18.425564
-9.4979076 -85.321564 -34.978176 17.977467 -35.22253 18.523457 -20.604515 89.593155
2030000000 -10.85097 -60.411175 -9.4091406 -90.790535 -9.5255814 -90.7649 -9.5895472 -90.761864
-9.4107571 -90.832451 -21.316109 88.798744 -30.570793 0.79150492 -35.143185 7.3259902
-9.5768452 -90.59774 -30.61306 1.0441501 -20.379324 75.660133 -35.435051 8.0597553
-9.466486 -90.508972 -35.026321 7.7024598 -35.243065 8.2134399 -20.66152 84.559639
2040000000 -11.124899 -64.596352 -9.3785276 -95.982239 -9.4969444 -95.953735 -9.5586309 -95.954224
-9.3781195 -96.032555 -21.516972 83.134735 -30.554089 -6.2198553 -35.184734 -3.1278224
-9.547308 -95.799843 -30.60811 -5.9749384 -20.408251 70.752747 -35.463085 -2.5031128
-9.4358616 -95.700279 -35.06163 -2.8217721 -35.29406 -2.3661921 -20.734324 79.487404
2050000000 -11.419058 -68.76046 -9.3445148 -101.19181 -9.4645767 -101.1572 -9.5268497 -101.1529
-9.3467541 -101.24973 -21.717329 77.380417 -30.556414 -13.358731 -35.235592 -13.610406
-9.5168324 -101.01109 -30.609991 -13.212254 -20.448917 65.813248 -35.521816 -13.108293
-9.4061499 -100.9092 -35.108948 -13.355107 -35.340363 -13.099562 -20.820768 74.389305
2060000000 -11.735909 -72.925102 -9.3115025 -106.42284 -9.4337587 -106.37135 -9.4996824 -106.35716
-9.3171625 -106.48408 -21.903849 71.493805 -30.573566 -20.519213 -35.29594 -24.101238
-9.4866076 -106.2261 -30.61866 -20.296358 -20.488207 60.873966 -35.59063 -23.683681
-9.3773165 -106.11779 -35.177658 -23.885227 -35.424633 -23.518541 -20.911177 69.222298
2070000000 -12.079223 -77.074532 -9.2840462 -111.66178 -9.4075317 -111.59619 -9.471179 -111.58086
-9.2892828 -111.71935 -22.079206 65.516045 -30.601845 -27.606861 -35.387993 -34.524696
-9.4608068 -111.45391 -30.647423 -27.365854 -20.523849 55.919907 -35.667091 -34.093491
-9.3513756 -111.33318 -35.261906 -34.199684 -35.503895 -33.943928 -20.990791 63.978485
2080000000 -12.443997 -81.216866 -9.2594795 -116.90246 -9.3818674 -116.82034 -9.4447079 -116.80176
-9.2625942 -116.96532 -22.245417 59.371578 -30.610764 -34.686428 -35.429752 -44.717403
-9.4350262 -116.68095 -30.65642 -34.474632 -20.555481 50.869526 -35.728962 -44.318642
-9.3242178 -116.54858 -35.309166 -44.398571 -35.538311 -44.225418 -21.069628 58.588402
2090000000 -12.833756 -85.369385 -9.2365904 -122.12994 -9.3563147 -122.04659 -9.4190722 -122.0121
-9.2387724 -122.19348 -22.394985 53.099514 -30.600309 -41.761208 -35.468876 -54.824425
-9.4089642 -121.91717 -30.657396 -41.527603 -20.584822 45.759605 -35.735802 -54.619877
-9.2957573 -121.77309 -35.332371 -54.511494 -35.571152 -54.570431 -21.134514 53.097057
2100000000 -13.258835 -89.576996 -9.2130327 -127.35217 -9.3321075 -127.28239 -9.3940983 -127.24196
-9.2160015 -127.42562 -22.537218 46.741432 -30.604368 -48.893047 -35.490681 -65.105621
-9.3863459 -127.14999 -30.657007 -48.740803 -20.611313 40.690548 -35.763412 -65.114082
-9.2700253 -127.00185 -35.370224 -64.857117 -35.578251 -65.046745 -21.181597 47.529167
2110000000 -13.727773 -93.777702 -9.1906004 -132.58792 -9.3080606 -132.51735 -9.3700819 -132.46446
-9.191288 -132.64702 -22.651638 40.355885 -30.597563 -56.111683 -35.505241 -75.391319
-9.3624134 -132.39474 -30.641956 -55.930599 -20.63142 35.605698 -35.792145 -75.612175
-9.2457476 -132.24164 -35.388187 -75.228516 -35.597252 -75.677895 -21.214973 41.959347
2120000000 -14.246855 -97.945274 -9.1670332 -137.82961 -9.286273 -137.76559 -9.3469858 -137.71042
-9.1670284 -137.87755 -22.744572 33.923477 -30.593639 -63.297455 -35.524517 -85.738037
-9.3406286 -137.63315 -30.653095 -63.170433 -20.642895 30.592667 -35.820374 -86.274658
-9.2228365 -137.47647 -35.400154 -85.554665 -35.621784 -86.09256 -21.223026 36.468163
2130000000 -14.807221 -102.02409 -9.1456099 -143.08168 -9.2676001 -143.01176 -9.3262796 -142.94702
-9.1435575 -143.12238 -22.805069 27.462423 -30.590338 -70.504051 -35.536774 -96.088829
-9.3221693 -142.88626 -30.64439 -70.291176 -20.650972 25.645519 -35.84206 -96.723175
-9.2020922 -142.7193 -35.420006 -95.853821 -35.671162 -96.693916 -21.212788 31.067133
2140000000 -15.404574 -106.07673 -9.1258144 -148.33194 -9.2493038 -148.256 -9.3096476 -148.17946
-9.1238928 -148.3734 -22.837036 20.985304 -30.582363 -77.610939 -35.555897 -106.29578
-9.3062983 -148.12338 -30.640402 -77.421448 -20.649717 20.776854 -35.872986 -107.08926
-9.1825943 -147.96152 -35.426952 -106.11707 -35.680065 -107.10966 -21.185181 25.737717
2150000000 -16.03672 -110.16259 -9.108058 -153.58954 -9.2343473 -153.48926 -9.2907448 -153.41211
-9.1063251 -153.63425 -22.839598 14.536264 -30.571087 -84.783195 -35.554348 -116.60603
-9.2884645 -153.36179 -30.625383 -84.544876 -20.646917 15.917361 -35.875965 -117.4997
-9.162612 -153.19287 -35.427406 -116.33784 -35.701954 -117.42703 -21.1574 20.476068
2160000000 -16.729845 -114.36547 -9.0919123 -158.8307 -9.2189474 -158.7197 -9.2724752 -158.64127
-9.091589 -158.8741 -22.815481 8.1583834 -30.549131 -92.008537 -35.535843 -126.97428
-9.2741117 -158.59753 -30.608335 -91.807205 -20.647192 11.157693 -35.878494 -127.99323
-9.1452856 -158.42538 -35.420658 -126.78908 -35.674042 -127.82552 -21.117891 15.402271
2170000000 -17.479792 -118.68935 -9.0790854 -164.07169 -9.2044325 -163.95305 -9.256218 -163.87564
-9.0755777 -164.10573 -22.76721 1.8903097 -30.533089 -99.173164 -35.538471 -137.4243
-9.2591162 -163.83118 -30.596395 -98.999001 -20.645645 6.4460182 -35.875633 -138.43976
-9.1266909 -163.65816 -35.412762 -137.10213 -35.668056 -138.35437 -21.088112 10.4335
2180000000 -18.313908 -123.16093 -9.0682297 -169.30721 -9.1920643 -169.18436 -9.2401571 -169.1073
-9.0636759 -169.34749 -22.692553 -4.2193022 -30.521536 -106.28803 -35.550732 -147.85345
-9.2470341 -169.06966 -30.588318 -106.1069 -20.650402 1.873558 -35.860039 -148.95773
-9.1124697 -168.89758 -35.425636 -147.51118 -35.694092 -148.81779 -21.060442 5.5425348
2190000000 -19.238222 -127.78442 -9.0578461 -174.52229 -9.1804333 -174.40962 -9.2255354 -174.34396
-9.0530424 -174.57867 -22.588211 -10.209217 -30.509029 -113.31551 -35.561897 -158.23618
-9.2348967 -174.30061 -30.571093 -113.16707 -20.643021 -2.7313557 -35.873455 -159.44992
-9.0973349 -174.14038 -35.436974 -158.03111 -35.695358 -159.33957 -21.036325 0.7524274
2200000000 -20.279598 -132.50351 -9.0470648 -179.73886 -9.1702099 -179.63367 -9.2137709 -179.57919
-9.0412092 -179.80394 -22.458611 -16.049854 -30.493956 -120.33196 -35.597797 -168.52122
-9.2236958 -179.53276 -30.54698 -120.17249 -20.634382 -7.2642283 -35.889442 -169.75285
-9.0848293 -179.38239 -35.460979 -168.24277 -35.719879 -169.7506 -21.009859 -4.0218372
2210000000 -21.443592 -137.29411 -9.0361881 175.04778 -9.1605539 175.14122 -9.2053709 175.1951
-9.0301857 174.97835 -22.306086 -21.763626 -30.455635 -127.26318 -35.631424 -178.71898
-9.2163973 175.24123 -30.512718 -127.03735 -20.624203 -11.850451 -35.911423 179.92949
-9.0748978 175.38092 -35.496452 -178.51343 -35.743855 179.95467 -20.978535 -8.8401461
2220000000 -22.738962 -142.30673 -9.0281296 169.83566 -9.1550188 169.93704 -9.1974392 169.9807
-9.0209312 169.75403 -22.137486 -27.371059 -30.40255 -134.15477 -35.633503 171.18695
-9.2113094 170.01712 -30.470081 -134.00461 -20.615747 -16.414675 -35.932678 169.64706
-9.066617 170.15559 -35.506546 171.41727 -35.728588 169.72395 -20.9505 -13.648748
2230000000 -24.195993 -147.86597 -9.0208464 164.62395 -9.1492672 164.7377 -9.1904278 164.76245
-9.0143948 164.53271 -21.964602 -32.810417 -30.354677 -141.04022 -35.630688 160.89499
-9.2064028 164.81564 -30.420696 -140.89041 -20.603788 -20.971205 -35.920864 159.42442
-9.0587826 164.93477 -35.511185 161.21085 -35.722565 159.53214 -20.915871 -18.445381
2240000000 -25.89303 -154.43825 -9.0141687 159.41682 -9.1446018 159.54962 -9.1818895 159.55873
-9.0086718 159.32144 -21.783348 -38.144855 -30.306919 -147.91191 -35.659492 150.80011
-9.2002668 159.61456 -30.371695 -147.74692 -20.577953 -25.497557 -35.934883 149.23723
-9.0504141 159.72618 -35.522724 151.017 -35.730701 149.37672 -20.86867 -23.193592
2250000000 -27.944387 -162.72859 -9.0115328 154.22847 -9.1385317 154.3634 -9.1781816 154.35823
-9.0052958 154.12917 -21.590443 -43.263695 -30.255272 -154.73485 -35.669243 140.62576
-9.1966486 154.42317 -30.324541 -154.58136 -20.553413 -30.007986 -35.917423 138.93283
-9.0447102 154.5341 -35.514061 140.83229 -35.739014 139.08359 -20.804689 -27.91824
2260000000 -30.518642 -173.903 -9.0090418 149.04121 -9.1333742 149.18033 -9.1737299 149.17062
-9.0018206 148.94989 -21.385582 -48.261097 -30.201075 -161.38364 -35.691204 130.608
-9.1931973 149.23485 -30.264502 -161.2724 -20.509691 -34.482128 -35.937523 128.94124
-9.0406389 149.32722 -35.572868 130.77795 -35.751778 129.093 -20.734953 -32.576057
2270000000 -33.664757 168.23334 -9.005888 143.87552 -9.1311722 143.99843 -9.1699295 143.99574
-8.9969406 143.78094 -21.179085 -53.136169 -30.129137 -167.9646 -35.724827 120.77136
-9.1882124 144.06082 -30.199255 -167.84354 -20.465666 -38.953529 -35.98003 119.00253
-9.0356598 144.14131 -35.596367 120.8933 -35.777435 119.04106 -20.650805 -37.123196
2280000000 -36.577766 135.3878 -9.0018396 138.70975 -9.1276922 138.8255 -9.1663609 138.82124
-8.9927483 138.60939 -20.962927 -57.869122 -30.038122 -174.57906 -35.737129 110.89552
-9.1838598 138.89267 -30.118053 -174.37776 -20.417757 -43.347221 -35.98011 109.16974
-9.0312691 138.96988 -35.613976 111.03619 -35.782898 109.2085 -20.562819 -41.604076
2290000000 -36.268101 90.912354 -8.9965448 133.54086 -9.1251307 133.65576 -9.1644783 133.64966
-8.9896889 133.44197 -20.757868 -62.4729 -29.946495 178.85197 -35.731236 101.01455
-9.1815882 133.72556 -30.00452 179.039 -20.374378 -47.675674 -35.981163 99.472191
-9.0269213 133.80235 -35.605701 101.23956 -35.794003 99.511421 -20.479816 -45.98267
2300000000 -33.299927 61.125515 -8.9909544 128.36761 -9.1248493 128.48987 -9.1594048 128.48601
-8.9868202 128.28032 -20.547277 -66.903091 -29.83218 172.29346 -35.734108 91.216225
-9.1813393 128.56401 -29.898458 172.45216 -20.330608 -51.91758 -35.967133 89.642998
-9.0242949 128.64014 -35.606323 91.415047 -35.781799 89.832504 -20.396063 -50.17329
2310000000 -30.515139 44.822586 -8.9904337 123.19988 -9.1227674 123.3414 -9.1567574 123.34061
-8.9831266 123.12214 -20.34186 -71.150261 -29.735325 165.82535 -35.741402 81.276222
-9.1810551 123.40961 -29.79575 165.90387 -20.285877 -56.069588 -35.974159 79.922363
-9.0224314 123.47823 -35.617195 81.469559 -35.781086 79.861206 -20.312565 -54.327942
2320000000 -28.338881 34.707455 -8.9881496 118.04005 -9.1196194 118.19572 -9.1555834 118.1907
-8.9824114 117.96059 -20.139002 -75.277885 -29.608046 159.35428 -35.75613 71.547096
-9.1809206 118.25294 -29.678631 159.49248 -20.241703 -60.178429 -35.984844 70.224144
-9.02176 118.32304 -35.624485 71.749504 -35.790821 70.239662 -20.242964 -58.417522
2330000000 -26.570406 27.667997 -8.9867287 112.8947 -9.1194801 113.06332 -9.1531687 113.0611
-8.9795332 112.81365 -19.947914 -79.325897 -29.491379 152.98981 -35.77121 61.826393
-9.1787109 113.10301 -29.557463 153.11406 -20.201178 -64.232414 -36.009068 60.63155
-9.0197592 113.17736 -35.655575 61.957157 -35.802452 60.741001 -20.182861 -62.496567
2340000000 -25.08861 22.00481 -8.9876976 107.76524 -9.1173582 107.92381 -9.1506491 107.93337
-8.9809847 107.66721 -19.774837 -83.187782 -29.329241 146.53587 -35.780163 52.254765
-9.1782904 107.95396 -29.403992 146.67378 -20.173109 -68.244919 -35.986118 51.423576
-9.0170765 108.02859 -35.665791 52.41568 -35.79586 51.332214 -20.139488 -66.535286
2350000000 -23.815317 16.864073 -8.986474 102.64298 -9.1171684 102.78871 -9.1487789 102.80862
-8.9821644 102.54881 -19.611206 -86.897133 -29.169514 140.13272 -35.749371 42.582546
-9.1763449 102.81802 -29.243172 140.27184 -20.147638 -72.178322 -35.951485 41.985649
-9.0152931 102.89308 -35.651413 42.764595 -35.761345 41.99614 -20.097939 -70.562248
2360000000 -22.732262 11.953644 -8.9852839 97.533607 -9.1178255 97.655029 -9.147357 97.691872
-8.9798431 97.431831 -19.455982 -90.43792 -29.017862 133.65944 -35.759846 32.772228
-9.1770458 97.681114 -29.084944 133.74991 -20.126266 -76.043083 -35.917103 32.553131
-9.0138979 97.764824 -35.6292 32.995758 -35.706356 32.514011 -20.062849 -74.55793
2370000000 -21.831011 7.1699333 -8.9838581 92.427628 -9.1175737 92.532883 -9.1452971 92.578072
-8.9783144 92.316521 -19.305351 -93.88607 -28.856865 127.24839 -35.790646 23.024252
-9.1812096 92.550323 -28.932447 127.3429 -20.105812 -79.873955 -35.875587 22.762032
-9.0109959 92.634193 -35.649895 23.165569 -35.685387 22.823938 -20.028841 -78.57608
2380000000 -21.073221 2.6886439 -8.9810839 87.307335 -9.1182823 87.418121 -9.1413288 87.452713
-8.9776459 87.197159 -19.166636 -97.288208 -28.691408 120.74746 -35.853382 13.405813
-9.1820946 87.430611 -28.766098 120.87965 -20.089605 -83.658661 -35.891945 13.18239
-9.0079155 87.508827 -35.727211 13.507205 -35.703377 13.324558 -19.99342 -82.565338
2390000000 -20.406939 -1.5332997 -8.9778948 82.190681 -9.1173964 82.305275 -9.1379995 82.334198
-8.974577 82.076035 -19.034904 -100.63743 -28.509268 114.32722 -35.922646 4.1403017
-9.1806459 82.310738 -28.580294 114.47888 -20.076828 -87.339615 -35.921246 3.8033769
-9.0053606 82.372803 -35.802284 4.1813703 -35.744728 3.8320196 -19.955309 -86.482544
2400000000 -19.815857 -5.615407 -8.9764328 77.076843 -9.1181135 77.198845 -9.137269 77.215378
-8.9749136 76.960693 -18.921635 -103.897 -28.328358 107.84062 -35.967419 -4.9761329
-9.1832161 77.199417 -28.392799 107.93434 -20.072601 -90.939636 -35.942341 -5.33529
-9.0051498 77.239929 -35.828426 -4.8619246 -35.759064 -5.2813277 -19.908934 -90.23838
2410000000 -19.279741 -9.6954002 -8.9756145 71.96563 -9.1199713 72.101875 -9.1343813 72.095848
-8.9731388 71.847542 -18.814335 -107.04337 -28.154583 101.19587 -35.962894 -14.045384
-9.1851301 72.095139 -28.23111 101.31374 -20.071926 -94.35318 -35.954018 -14.347134
-9.0027285 72.121078 -35.834278 -13.928214 -35.745964 -14.384892 -19.858057 -93.875305
2420000000 -18.804949 -13.671513 -8.9759426 66.863655 -9.1219902 67.00193 -9.1343498 66.977844
-8.9750557 66.735802 -18.70645 -110.12426 -27.992111 94.607033 -35.964291 -23.271303
-9.187397 67.004593 -28.060732 94.715904 -20.061777 -97.63298 -35.942833 -23.511101
-9.0047073 67.011208 -35.83062 -23.169226 -35.750561 -23.475439 -19.795515 -97.275589
2430000000 -18.368502 -17.617702 -8.9753122 61.776283 -9.1203299 61.905304 -9.1326084 61.873817
-8.9736328 61.636665 -18.602335 -113.12408 -27.835253 88.094032 -35.970833 -32.527306
-9.1874762 61.908112 -27.902584 88.221939 -20.046947 -100.80443 -35.941673 -32.760056
-9.0018969 61.898769 -35.843876 -32.454006 -35.751339 -32.708393 -19.729856 -100.47599
2440000000 -17.962896 -21.629229 -8.9725647 56.686222 -9.1203823 56.798775 -9.1307468 56.754761
-8.9758968 56.543438 -18.508705 -116.02761 -27.675676 81.598991 -36.010387 -41.691582
-9.187067 56.812344 -27.736622 81.747849 -20.037659 -103.87293 -35.985195 -41.755424
-9.0041876 56.796238 -35.875313 -41.535107 -35.783623 -41.806061 -19.67271 -103.52591
2450000000 -17.602083 -25.735435 -8.9701548 51.581371 -9.1200972 51.693611 -9.1310005 51.646984
-8.9725142 51.457935 -18.423439 -118.81268 -27.493935 75.094147 -36.069595 -50.600361
-9.1872187 51.710846 -27.555523 75.253059 -20.027979 -106.76429 -36.036469 -50.658779
-9.0018063 51.69331 -35.950886 -50.425461 -35.846298 -50.614422 -19.624443 -106.34087
2460000000 -17.294386 -29.859743 -8.9683056 46.46653 -9.1212826 46.583244 -9.1297855 46.533928
-8.9708748 46.355244 -18.336662 -121.41315 -27.310595 68.475159 -36.080688 -59.217133
-9.1894131 46.605465 -27.377165 68.612595 -20.022837 -109.53107 -36.076881 -59.284206
-9.0029526 46.58757 -35.968346 -59.046604 -35.878185 -59.197674 -19.583303 -108.92583
2470000000 -17.03927 -33.899742 -8.9658089 41.340508 -9.1244421 41.480446 -9.1317568 41.430317
-8.9706707 41.239479 -18.250763 -123.8685 -27.148069 61.833176 -36.06216 -67.857849
-9.1923828 41.51099 -27.211061 61.978245 -20.005161 -112.1609 -36.089806 -67.67672
-9.004303 41.48193 -35.948887 -67.755295 -35.889988 -67.607635 -19.548765 -111.32603
2480000000 -16.808626 -37.865345 -8.9697371 36.223721 -9.1282015 36.398785 -9.1326551 36.324474
-8.9722681 36.11713 -18.16016 -126.10943 -26.988173 55.07518 -36.027374 -76.501236
-9.1956072 36.419117 -27.05534 55.229115 -19.975092 -114.69713 -36.053345 -76.019722
-9.0056076 36.384052 -35.911091 -76.395958 -35.877377 -76.16066 -19.516527 -113.56034
2490000000 -16.60713 -41.792377 -8.9733782 31.118578 -9.1300821 31.305202 -9.1325665 31.237013
-8.9767637 31.009834 -18.061214 -128.26114 -26.856649 48.407188 -35.997902 -85.380402
-9.1968012 31.332338 -26.915949 48.526943 -19.938894 -117.16661 -36.051735 -84.672348
-9.0072079 31.281523 -35.864162 -85.23082 -35.843666 -84.658852 -19.479607 -115.76361
2500000000 -16.420898 -45.767662 -8.9772491 26.029371 -9.1328382 26.225185 -9.133934 26.149918
-8.9828682 25.921055 -17.962967 -130.32918 -26.721331 41.767292 -35.974735 -94.336708
-9.2000952 26.243313 -26.783907 41.888729 -19.890535 -119.61764 -36.001411 -93.211357
-9.0092592 26.183924 -35.852352 -94.260139 -35.814495 -93.256599 -19.448967 -117.91734
2510000000 -16.267981 -49.780628 -8.9812479 20.952934 -9.1368217 21.139008 -9.1348362 21.055834
-8.9888391 20.847422 -17.865074 -132.24576 -26.594028 35.17054 -35.983494 -103.09204
-9.205864 21.150648 -26.654402 35.33511 -19.835274 -122.00002 -35.996956 -101.70821
-9.0119858 21.08993 -35.849796 -102.85651 -35.799835 -101.61139 -19.415709 -120.086
2520000000 -16.138803 -53.847557 -8.9862156 15.876528 -9.1416893 16.058464 -9.1359358 15.955418
-8.9924097 15.783929 -17.75647 -134.12823 -26.45933 28.552683 -35.969498 -111.56218
-9.2110834 16.070004 -26.526972 28.66441 -19.76211 -124.34981 -35.966557 -110.07075
-9.0145216 15.992742 -35.845299 -111.48396 -35.774929 -109.99964 -19.373478 -122.27133
2530000000 -16.037245 -58.054722 -8.9892387 10.814226 -9.149045 10.97579 -9.1397696 10.858449
-8.9974413 10.711091 -17.644464 -135.96892 -26.338566 21.901142 -35.943085 -119.9839
-9.2167635 10.985579 -26.405773 22.015978 -19.673769 -126.66858 -35.926819 -118.45381
-9.0180502 10.906751 -35.821571 -119.80733 -35.728889 -118.43456 -19.321835 -124.51207
2540000000 -15.971734 -62.407448 -8.9939871 5.7485991 -9.1555052 5.9016542 -9.1439304 5.7711744
-9.0010233 5.6481724 -17.52813 -137.82854 -26.236485 15.213635 -35.90546 -128.44481
-9.223774 5.9225602 -26.293633 15.351979 -19.565924 -129.00562 -35.879822 -126.9015
