!Agilent Technologies,N5224A,MY51441093,A.09.90.21
!Agilent N5224A: A.09.90.21
!Date: Friday, December 19, 2025 16:35:34
!Correction: S11(Full 4 Port(1,2,3,4)) 
!S12(Full 4 Port(1,2,3,4)) 
!S13(Full 4 Port(1,2,3,4)) 
!S14(Full 4 Port(1,2,3,4)) 
!S21(Full 4 Port(1,2,3,4)) 
!S22(Full 4 Port(1,2,3,4)) 
!S23(Full 4 Port(1,2,3,4)) 
!S24(Full 4 Port(1,2,3,4)) 
!S31(Full 4 Port(1,2,3,4)) 
!S32(Full 4 Port(1,2,3,4)) 
!S33(Full 4 Port(1,2,3,4)) 
!S34(Full 4 Port(1,2,3,4)) 
!S41(Full 4 Port(1,2,3,4)) 
!S42(Full 4 Port(1,2,3,4)) 
!S43(Full 4 Port(1,2,3,4)) 
!S44(Full 4 Port(1,2,3,4)) 
!S4P File: Measurements: <S11,S12,S13,S14>,
!<S21,S22,S23,S24>,
!<S31,S32,S33,S34>,
!<S41,S42,S43,S44>:
# Hz S  dB   R 50
2000000000 -14.464377 -51.70816 -9.3557158 -75.762901 -9.5650291 -124.21601 -9.2095375 -170.28343
-9.3625307 -75.812111 -20.731647 104.72968 -30.521557 -27.449224 -34.516861 -56.457447
-9.6200151 -124.04901 -30.574192 -27.215155 -14.20921 -5.6576271 -34.866367 -105.63826
-9.0947447 -170.05751 -34.40514 -56.080872 -34.6973 -105.62967 -15.053399 3.9465897
2010000000 -14.784577 -54.594116 -9.333745 -81.030899 -9.552907 -129.38501 -9.1943836 -175.32245
-9.3437042 -81.076057 -20.928049 99.479912 -30.563797 -34.22715 -34.596367 -66.649437
-9.6042929 -129.21518 -30.60994 -34.008709 -14.179246 -9.2810354 -34.97084 -115.91142
-9.0767002 -175.0882 -34.482002 -66.36377 -34.793911 -115.78085 -15.151357 0.78776747
2020000000 -15.151448 -57.375904 -9.3178654 -86.29261 -9.5457802 -134.53943 -9.1781654 179.6281
-9.3270874 -86.330162 -21.128958 94.136826 -30.591776 -40.902653 -34.673038 -76.829079
-9.5953283 -134.36902 -30.635105 -40.688065 -14.159588 -12.889681 -35.041733 -125.97263
-9.0581865 179.87453 -34.541691 -76.510483 -34.880764 -125.80519 -15.246799 -2.3613453
2030000000 -15.559672 -60.000931 -9.3037424 -91.536385 -9.5373363 -139.69083 -9.1630344 174.57237
-9.3104858 -91.583138 -21.328484 88.620583 -30.599974 -47.760292 -34.732422 -87.085297
-9.5879107 -139.52892 -30.659935 -47.501755 -14.140442 -16.502083 -35.108192 -136.14484
-9.0424528 174.82288 -34.597824 -86.806412 -34.942303 -136.05028 -15.34516 -5.4840274
2040000000 -15.995028 -62.406898 -9.2888212 -96.792465 -9.5301161 -144.83144 -9.147192 169.51517
-9.2921047 -96.844582 -21.536957 82.97744 -30.609879 -54.68589 -34.768078 -97.455421
-9.5820551 -144.6757 -30.659561 -54.505653 -14.127227 -20.083458 -35.155579 -146.34775
-9.0260515 169.76552 -34.646072 -97.226067 -34.994522 -146.27036 -15.439925 -8.5758715
2050000000 -16.454573 -64.558006 -9.2733564 -102.04855 -9.5228395 -149.97675 -9.131794 164.45517
-9.27777 -102.09753 -21.741253 77.269234 -30.637661 -61.785088 -34.838024 -108.01408
-9.57761 -149.82224 -30.688583 -61.598179 -14.117418 -23.640461 -35.224159 -156.74031
-9.012084 164.69263 -34.724522 -107.68724 -35.044586 -156.62573 -15.526025 -11.640967
2060000000 -16.932043 -66.431343 -9.258502 -107.30187 -9.5194893 -155.1183 -9.1188326 159.3717
-9.2658443 -107.3607 -21.929571 71.414299 -30.667765 -68.859619 -34.920109 -118.34822
-9.573163 -154.96059 -30.720129 -68.656822 -14.105995 -27.166105 -35.288303 -167.02127
-8.9973879 159.61475 -34.796227 -118.06186 -35.132195 -166.88043 -15.597262 -14.691225
2070000000 -17.422575 -68.054565 -9.2499771 -112.55858 -9.5178185 -160.24207 -9.1057825 154.2751
-9.2551661 -112.61311 -22.10957 65.466179 -30.717091 -75.821571 -35.033314 -128.60281
-9.5696182 -160.10507 -30.776783 -75.672203 -14.092702 -30.644241 -35.412842 -177.03746
-8.9852629 154.5258 -34.912415 -128.37343 -35.228729 -177.0591 -15.659395 -17.725382
2080000000 -17.922838 -69.456322 -9.2410555 -117.79362 -9.5157042 -165.36876 -9.095768 149.18037
-9.2462311 -117.85117 -22.269169 59.371536 -30.736952 -82.762619 -35.087845 -138.82571
-9.5660048 -165.23051 -30.792982 -82.599823 -14.077004 -34.129402 -35.44762 172.87408
-8.9742928 149.43159 -34.967422 -138.49593 -35.282925 173.07182 -15.716507 -20.761299
2090000000 -18.444767 -70.640854 -9.2339935 -123.01097 -9.5133324 -170.47612 -9.0869989 144.08867
-9.2383699 -123.0761 -22.418676 53.141293 -30.763851 -89.771477 -35.153263 -148.93829
-9.5656605 -170.3504 -30.819792 -89.534973 -14.060105 -37.562603 -35.488152 162.99532
-8.964756 144.32391 -35.043472 -148.6507 -35.299904 163.04674 -15.761688 -23.725958
2100000000 -19.005581 -71.5383 -9.2282009 -128.21851 -9.5104837 -175.57381 -9.0793571 138.97833
-9.2309685 -128.27757 -22.556532 46.820435 -30.769352 -96.742455 -35.217655 -159.1602
-9.566432 -175.44141 -30.832882 -96.57795 -14.05192 -40.94421 -35.511421 152.99133
-8.9551783 139.21655 -35.094467 -158.82443 -35.319927 152.95267 -15.795259 -26.596455
2110000000 -19.610857 -71.892494 -9.2183075 -133.41153 -9.5093708 179.32465 -9.0709696 133.87283
-9.2214956 -133.46191 -22.663477 40.467434 -30.791178 -103.76071 -35.254623 -169.1992
-9.5642958 179.45297 -30.845131 -103.62414 -14.043209 -44.291058 -35.516178 142.76648
-8.9506807 134.10538 -35.123398 -169.13351 -35.343929 142.88089 -15.817109 -29.394617
2120000000 -20.222868 -71.486908 -9.2113733 -138.60239 -9.507597 174.22977 -9.0673771 128.75484
-9.2118073 -138.65446 -22.753435 34.036823 -30.798042 -110.79412 -35.300331 -179.51071
-9.5624647 174.36462 -30.853086 -110.59801 -14.035209 -47.571583 -35.557541 132.4922
-8.9448185 128.99121 -35.184204 -179.34492 -35.378944 132.67839 -15.832411 -32.117031
2130000000 -20.801657 -70.39093 -9.2023258 -143.7952 -9.5065174 169.14687 -9.0651979 123.64421
-9.2016506 -143.83609 -22.807661 27.630764 -30.818005 -117.83031 -35.361877 170.25117
-9.561244 169.2859 -30.870098 -117.60155 -14.033994 -50.818737 -35.58078 122.47145
-8.9435272 123.87643 -35.241531 170.52872 -35.413536 122.52488 -15.84439 -34.806496
2140000000 -21.3235 -68.747856 -9.1937885 -148.98434 -9.5081825 164.06822 -9.0675535 118.53494
-9.1940918 -149.02837 -22.831726 21.157276 -30.812902 -124.71315 -35.40551 160.1956
-9.5631895 164.20026 -30.867224 -124.5843 -14.039281 -54.020153 -35.614132 112.33976
-8.9414606 118.75888 -35.28289 160.45618 -35.417847 112.55988 -15.853092 -37.442902
2150000000 -21.788185 -66.682793 -9.1875572 -154.15883 -9.5072479 159.00546 -9.0676699 113.42855
-9.1878462 -154.19991 -22.831722 14.688186 -30.793575 -131.7453 -35.427761 150.09235
-9.5626984 159.13635 -30.8666 -131.56183 -14.044882 -57.214043 -35.619072 102.35704
-8.9438963 113.65054 -35.300499 150.38797 -35.443459 102.42203 -15.863465 -40.043514
2160000000 -22.204329 -64.10495 -9.180913 -159.32419 -9.5053616 153.95576 -9.0702953 108.32629
-9.1799431 -159.36198 -22.802345 8.3242302 -30.786001 -138.74205 -35.441601 139.93282
-9.5611181 154.08521 -30.848005 -138.60222 -14.058722 -60.355457 -35.608688 92.223526
-8.9440737 108.55193 -35.315342 140.19304 -35.430668 92.30159 -15.871618 -42.597027
2170000000 -22.518373 -61.190517 -9.1754265 -164.47745 -9.5034304 148.91527 -9.0734463 103.22446
-9.171607 -164.51556 -22.747496 2.0227945 -30.77417 -145.6841 -35.457123 129.82344
-9.5596876 149.03551 -30.837082 -145.53564 -14.077058 -63.470455 -35.633842 82.12236
-8.9451466 103.44203 -35.331123 129.94206 -35.442936 82.131294 -15.880684 -45.148602
2180000000 -22.739553 -57.986813 -9.1687403 -169.6185 -9.5017328 143.87746 -9.0779219 98.122017
-9.1657734 -169.66153 -22.666285 -4.1166239 -30.767719 -152.70752 -35.482742 119.39541
-9.5567293 143.99463 -30.829468 -152.51219 -14.098976 -66.561127 -35.643906 71.848572
-8.9503651 98.334709 -35.360313 119.684 -35.457104 72.046783 -15.889855 -47.726299
2190000000 -22.849384 -54.732834 -9.1618853 -174.74089 -9.4977274 138.84534 -9.0832062 93.029396
-9.1576777 -174.79703 -22.56225 -10.142553 -30.753468 -159.51183 -35.502495 109.1282
-9.5535631 138.95938 -30.813797 -159.35335 -14.116367 -69.622566 -35.661438 61.834839
-8.9543495 93.230812 -35.383121 109.41878 -35.493046 61.88715 -15.897878 -50.286072
2200000000 -22.835516 -51.402534 -9.1523266 -179.86226 -9.4937086 133.81625 -9.0910215 87.937889
-9.1473808 -179.92262 -22.428349 -16.015396 -30.718054 -166.3297 -35.547253 98.977669
-9.547677 133.92284 -30.783623 -166.14134 -14.139977 -72.680855 -35.695534 51.900414
-8.9606152 88.127762 -35.418205 99.207603 -35.524673 51.884098 -15.90465 -52.887581
2210000000 -22.686914 -48.374813 -9.1417189 175.02209 -9.4890051 128.79102 -9.0985842 82.837189
-9.1360168 174.94656 -22.275612 -21.778904 -30.679815 -173.07854 -35.584122 88.94664
-9.5434952 128.89452 -30.746449 -172.97887 -14.161647 -75.721848 -35.735645 41.930229
-8.9681959 83.023079 -35.459415 89.194687 -35.550053 42.097042 -15.909944 -55.476692
2220000000 -22.432579 -45.971397 -9.1311455 169.8914 -9.4845915 123.76552 -9.1085882 77.752556
-9.1252785 169.80511 -22.105228 -27.43642 -30.626915 -179.85834 -35.608692 78.81443
-9.5407429 123.8559 -30.686993 -179.68478 -14.1869 -78.742493 -35.747944 32.010571
-8.9784317 77.928261 -35.48584 79.063736 -35.572025 32.125763 -15.906126 -58.077385
2230000000 -22.114662 -44.40155 -9.1208725 164.76659 -9.4780512 118.75842 -9.1209249 72.676888
-9.1150665 164.66803 -21.936964 -32.913097 -30.567911 173.35661 -35.634899 68.82151
-9.5341997 118.83093 -30.633493 173.5446 -14.209539 -81.736885 -35.774109 22.205481
-8.9901209 72.850533 -35.499241 69.060562 -35.579838 22.150997 -15.89331 -60.668308
2240000000 -21.792545 -43.409374 -9.1094913 159.64856 -9.4696255 113.75312 -9.1335344 67.601173
-9.1065226 159.54932 -21.756393 -38.271267 -30.508263 166.59814 -35.649002 58.607811
-9.5251665 113.81562 -30.572565 166.75174 -14.232963 -84.688858 -35.781212 12.223769
-9.0001993 67.770424 -35.524609 58.870731 -35.592686 12.289539 -15.87292 -63.248844
2250000000 -21.477528 -42.845833 -9.1010656 154.53532 -9.4598093 108.73435 -9.1462317 62.547321
-9.0949736 154.43469 -21.567179 -43.432793 -30.446989 159.84924 -35.665577 48.471317
-9.515811 108.79488 -30.509916 160.00682 -14.252484 -87.619209 -35.791924 2.2521098
-9.012928 62.70525 -35.544197 48.77013 -35.60297 2.395963 -15.842866 -65.799156
2260000000 -21.145782 -42.576813 -9.0887594 149.42685 -9.4490232 103.71659 -9.1590681 57.491703
-9.083909 149.33408 -21.369423 -48.419239 -30.375607 153.20924 -35.722973 38.479877
-9.5076561 103.76906 -30.446142 153.3974 -14.274889 -90.512817 -35.82172 -7.5459256
-9.0266142 57.646648 -35.591187 38.708511 -35.63699 -7.5120921 -15.810737 -68.32151
2270000000 -20.808416 -42.730049 -9.0771618 144.32236 -9.4385509 98.678963 -9.1746883 52.441078
-9.0696955 144.22142 -21.166294 -53.336132 -30.297577 146.71815 -35.783031 28.657442
-9.4959469 98.738495 -30.373314 146.80983 -14.296816 -93.387863 -35.87178 -17.422314
-9.0419359 52.593361 -35.649029 28.771585 -35.688709 -17.338844 -15.772067 -70.771713
2280000000 -20.481983 -43.242619 -9.0624008 139.20189 -9.4265995 93.649651 -9.190876 47.404495
-9.0562468 139.1055 -20.955072 -58.097939 -30.20499 140.19394 -35.822342 18.773201
-9.48417 93.722633 -30.276558 140.32846 -14.322166 -96.201416 -35.921741 -27.033939
-9.0567303 47.553875 -35.692276 19.015598 -35.719265 -27.038908 -15.727405 -73.202896
2290000000 -20.165155 -44.084915 -9.0467701 134.08138 -9.4156551 88.619904 -9.2073164 42.376549
-9.0411787 133.98215 -20.755541 -62.696213 -30.104359 133.68399 -35.842216 9.0309076
-9.4718103 88.689308 -30.167273 133.79836 -14.356918 -98.970802 -35.942978 -36.598812
-9.0702801 42.530731 -35.710403 9.3685274 -35.750603 -36.613407 -15.675352 -75.578682
2300000000 -19.867599 -45.23716 -9.0310545 128.94438 -9.4025259 83.582825 -9.2226896 37.357418
-9.0265989 128.85985 -20.553377 -67.098587 -29.993864 127.12272 -35.856838 -0.67653197
-9.4598875 83.660004 -30.061201 127.24369 -14.388587 -101.68964 -35.974754 -46.357956
-9.0861254 37.507568 -35.731258 -0.38709971 -35.79319 -46.157738 -15.623481 -77.92466
2310000000 -19.591114 -46.741432 -9.0158777 123.80811 -9.3906116 78.547523 -9.2397814 32.353779
-9.0117655 123.72675 -20.35516 -71.38047 -29.887362 120.62852 -35.879974 -10.511924
-9.4488106 78.614853 -29.950048 120.79465 -14.425786 -104.38016 -36.058113 -55.930107
-9.1039791 32.487511 -35.761875 -10.334207 -35.854454 -55.795193 -15.570315 -80.296272
2320000000 -19.361753 -48.549271 -9.0024986 118.66873 -9.3762102 73.510078 -9.2548122 27.358702
-8.9963923 118.59204 -20.156021 -75.48275 -29.759439 114.28393 -35.937176 -20.137051
-9.437089 73.563217 -29.824167 114.4012 -14.465281 -107.02946 -36.081627 -65.432755
-9.1219845 27.483551 -35.818996 -19.937695 -35.895756 -65.420753 -15.51703 -82.665436
2330000000 -19.177803 -50.517796 -8.9890423 113.5284 -9.3631926 68.473907 -9.2704039 22.372419
-8.9834852 113.44734 -19.970007 -79.503571 -29.632671 107.87354 -35.990017 -29.605309
-9.4239826 68.512947 -29.698492 108.0627 -14.50846 -109.66678 -36.175652 -74.770554
-9.1386776 22.483078 -35.860695 -29.493963 -35.975166 -74.818481 -15.461742 -85.040085
2340000000 -19.029339 -52.538891 -8.9750977 108.39163 -9.3482704 63.415848 -9.2878513 17.398943
-8.9718542 108.30169 -19.802233 -83.325951 -29.483027 101.53516 -35.993858 -38.980877
-9.4113398 63.456161 -29.544888 101.67873 -14.555561 -112.25114 -36.215034 -84.090111
-9.1564646 17.491247 -35.876373 -38.798367 -36.026413 -83.94178 -15.402041 -87.442963
2350000000 -18.888401 -54.633259 -8.9626741 103.26354 -9.3351545 58.3545 -9.3046026 12.431146
-8.9582911 103.1652 -19.645109 -86.982468 -29.324888 95.108727 -36.010338 -48.410851
-9.3943071 58.382362 -29.395996 95.232338 -14.601562 -114.79343 -36.245426 -93.113235
-9.1716633 12.514738 -35.88166 -48.167194 -36.074692 -93.151093 -15.335716 -89.905006
2360000000 -18.771257 -56.924026 -8.9478807 98.122734 -9.3192348 53.280293 -9.3219814 7.4751983
-8.9437418 98.021889 -19.488836 -90.508308 -29.163715 88.679153 -36.009583 -58.004417
-9.3800774 53.313198 -29.244427 88.791519 -14.648277 -117.29636 -36.293941 -102.31242
-9.1880274 7.546608 -35.874947 -57.795834 -36.103046 -102.24376 -15.267918 -92.39669
2370000000 -18.670666 -59.482712 -8.9342957 92.978027 -9.3054924 48.206757 -9.3368216 2.5238798
-8.9305477 92.866707 -19.34054 -93.914696 -29.007067 82.292488 -36.036797 -67.635841
-9.368084 48.22715 -29.084324 82.411888 -14.69344 -119.78188 -36.334164 -111.53453
-9.204073 2.5873899 -35.892395 -67.446655 -36.142246 -111.49397 -15.194295 -94.930901
2380000000 -18.611897 -62.246029 -8.9203568 87.814674 -9.2914886 43.126007 -9.3503332 -2.4163573
-8.9183655 87.701485 -19.200624 -97.267006 -28.839754 75.855331 -36.095512 -77.061523
-9.3552752 43.127758 -28.909954 75.957115 -14.741681 -122.22334 -36.392456 -120.60079
-9.2181807 -2.3705347 -35.948009 -76.967278 -36.190563 -120.54132 -15.10957 -97.477303
2390000000 -18.589321 -65.08046 -8.9072838 82.648117 -9.278163 38.029747 -9.3633547 -7.3590312
-8.9076004 82.52845 -19.06888 -100.57143 -28.657154 69.449287 -36.154636 -86.384834
-9.3430433 38.025997 -28.73263 69.568916 -14.791363 -124.56563 -36.456425 -129.64429
-9.2321835 -7.3167043 -36.027233 -86.236252 -36.257866 -129.58258 -15.008965 -100.02613
2400000000 -18.596609 -68.03405 -8.8982601 77.466324 -9.2685099 32.923492 -9.3777266 -12.292966
-8.8978691 77.355049 -18.954157 -103.80016 -28.481482 62.929054 -36.218899 -95.41819
-9.3345842 32.92841 -28.556637 63.010441 -14.837869 -126.86467 -36.471939 -138.49446
-9.2460794 -12.259812 -36.084274 -95.288689 -36.280563 -138.3138 -14.900767 -102.5928
2410000000 -18.633543 -71.068039 -8.8893633 72.297485 -9.2585402 27.825222 -9.3908949 -17.223654
-8.8888817 72.180336 -18.845272 -106.89899 -28.307871 56.284321 -36.236015 -104.37796
-9.3249254 27.828754 -28.384043 56.384575 -14.879809 -129.08504 -36.497108 -147.17537
-9.2576838 -17.188646 -36.084709 -104.30973 -36.300541 -147.16182 -14.785292 -105.19169
2420000000 -18.70505 -74.134987 -8.8821497 67.122139 -9.2502422 22.716557 -9.4011002 -22.141794
-8.8829155 66.99115 -18.735888 -109.94306 -28.145731 49.743649 -36.253872 -113.32777
-9.3148842 22.725405 -28.221237 49.869167 -14.915244 -131.22878 -36.512653 -156.12465
-9.2701082 -22.115778 -36.089474 -113.27052 -36.321018 -156.09589 -14.664334 -107.75482
2430000000 -18.807121 -77.199135 -8.8762827 61.957363 -9.239728 17.6064 -9.4109106 -27.067204
-8.8771009 61.808323 -18.624882 -112.89514 -27.99575 43.214554 -36.279209 -122.5743
-9.3062992 17.60862 -28.067022 43.40704 -14.944407 -133.34126 -36.558071 -164.97943
-9.2811136 -27.041967 -36.145931 -122.51638 -36.363708 -165.04243 -14.545033 -110.28744
2440000000 -18.910307 -80.238182 -8.8711138 56.782997 -9.2321606 12.47949 -9.4205656 -31.99165
-8.8766994 56.639587 -18.525587 -115.78304 -27.837515 36.729145 -36.318592 -131.53389
-9.2994862 12.493361 -27.902674 36.909046 -14.976382 -135.40186 -36.594688 -173.84616
-9.2937498 -31.960413 -36.194214 -131.46587 -36.39164 -173.90833 -14.427636 -112.81952
2450000000 -19.023073 -83.502525 -8.8656197 51.602478 -9.2243462 7.3467956 -9.4295416 -36.911072
-8.8725252 51.472927 -18.435669 -118.54675 -27.664976 30.30851 -36.384258 -140.21349
-9.294755 7.3600421 -27.729719 30.443398 -15.000809 -137.37163 -36.659245 177.44133
-9.3033533 -36.873291 -36.247242 -140.03757 -36.447044 177.52437 -14.311826 -115.33108
2460000000 -19.179495 -87.025513 -8.8634367 46.409527 -9.2199316 2.2221036 -9.4404688 -41.832569
-8.8686266 46.297562 -18.342443 -121.11048 -27.492359 23.734974 -36.432869 -148.67577
-9.2905674 2.2381163 -27.561274 23.823872 -15.015274 -139.34688 -36.693638 169.0051
-9.3133574 -41.780975 -36.301922 -148.55673 -36.491779 169.0554 -14.202919 -117.85326
2470000000 -19.40724 -90.726082 -8.8631897 41.206478 -9.2192249 -2.9161358 -9.4474726 -46.737907
-8.868866 41.105316 -18.25016 -123.54495 -27.331709 17.047493 -36.416508 -156.94582
-9.2873802 -2.8835466 -27.397577 17.1754 -15.023004 -141.28571 -36.710804 160.54018
-9.3224277 -46.678299 -36.281616 -156.88837 -36.52536 160.53654 -14.103668 -120.40393
2480000000 -19.702105 -94.333099 -8.8669863 36.020779 -9.2182159 -8.0390081 -9.4569683 -51.622501
-8.8709898 35.907242 -18.14757 -125.79932 -27.172512 10.338121 -36.386383 -165.47742
-9.286787 -8.0101757 -27.249069 10.477025 -15.020932 -143.24126 -36.687393 152.12506
-9.3292131 -51.56958 -36.242565 -165.24078 -36.503578 152.09712 -14.020277 -122.96996
2490000000 -20.05611 -97.824753 -8.871273 30.831406 -9.2165871 -13.161994 -9.4609804 -56.506035
-8.8770466 30.726295 -18.041327 -127.96197 -27.048191 3.6618185 -36.330185 -173.96951
-9.2861233 -13.135836 -27.11635 3.8148699 -15.012679 -145.24786 -36.681435 143.49544
-9.3352966 -56.466854 -36.187256 -173.99673 -36.479977 143.38142 -13.945287 -125.59307
2500000000 -20.434935 -101.21389 -8.8785887 25.66955 -9.2182217 -18.289694 -9.46385 -61.388859
-8.8862829 25.566572 -17.933321 -130.04063 -26.930807 -2.8825293 -36.310291 177.30235
-9.2870789 -18.265144 -26.991901 -2.7783177 -15.003505 -147.24939 -36.68763 134.82375
-9.338851 -61.357162 -36.158352 177.43594 -36.500107 134.83377 -13.881689 -128.23186
2510000000 -20.845915 -104.6964 -8.8885212 20.510683 -9.219944 -23.421968 -9.4625597 -66.282707
-8.8966742 20.406559 -17.826836 -132.00749 -26.802042 -9.484005 -36.290222 168.632
-9.2898426 -23.404016 -26.869776 -9.3859177 -14.987988 -149.26085 -36.729786 126.37562
-9.3415051 -66.246529 -36.160442 168.81055 -36.523605 126.32369 -13.821386 -130.94754
2520000000 -21.303978 -108.33692 -8.8984346 15.370574 -9.2251272 -28.547626 -9.4619341 -71.17791
-8.906868 15.263746 -17.714563 -133.93588 -26.673836 -16.034849 -36.283577 160.22516
-9.2974138 -28.534718 -26.749222 -15.941081 -14.962558 -151.28969 -36.726994 118.10249
-9.3433485 -71.139442 -36.15538 160.33385 -36.528076 118.13759 -13.76967 -133.73697
2530000000 -21.808058 -112.18461 -8.9098454 10.230094 -9.2329693 -33.672844 -9.462081 -76.08017
-8.917922 10.127624 -17.59601 -135.81969 -26.565216 -22.658573 -36.264351 151.91815
-9.3036308 -33.660809 -26.631948 -22.546175 -14.929142 -153.35825 -36.728924 109.90473
-9.3411303 -76.03389 -36.153294 151.99487 -36.541306 109.85253 -13.725513 -136.60469
2540000000 -22.383648 -116.35789 -8.9203072 5.1092024 -9.2430134 -38.786175 -9.4583454 -80.971375
-8.929738 5.0029073 -17.475765 -137.74913 -26.461634 -29.264212 -36.237106 143.72368
