!Agilent Technologies,N5224A,MY51441093,A.09.90.21
!Agilent N5224A: A.09.90.21
!Date: Friday, December 19, 2025 16:36:18
!Correction: S11(Full 4 Port(1,2,3,4)) 
!S12(Full 4 Port(1,2,3,4)) 
!S13(Full 4 Port(1,2,3,4)) 
!S14(Full 4 Port(1,2,3,4)) 
!S21(Full 4 Port(1,2,3,4)) 
!S22(Full 4 Port(1,2,3,4)) 
!S23(Full 4 Port(1,2,3,4)) 
!S24(Full 4 Port(1,2,3,4)) 
!S31(Full 4 Port(1,2,3,4)) 
!S32(Full 4 Port(1,2,3,4)) 
!S33(Full 4 Port(1,2,3,4)) 
!S34(Full 4 Port(1,2,3,4)) 
!S41(Full 4 Port(1,2,3,4)) 
!S42(Full 4 Port(1,2,3,4)) 
!S43(Full 4 Port(1,2,3,4)) 
!S44(Full 4 Port(1,2,3,4)) 
!S4P File: Measurements: <S11,S12,S13,S14>,
!<S21,S22,S23,S24>,
!<S31,S32,S33,S34>,
!<S41,S42,S43,S44>:
# Hz S  dB   R 50
2000000000 -14.611402 -52.293854 -9.3297863 -76.291206 -9.2007408 -170.0374 -10.288629 120.75565
-9.3366241 -76.339073 -20.775797 104.55336 -30.105955 -73.481522 -35.552345 -125.77454
-9.2569914 -169.86334 -30.166452 -73.2845 -15.323101 5.002707 -35.481579 139.70842
-10.171666 120.98548 -35.433907 -125.42457 -35.312698 139.70036 -14.855729 158.83572
2010000000 -14.944931 -55.07806 -9.3094311 -81.538513 -9.1830273 -175.10103 -10.251055 114.98885
-9.3194456 -81.574135 -20.97217 99.348679 -30.149775 -80.173683 -35.62014 -136.6479
-9.234705 -174.93011 -30.204996 -79.97113 -15.426071 1.9883579 -35.543182 128.94395
-10.133658 115.23154 -35.496441 -136.41942 -35.387142 129.01045 -15.222275 155.14482
2020000000 -15.324259 -57.737953 -9.2920895 -86.778885 -9.1704226 179.83636 -10.213771 109.24447
-9.3021479 -86.820648 -21.169666 93.977585 -30.182268 -86.813477 -35.683105 -147.36717
-9.2203817 -179.99794 -30.233061 -86.651161 -15.530999 -1.0087582 -35.602215 118.31133
-10.092842 109.48666 -35.543503 -147.17126 -35.418777 118.38494 -15.602612 151.39796
2030000000 -15.735747 -60.183132 -9.2784576 -92.022598 -9.155242 174.77182 -10.174168 103.50177
-9.2857456 -92.059669 -21.375086 88.468437 -30.190702 -93.540031 -35.707535 -158.38275
-9.2065668 174.93108 -30.243223 -93.374779 -15.634685 -3.9879429 -35.631413 107.67598
-10.055194 103.75457 -35.575569 -158.04068 -35.452202 107.74149 -16.01107 147.61452
2040000000 -16.168482 -62.412014 -9.2630234 -97.264168 -9.1424561 169.70067 -10.137095 97.771378
-9.2675333 -97.312721 -21.579411 82.849548 -30.202389 -100.46138 -35.727081 -169.46156
-9.1927471 169.85971 -30.259512 -100.232 -15.732133 -6.9095936 -35.64695 96.790642
-10.017971 98.017113 -35.598782 -169.15758 -35.485279 96.869789 -16.449232 143.77632
2050000000 -16.615238 -64.420479 -9.2471151 -102.51073 -9.1293392 164.62379 -10.101088 92.042061
-9.2532511 -102.56173 -21.784149 77.137695 -30.230999 -107.43179 -35.760452 179.46422
-9.1807718 164.77771 -30.279404 -107.27834 -15.819952 -9.8157654 -35.703457 85.832451
-9.9801168 92.285637 -35.648548 179.73433 -35.536076 85.961845 -16.920263 139.91629
2060000000 -17.077286 -66.237778 -9.2330389 -107.76052 -9.1194706 159.54362 -10.066573 86.328842
-9.2426987 -107.81771 -21.973232 71.318504 -30.258057 -114.44431 -35.835926 168.47769
-9.1727343 159.69463 -30.308887 -114.22529 -15.901447 -12.706889 -35.766888 75.138367
-9.9482002 86.565918 -35.716072 168.77664 -35.576607 75.180908 -17.426416 135.96858
2070000000 -17.560249 -67.828255 -9.2221537 -113.01532 -9.1093521 154.45905 -10.033324 80.617867
-9.230649 -113.06801 -22.150406 65.366508 -30.300756 -121.339 -35.908154 157.5706
-9.1636925 154.6058 -30.357874 -121.1434 -15.971056 -15.603736 -35.827148 64.475769
-9.9152174 80.865921 -35.785892 157.83081 -35.656868 64.57724 -17.967669 131.89185
2080000000 -18.056332 -69.18367 -9.211915 -118.25335 -9.1025934 149.37512 -10.002258 74.924706
-9.2202034 -118.31124 -22.314701 59.277985 -30.331175 -128.22678 -35.959229 146.75259
-9.1550541 149.51634 -30.37331 -128.05611 -16.039585 -18.479143 -35.886639 53.981937
-9.8826647 75.169594 -35.830837 147.08878 -35.718239 54.056992 -18.551237 127.63792
2090000000 -18.576723 -70.275581 -9.2061911 -123.48228 -9.0952902 144.29996 -9.9712954 69.244469
-9.2125788 -123.54761 -22.466776 53.051067 -30.338181 -135.13368 -35.997456 136.01465
-9.1496544 144.42432 -30.390583 -134.93546 -16.098511 -21.313519 -35.904327 43.508957
-9.8523979 69.48024 -35.859924 136.29977 -35.732788 43.579037 -19.182596 123.14733
2100000000 -19.131329 -71.042969 -9.1981735 -128.70206 -9.0895309 139.21695 -9.9427748 63.568291
-9.203516 -128.76207 -22.602966 46.756817 -30.343334 -142.13278 -36.012836 125.10693
-9.1448784 139.34949 -30.40106 -141.9861 -16.153845 -24.072474 -35.904377 32.988461
-9.8206692 63.803051 -35.895832 125.36559 -35.744423 33.023308 -19.86533 118.38564
2110000000 -19.713877 -71.280151 -9.1901741 -133.91896 -9.0851622 134.1368 -9.9132147 57.902866
-9.1944218 -133.97327 -22.714937 40.401134 -30.360899 -149.18529 -36.042061 114.26436
-9.1392994 134.2646 -30.409597 -149.02605 -16.195175 -26.792427 -35.917862 22.228266
-9.7927818 58.128101 -35.923466 114.41293 -35.746563 22.411297 -20.598005 113.2906
2120000000 -20.300371 -70.828537 -9.1826296 -139.13713 -9.0815029 129.04433 -9.8888683 52.238865
-9.1867075 -139.18697 -22.806541 34.005283 -30.375927 -156.21759 -36.084156 103.34365
-9.1346607 129.18033 -30.431318 -156.0004 -16.230579 -29.482964 -35.968365 11.744651
-9.7640028 52.474514 -35.963139 103.6172 -35.774746 11.803488 -21.362617 107.80191
2130000000 -20.8573 -69.734558 -9.1754189 -144.3463 -9.0781193 123.95953 -9.8631201 46.602894
-9.1773539 -144.38524 -22.866793 27.60463 -30.391006 -163.19106 -36.12508 92.503868
-9.1332693 124.09341 -30.43824 -163.01147 -16.260317 -32.151497 -35.998123 1.139995
-9.7407227 46.829674 -36.00647 92.752502 -35.819187 1.1501985 -22.16123 101.82676
2140000000 -21.366341 -68.154999 -9.1718779 -149.56293 -9.0772934 118.8716 -9.8405275 40.972595
-9.1716299 -149.60655 -22.891222 21.182255 -30.397999 -170.2001 -36.154568 81.879227
-9.1348724 119.01181 -30.447205 -170.00668 -16.291737 -34.766235 -36.010902 -9.3602066
-9.7166262 41.194862 -36.019329 82.089828 -35.833527 -9.3543749 -23.003454 95.207939
2150000000 -21.817602 -66.159058 -9.1652851 -154.76735 -9.0766802 113.79843 -9.8186378 35.352394
-9.1676626 -154.81628 -22.889713 14.719423 -30.390131 -177.15761 -36.168365 71.159279
-9.1344738 113.92876 -30.448462 -177.00302 -16.317135 -37.366302 -36.018303 -19.949472
-9.6942806 35.580433 -36.028118 71.411797 -35.831722 -19.871246 -23.868719 87.956184
2160000000 -22.226025 -63.642132 -9.1603241 -159.97095 -9.0776434 108.73306 -9.7971697 29.749535
-9.1627207 -160.00616 -22.862064 8.3661833 -30.379852 175.73747 -36.168259 60.325432
-9.1350489 108.85818 -30.441841 175.95775 -16.337526 -39.926304 -36.009666 -30.376738
-9.6718769 29.974449 -36.040653 60.605705 -35.8307 -30.323582 -24.73708 79.906219
2170000000 -22.536888 -60.783337 -9.1598969 -165.14883 -9.0786228 103.66895 -9.7781448 24.164093
-9.1577787 -165.18707 -22.805447 2.0996621 -30.389376 168.77405 -36.163185 49.583122
-9.1357536 103.79342 -30.437901 168.93492 -16.354662 -42.497299 -36.01173 -41.025597
-9.6503029 24.381844 -36.046215 49.851601 -35.826752 -40.986225 -25.594465 70.971825
2180000000 -22.753391 -57.597927 -9.1575356 -170.32759 -9.0811834 98.607063 -9.7584019 18.591702
-9.1569834 -170.371 -22.726349 -3.9992883 -30.374256 161.79697 -36.163795 38.841385
-9.1376076 98.727379 -30.44433 161.9693 -16.368744 -45.058929 -36.018997 -51.757053
-9.631814 18.796307 -36.044521 39.034893 -35.84042 -51.661537 -26.407406 61.088009
2190000000 -22.864485 -54.320366 -9.1560516 -175.48177 -9.0834007 93.559242 -9.739315 13.033103
-9.1552696 -175.53841 -22.615885 -10.003338 -30.382786 154.92393 -36.193958 28.04118
-9.1393347 93.664757 -30.43927 155.05243 -16.376158 -47.65271 -36.059464 -62.305561
-9.6133204 13.235669 -36.071098 28.257303 -35.876099 -62.118824 -27.123558 50.0397
2200000000 -22.845959 -51.011105 -9.1536541 179.36143 -9.0835276 88.495766 -9.7222643 7.4933748
-9.1512222 179.29997 -22.482336 -15.809127 -30.374189 148.10843 -36.204544 17.297506
-9.1401577 88.602257 -30.436007 148.27173 -16.383579 -50.232468 -36.076813 -72.842148
-9.5946236 7.686409 -36.07793 17.525507 -35.895706 -72.752518 -27.706228 37.898052
2210000000 -22.687063 -48.052528 -9.1504841 174.2112 -9.0874538 83.44722 -9.7053862 1.9502677
-9.1494474 174.14058 -22.323441 -21.547195 -30.342615 141.38467 -36.207237 6.7314224
-9.1438599 83.538734 -30.404415 141.60458 -16.387968 -52.845657 -36.100094 -83.183128
-9.5782394 2.1399508 -36.096535 7.0798545 -35.932503 -83.085335 -28.078413 24.757504
2220000000 -22.432085 -45.680248 -9.1494913 169.05904 -9.0911827 78.399658 -9.6907444 -3.5669949
-9.1451387 168.98053 -22.151558 -27.142704 -30.308737 134.63112 -36.225025 -3.8156891
-9.1486673 78.485359 -30.370621 134.78256 -16.384529 -55.451622 -36.111904 -93.571404
-9.5606194 -3.3907447 -36.111149 -3.5040467 -35.926609 -93.469658 -28.188248 11.123455
2230000000 -22.118921 -44.128281 -9.1480436 163.9122 -9.0954285 73.361687 -9.6759882 -9.0805435
-9.1453009 163.81982 -21.976114 -32.574852 -30.275635 127.90006 -36.228695 -14.415123
-9.1524973 73.430603 -30.339514 128.02719 -16.375706 -58.045258 -36.127106 -104.02723
-9.547163 -8.9121475 -36.122604 -14.092235 -35.944874 -103.87382 -28.013695 -2.2562449
2240000000 -21.794079 -43.096966 -9.1466722 158.77638 -9.0966892 68.335548 -9.6609859 -14.571717
-9.1446486 158.68095 -21.792217 -37.876457 -30.225582 121.16502 -36.223541 -24.92944
-9.1555052 68.392754 -30.293512 121.3053 -16.355675 -60.645046 -36.118423 -114.31136
-9.5299654 -14.408127 -36.111546 -24.70776 -35.943081 -114.25195 -27.576595 -14.780053
2250000000 -21.473362 -42.5173 -9.1470661 153.64839 -9.1016598 63.297855 -9.6474724 -20.057102
-9.1436787 153.55582 -21.594072 -43.028873 -30.185907 114.43371 -36.238361 -35.450249
-9.1595869 63.347664 -30.247618 114.57786 -16.330887 -63.286682 -36.155499 -124.78075
-9.5158396 -19.89867 -36.110733 -35.274158 -35.95443 -124.65084 -26.957575 -26.029728
2260000000 -21.133905 -42.209248 -9.1469688 148.53676 -9.1045446 58.250294 -9.6352367 -25.531385
-9.1438713 148.43919 -21.385433 -48.007336 -30.133018 107.88275 -36.257347 -45.90136
-9.1645889 58.306786 -30.203285 108.02859 -16.303051 -65.867523 -36.183861 -135.0321
-9.5046186 -25.378225 -36.13179 -45.775253 -35.995148 -134.93558 -26.233105 -35.982868
2270000000 -20.775532 -42.379536 -9.1466131 143.42543 -9.1082926 53.211555 -9.6247034 -30.989365
-9.1417475 143.33192 -21.17639 -52.918346 -30.069305 101.39021 -36.278351 -56.27264
-9.1666842 53.271202 -30.13772 101.5359 -16.270639 -68.445038 -36.212208 -145.23569
-9.4909229 -30.83144 -36.16695 -56.119736 -36.03075 -145.21548 -25.480354 -44.568661
2280000000 -20.433205 -43.006004 -9.1443701 138.31802 -9.1127825 48.170002 -9.6125546 -36.433685
-9.1393995 138.22105 -20.960384 -57.660259 -29.997198 94.89817 -36.285572 -66.650322
-9.1719027 48.240162 -30.053347 95.093735 -16.231569 -70.96579 -36.242905 -155.27583
-9.4789906 -36.284512 -36.177517 -66.501854 -36.059353 -155.2888 -24.737186 -52.154507
2290000000 -20.113541 -43.957623 -9.1408453 133.20685 -9.1167364 43.127895 -9.6032009 -41.870079
-9.1368475 133.10576 -20.749594 -62.256138 -29.907639 88.372185 -36.297718 -76.958069
-9.1753902 43.203747 -29.978432 88.599449 -16.187979 -73.49044 -36.242989 -165.38478
-9.4660511 -41.719593 -36.195171 -76.65094 -36.064678 -165.42328 -24.039375 -58.810928
2300000000 -19.812374 -45.206043 -9.1379175 128.08765 -9.1213541 38.101303 -9.5901136 -47.291359
-9.1356516 128.00453 -20.542944 -66.676208 -29.821465 81.98819 -36.305069 -87.103271
-9.1802883 38.175419 -29.886572 82.124451 -16.138044 -76.009735 -36.261826 -175.56412
-9.4554148 -47.141258 -36.187565 -86.882957 -36.066196 -175.56932 -23.392498 -64.731674
2310000000 -19.543083 -46.818432 -9.1361113 122.98052 -9.125906 33.073235 -9.5805607 -52.706001
-9.1335859 122.90648 -20.333815 -70.95636 -29.723934 75.520607 -36.329636 -97.273148
-9.1876154 33.142532 -29.796782 75.752701 -16.092093 -78.515038 -36.303463 174.22786
-9.4474306 -52.560299 -36.185455 -97.000946 -36.098698 174.3605 -22.793726 -70.119606
2320000000 -19.306833 -48.730854 -9.1339655 117.88387 -9.1300907 28.057293 -9.5695353 -58.094326
-9.131218 117.80313 -20.127701 -75.084335 -29.619139 69.231361 -36.371536 -107.38676
-9.1915922 28.105307 -29.688513 69.431168 -16.040487 -80.992729 -36.33036 164.1387
-9.4369936 -57.970562 -36.228123 -107.1708 -36.14077 164.18022 -22.250854 -75.143677
2330000000 -19.124756 -50.814972 -9.1332636 112.78262 -9.1369495 23.049593 -9.5593061 -63.483288
-9.1302748 112.70224 -19.934689 -79.122658 -29.490702 63.021595 -36.401272 -117.35069
-9.1966963 23.081976 -29.571033 63.164886 -15.985107 -83.465141 -36.386848 154.18501
-9.4286556 -63.370277 -36.278667 -117.1842 -36.196934 154.30795 -21.754969 -79.877396
2340000000 -18.983404 -53.015232 -9.1324711 107.69057 -9.1395893 18.023407 -9.5525198 -68.862526
-9.1305838 107.60703 -19.757521 -82.973022 -29.361271 56.671894 -36.425858 -127.05655
-9.2023554 18.065506 -29.432838 56.812256 -15.925729 -85.957794 -36.407085 144.42094
-9.4207888 -68.759735 -36.298836 -126.83406 -36.211281 144.52011 -21.314262 -84.425262
2350000000 -18.863436 -55.231377 -9.1317234 102.62502 -9.1422071 13.001174 -9.5453701 -74.22258
-9.1309996 102.52682 -19.591679 -86.664467 -29.228357 50.350639 -36.409111 -136.77417
-9.2051029 13.037985 -29.296394 50.459427 -15.858832 -88.485664 -36.429287 134.67195
-9.4132452 -74.137383 -36.2887 -136.47728 -36.24239 134.71051 -20.903341 -88.730293
2360000000 -18.767031 -57.638855 -9.1305914 97.555275 -9.1453333 7.9771247 -9.5384569 -79.576988
-9.1296511 97.456276 -19.430574 -90.243797 -29.087034 44.01424 -36.410362 -146.48271
-9.2098904 8.0009985 -29.155165 44.155468 -15.79324 -91.021011 -36.451553 124.77155
-9.4071445 -79.503075 -36.281021 -146.31761 -36.26675 124.80348 -20.527334 -92.876274
2370000000 -18.69319 -60.258553 -9.1287308 92.492577 -9.1492605 2.9455831 -9.5345793 -84.923065
-9.12708 92.382942 -19.278273 -93.692421 -28.940645 37.719784 -36.413792 -156.29965
-9.2141552 2.9660439 -29.00457 37.847382 -15.724413 -93.571266 -36.516949 114.96597
-9.3998804 -84.865379 -36.284527 -156.15187 -36.322239 115.01237 -20.170704 -96.864677
2380000000 -18.65662 -63.058998 -9.1250086 87.429199 -9.1557045 -2.0814958 -9.5278654 -90.251892
-9.125597 87.307793 -19.136101 -97.089355 -28.783178 31.456881 -36.452953 -166.07933
-9.2201071 -2.072526 -28.852177 31.546854 -15.650129 -96.111473 -36.571823 105.24067
-9.3955555 -90.201424 -36.324848 -165.90166 -36.395699 105.37688 -19.836344 -100.74265
2390000000 -18.656172 -65.936356 -9.1223001 82.354996 -9.1594257 -7.1096182 -9.5206299 -95.570839
-9.124054 82.238106 -19.003107 -100.44777 -28.615311 25.157766 -36.497322 -175.59296
-9.2267685 -7.1084809 -28.681553 25.263519 -15.568044 -98.65107 -36.645882 96.01207
-9.3906708 -95.532181 -36.358849 -175.49159 -36.45179 95.945358 -19.516432 -104.44435
2400000000 -18.687017 -68.896454 -9.1189661 77.285706 -9.1650143 -12.135209 -9.5175323 -100.89085
-9.1215315 77.17157 -18.886753 -103.71764 -28.437313 18.718229 -36.51403 175.11006
-9.233736 -12.139365 -28.508142 18.857134 -15.47815 -101.22198 -36.72068 86.705482
-9.3863592 -100.85869 -36.377415 175.11131 -36.510349 86.735695 -19.220694 -107.92979
2410000000 -18.752357 -71.94458 -9.1173582 72.225136 -9.1740875 -17.15835 -9.5133934 -106.1918
-9.1203032 72.099159 -18.771025 -106.86139 -28.267492 12.209376 -36.506962 165.86673
-9.2406931 -17.16011 -28.339745 12.318995 -15.387531 -103.82323 -36.718204 77.500053
-9.3829002 -106.15737 -36.39246 166.04358 -36.517227 77.510948 -18.939566 -111.20559
2420000000 -18.850605 -75.018471 -9.1157093 67.166977 -9.1804895 -22.176451 -9.5076399 -111.47527
-9.1199121 67.037918 -18.663774 -109.93953 -28.111347 5.7348213 -36.52364 156.52522
-9.2488813 -22.168186 -28.188507 5.8913889 -15.293715 -106.45842 -36.732601 68.295227
-9.3797464 -111.4454 -36.37944 156.59375 -36.534534 68.385742 -18.672628 -114.25303
2430000000 -18.979038 -78.053902 -9.1124659 62.120811 -9.1866817 -27.202457 -9.5022421 -116.75638
-9.1177845 61.985134 -18.553164 -112.97027 -27.965569 -0.66933912 -36.534245 147.002
-9.2546988 -27.190723 -28.034002 -0.5128715 -15.202975 -109.08659 -36.7756 59.019951
-9.3752575 -116.7269 -36.404217 147.14909 -36.573383 58.876587 -18.418118 -117.11871
2440000000 -19.12616 -81.114723 -9.1097479 57.076679 -9.193697 -32.21957 -9.5001144 -122.02843
-9.117425 56.934216 -18.454525 -115.90517 -27.807236 -7.0710487 -36.573307 137.84166
-9.2626886 -32.216167 -27.87439 -6.9115033 -15.109499 -111.72942 -36.814747 49.825233
-9.3733902 -121.99866 -36.442417 137.95268 -36.634575 49.844902 -18.194214 -119.82912
2450000000 -19.290165 -84.276604 -9.1045713 52.013947 -9.1995697 -37.24918 -9.497777 -127.30315
-9.1133499 51.890285 -18.363142 -118.71358 -27.634998 -13.388774 -36.630848 128.89635
-9.2702789 -37.234379 -27.700312 -13.281585 -15.014385 -114.38893 -36.884518 40.922882
-9.3723488 -127.26698 -36.50634 129.05168 -36.697742 40.837364 -17.992868 -122.38433
2460000000 -19.491566 -87.617676 -9.1017618 46.950367 -9.2082682 -42.279976 -9.4961367 -132.56105
-9.1078653 46.836967 -18.27133 -121.36417 -27.467892 -19.927986 -36.674446 120.34055
-9.2764893 -42.256432 -27.520525 -19.831511 -14.918865 -117.1053 -36.937332 32.333076
-9.3698206 -132.51187 -36.537647 120.42956 -36.736469 32.35561 -17.813841 -124.75243
2470000000 -19.766098 -91.044304 -9.0982494 41.871834 -9.2152443 -47.294922 -9.4940472 -137.80745
-9.106883 41.77 -18.180338 -123.87036 -27.297503 -26.499659 -36.682274 111.7551
-9.285799 -47.27021 -27.360863 -26.401173 -14.831621 -119.86204 -36.91856 23.77095
-9.3694906 -137.75502 -36.527626 111.92435 -36.725151 23.788589 -17.656988 -126.97948
2480000000 -20.097281 -94.322289 -9.0968189 36.811924 -9.2232714 -52.303722 -9.4933758 -143.03308
-9.1044455 36.701569 -18.087646 -126.18806 -27.148329 -33.156521 -36.636494 103.17879
-9.2926722 -52.278431 -27.212105 -33.002117 -14.750773 -122.6721 -36.880306 15.317994
-9.366396 -142.98705 -36.497143 103.28547 -36.694275 15.345994 -17.511976 -129.11609
2490000000 -20.48247 -97.494629 -9.095993 31.7526 -9.2298794 -57.317249 -9.4918451 -148.24989
-9.1064939 31.642679 -17.988863 -128.41153 -27.00778 -39.762791 -36.594734 94.509369
-9.3000135 -57.297646 -27.076923 -39.589539 -14.677133 -125.50108 -36.829624 6.5727849
-9.3688469 -148.20262 -36.45385 94.728958 -36.63171 6.504169 -17.37323 -131.24475
2500000000 -20.890224 -100.51199 -9.0956526 26.701878 -9.2373505 -62.337418 -9.4896774 -153.44252
-9.1066656 26.599211 -17.891764 -130.53345 -26.881989 -46.296734 -36.545124 85.965988
-9.3070898 -62.310436 -26.952419 -46.154156 -14.614049 -128.32416 -36.784122 -2.2985697
-9.3680058 -153.40733 -36.441177 86.02774 -36.61467 -2.2001882 -17.249857 -133.33527
2510000000 -21.326889 -103.6121 -9.0968904 21.660965 -9.2448139 -67.358017 -9.4886885 -158.6385
-9.1070614 21.558437 -17.798386 -132.52559 -26.75614 -52.853172 -36.51712 77.351738
-9.3153658 -67.343071 -26.821302 -52.714058 -14.550192 -131.17322 -36.770794 -10.963847
-9.3673363 -158.60249 -36.395161 77.533134 -36.606705 -10.898125 -17.127342 -135.46461
2520000000 -21.818972 -106.78568 -9.0976906 16.629419 -9.2535582 -72.374046 -9.4894075 -163.82103
-9.1061916 16.529909 -17.696287 -134.47879 -26.634033 -59.405857 -36.475597 68.822983
-9.3247671 -72.371414 -26.693945 -59.300209 -14.491387 -134.05789 -36.751099 -19.456774
-9.3688936 -163.77972 -36.358181 68.989464 -36.572845 -19.519159 -17.012121 -137.56424
2530000000 -22.373991 -110.13246 -9.095892 11.611819 -9.2642298 -77.391075 -9.4864817 -168.9859
-9.1078234 11.503184 -17.58886 -136.37097 -26.519915 -66.010948 -36.429111 60.387409
-9.3366966 -77.387016 -26.579407 -65.881653 -14.439422 -136.93767 -36.722416 -27.971222
-9.3681726 -168.94644 -36.302002 60.534607 -36.519276 -27.990458 -16.891706 -139.71774
2540000000 -22.999628 -113.54578 -9.0947266 6.5965962 -9.2745609 -82.401291 -9.4864931 -174.15408
-9.1074419 6.487432 -17.478832 -138.29102 -26.418831 -72.589561 -36.380264 51.987747
-9.3458138 -82.390701 -26.477896 -72.482361 -14.391009 -139.82808 -36.651127 -36.413818
