!Agilent Technologies,N5224A,MY51441093,A.09.90.21
!Agilent N5224A: A.09.90.21
!Date: Friday, December 19, 2025 16:36:46
!Correction: S11(Full 4 Port(1,2,3,4)) 
!S12(Full 4 Port(1,2,3,4)) 
!S13(Full 4 Port(1,2,3,4)) 
!S14(Full 4 Port(1,2,3,4)) 
!S21(Full 4 Port(1,2,3,4)) 
!S22(Full 4 Port(1,2,3,4)) 
!S23(Full 4 Port(1,2,3,4)) 
!S24(Full 4 Port(1,2,3,4)) 
!S31(Full 4 Port(1,2,3,4)) 
!S32(Full 4 Port(1,2,3,4)) 
!S33(Full 4 Port(1,2,3,4)) 
!S34(Full 4 Port(1,2,3,4)) 
!S41(Full 4 Port(1,2,3,4)) 
!S42(Full 4 Port(1,2,3,4)) 
!S43(Full 4 Port(1,2,3,4)) 
!S44(Full 4 Port(1,2,3,4)) 
!S4P File: Measurements: <S11,S12,S13,S14>,
!<S21,S22,S23,S24>,
!<S31,S32,S33,S34>,
!<S41,S42,S43,S44>:
# Hz S  dB   R 50
2000000000 -12.732439 -58.024139 -9.3421078 -75.752945 -9.3048925 168.7934 -10.246041 75.112816
-9.3506107 -75.802475 -20.746725 104.65546 -30.216349 -94.741272 -35.534813 -171.31252
-9.3591938 168.96364 -30.261141 -94.508522 -14.096143 -48.721123 -35.523617 73.005104
-10.130116 75.346169 -35.413921 -170.99927 -35.337421 73.083221 -19.272425 74.107208
2010000000 -13.113045 -61.852581 -9.3135443 -81.006744 -9.2793531 163.77365 -10.199121 69.327866
-9.3252897 -81.047432 -20.946648 99.399506 -30.250557 -101.32703 -35.604481 177.78395
-9.3316946 163.93697 -30.290573 -101.1983 -14.170307 -51.555191 -35.575588 62.307117
-10.083356 69.569778 -35.488682 178.07626 -35.414616 62.344383 -19.603504 65.277901
2020000000 -13.544576 -65.566391 -9.28897 -86.261086 -9.2600155 158.74216 -10.157579 63.550846
-9.2998686 -86.304619 -21.143713 94.022354 -30.274048 -107.97307 -35.655472 166.90248
-9.3108263 158.90543 -30.314739 -107.75381 -14.254044 -54.351063 -35.644508 51.685356
-10.037006 63.797607 -35.524948 167.16861 -35.474152 51.777489 -19.853348 56.196018
2030000000 -14.017496 -69.157066 -9.2659187 -91.52076 -9.2416534 153.7003 -10.117511 57.779835
-9.2750387 -91.560036 -21.343712 88.51384 -30.279402 -114.69953 -35.673569 156.02762
-9.2924509 153.86221 -30.335548 -114.46801 -14.333617 -57.116905 -35.668964 40.976013
-9.9962702 58.030094 -35.561172 156.31194 -35.497677 41.110638 -20.034189 46.938641
2040000000 -14.525823 -72.594482 -9.2440138 -96.785172 -9.2233305 148.65004 -10.078469 52.02198
-9.2495432 -96.832008 -21.551216 82.859802 -30.285515 -121.55183 -35.70961 145.02818
-9.2750607 148.81288 -30.335573 -121.32291 -14.409401 -59.814079 -35.701252 30.210712
-9.9571762 52.270115 -35.58057 145.21458 -35.532837 30.302254 -20.126232 37.644886
2050000000 -15.072393 -75.87944 -9.2201443 -102.06161 -9.2066793 143.59288 -10.042528 46.276646
-9.2283573 -102.11554 -21.754999 77.11969 -30.317492 -128.54239 -35.770958 133.74004
-9.2579622 143.75404 -30.354811 -128.3445 -14.47948 -62.46096 -35.752441 19.318443
-9.9230862 46.517021 -35.628296 134.08125 -35.57832 19.296305 -20.127073 28.43207
2060000000 -15.66261 -79.004311 -9.2001781 -107.33474 -9.1922398 138.51569 -10.009928 40.535984
-9.2102051 -107.39732 -21.946154 71.274879 -30.345737 -135.46368 -35.82291 122.80027
-9.2437325 138.66583 -30.387932 -135.22966 -14.542164 -65.066971 -35.828419 8.5182648
-9.8901529 40.778301 -35.674355 123.10155 -35.659969 8.5466747 -20.034927 19.404074
2070000000 -16.295769 -81.903633 -9.183423 -112.63631 -9.1823721 133.43927 -9.9809713 34.806282
-9.1940413 -112.68243 -22.125031 65.32711 -30.379934 -142.30406 -35.897732 111.88866
-9.233242 133.58414 -30.42268 -142.18013 -14.597175 -67.635902 -35.919342 -2.1962547
-9.861249 35.053165 -35.750206 112.20094 -35.75222 -2.0878994 -19.85603 10.743497
2080000000 -16.975506 -84.572281 -9.1703444 -117.91007 -9.172225 128.3685 -9.9547987 29.084965
-9.1806602 -117.96872 -22.292837 59.229126 -30.403063 -149.21255 -35.927036 101.13721
-9.2239571 128.5033 -30.440855 -149.00929 -14.649159 -70.158363 -35.968155 -12.620015
-9.8340588 29.33276 -35.809425 101.39345 -35.813065 -12.562057 -19.607714 2.430886
2090000000 -17.709841 -86.969795 -9.1592894 -123.17225 -9.1634417 123.29993 -9.9310217 23.38669
-9.1683187 -123.23668 -22.445623 52.986309 -30.406212 -156.1364 -35.963966 90.298119
-9.2161455 123.42735 -30.455158 -155.92914 -14.696085 -72.631584 -36.030914 -23.233715
-9.8094778 23.625982 -35.819553 90.498322 -35.842213 -23.077898 -19.299234 -5.4076095
2100000000 -18.514448 -89.095871 -9.1490126 -128.43211 -9.1548071 118.21851 -9.9106026 17.700373
-9.1572466 -128.50017 -22.587717 46.661724 -30.411951 -163.08154 -35.971569 79.276276
-9.2104464 118.34901 -30.467115 -162.90465 -14.742383 -75.033737 -36.044785 -33.833317
-9.7878761 17.933798 -35.859436 79.629601 -35.883659 -33.712749 -18.959192 -12.711923
2110000000 -19.409546 -90.70182 -9.1387644 -133.69182 -9.1476622 113.13888 -9.8919325 12.019548
-9.145072 -133.73991 -22.702314 40.331444 -30.415451 -170.13141 -36.006008 68.366951
-9.2023916 113.2716 -30.476782 -169.97269 -14.783286 -77.381226 -36.08897 -44.591236
-9.7696409 12.251521 -35.88485 68.63607 -35.910519 -44.394466 -18.597771 -19.481483
2120000000 -20.38796 -91.554733 -9.1293831 -138.94598 -9.142602 108.0457 -9.8773956 6.3583426
-9.1363354 -138.99147 -22.7908 33.935253 -30.440998 -177.13812 -36.046162 57.533176
-9.1977644 108.18841 -30.492922 -176.96962 -14.815439 -79.695854 -36.135281 -55.178635
-9.7529402 6.5956745 -35.908825 57.749557 -35.951565 -55.147053 -18.233072 -25.711338
2130000000 -21.430082 -91.430115 -9.1220016 -144.1964 -9.1403627 102.96516 -9.8646774 0.72539282
-9.1264868 -144.24294 -22.852362 27.509941 -30.451609 175.87947 -36.075191 46.562336
-9.195715 103.09959 -30.506994 176.06638 -14.850458 -81.98584 -36.182331 -65.786674
-9.7408981 0.95119596 -35.96925 46.88483 -36.003242 -65.67054 -17.874016 -31.51919
2140000000 -22.522974 -90.279724 -9.1163206 -149.44514 -9.1402855 97.882332 -9.8556385 -4.8918614
-9.1204643 -149.49019 -22.883898 21.104742 -30.462215 168.88171 -36.12743 35.869686
-9.1951742 98.014893 -30.517956 169.05783 -14.887589 -84.272697 -36.228359 -76.326302
-9.7309732 -4.6673064 -36.001747 36.123051 -36.05341 -76.231583 -17.525379 -36.956505
2150000000 -23.643194 -87.755844 -9.1117992 -154.68999 -9.1392469 92.809586 -9.8462162 -10.491242
-9.1155043 -154.73175 -22.884371 14.649552 -30.454397 161.9534 -36.15406 25.145168
-9.1958036 92.938072 -30.507545 162.10799 -14.917393 -86.506378 -36.257442 -86.745544
-9.7219124 -10.270439 -36.011856 25.403151 -36.074059 -86.525482 -17.198168 -42.104637
2160000000 -24.780428 -83.558243 -9.1077776 -159.92464 -9.141881 87.743301 -9.8397617 -16.068356
-9.1126595 -159.963 -22.85911 8.3133602 -30.449568 154.8931 -36.165855 14.347369
-9.1991539 87.87262 -30.50441 155.08688 -14.948572 -88.732674 -36.265244 -97.307953
-9.7134075 -15.841628 -36.031219 14.638771 -36.090641 -97.18454 -16.892809 -46.920952
2170000000 -25.787603 -77.28685 -9.1074047 -165.14299 -9.1429043 82.683716 -9.8356514 -21.621244
-9.1072273 -165.18468 -22.805969 2.0436912 -30.456341 147.89043 -36.162441 3.6512022
-9.2001867 82.805756 -30.515799 148.04001 -14.972148 -90.96077 -36.272072 -107.84304
-9.7060452 -21.397503 -36.039257 3.8397624 -36.092308 -107.7512 -16.609789 -51.537109
2180000000 -26.545666 -68.996323 -9.1073999 -170.35371 -9.1461096 77.619133 -9.8306904 -27.1448
-9.1083345 -170.3913 -22.727409 -4.0492401 -30.447403 140.88762 -36.197414 -7.1244664
-9.2023277 77.744499 -30.513058 141.11124 -14.992026 -93.210052 -36.324879 -118.42037
-9.7026386 -26.932247 -36.076229 -6.9685354 -36.130142 -118.453 -16.345528 -55.959991
2190000000 -26.910416 -59.56427 -9.1063538 -175.54016 -9.1488686 72.573776 -9.8271093 -32.653572
-9.1089296 -175.59308 -22.616346 -10.029756 -30.457279 134.03706 -36.22385 -17.906605
-9.2041225 72.686241 -30.513037 134.21373 -15.004615 -95.447227 -36.342224 -129.06796
-9.6994734 -32.446678 -36.087982 -17.703857 -36.156143 -129.02765 -16.094603 -60.2146
2200000000 -26.79562 -49.917076 -9.1078005 179.27643 -9.152503 67.521622 -9.8264866 -38.131924
-9.109087 179.22247 -22.486734 -15.840964 -30.448765 127.20296 -36.253208 -28.39633
-9.2088919 67.621811 -30.509636 127.42767 -15.018692 -97.691826 -36.384892 -139.51547
-9.6978827 -37.946262 -36.13089 -28.198717 -36.201603 -139.51779 -15.85804 -64.348511
2210000000 -26.239311 -41.684311 -9.1091223 174.10735 -9.1576195 62.477142 -9.8254528 -43.608562
-9.1071043 174.03783 -22.330278 -21.564693 -30.42791 120.50985 -36.287094 -38.970352
-9.212451 62.564808 -30.480171 120.68604 -15.025531 -99.93718 -36.42065 -149.91138
-9.6951332 -43.416428 -36.15205 -38.765831 -36.252773 -149.88675 -15.632051 -68.389626
2220000000 -25.430422 -35.796814 -9.1094952 168.93472 -9.1621065 57.431091 -9.825016 -49.041969
-9.1071205 168.85524 -22.157129 -27.153494 -30.387026 113.79599 -36.301594 -49.390244
-9.2192926 57.517338 -30.459419 113.92802 -15.027329 -102.15962 -36.460896 -160.23318
-9.6937447 -48.87056 -36.176357 -49.266369 -36.276314 -160.19917 -15.418614 -72.293327
2230000000 -24.559954 -32.197998 -9.1107378 163.76727 -9.1683168 52.39994 -9.8233452 -54.471024
-9.108943 163.67809 -21.98177 -32.595936 -30.344561 107.03376 -36.302616 -59.921661
-9.2228384 52.472015 -30.410488 107.18989 -15.020952 -104.37901 -36.484642 -170.6674
-9.6938133 -54.293575 -36.17358 -59.664215 -36.285751 -170.46936 -15.215837 -76.099136
2240000000 -23.732754 -30.259819 -9.1122351 158.61037 -9.1718531 47.365608 -9.8229256 -59.869961
-9.1130648 158.51826 -21.79608 -37.917057 -30.305885 100.35498 -36.309238 -70.314377
-9.2290478 47.433102 -30.366716 100.49358 -15.007927 -106.588 -36.491089 179.08252
-9.6920118 -59.696571 -36.178192 -70.104904 -36.311184 179.25002 -15.02097 -79.762978
2250000000 -22.972775 -29.358482 -9.1170921 153.47389 -9.1766329 42.332748 -9.8238459 -65.249313
-9.1154022 153.37402 -21.599985 -43.029285 -30.261211 93.662476 -36.321285 -80.768669
-9.2343712 42.39455 -30.329039 93.776894 -14.990301 -108.79959 -36.531361 168.67162
-9.690506 -65.090874 -36.196358 -80.552704 -36.327602 168.8022 -14.835853 -83.296631
2260000000 -22.25396 -29.212942 -9.1204815 148.34183 -9.1823339 37.297371 -9.8228168 -70.611717
-9.1177959 148.24612 -21.397776 -48.027344 -30.214096 87.112068 -36.339153 -91.107819
-9.2401466 37.356258 -30.278849 87.258148 -14.975131 -110.97248 -36.566002 158.53911
-9.6890221 -70.468071 -36.224739 -90.901558 -36.374249 158.65634 -14.662644 -86.728226
2270000000 -21.580507 -29.872759 -9.1228018 143.21574 -9.1879845 32.264103 -9.822031 -75.965614
-9.1183491 143.12297 -21.183218 -52.918781 -30.150961 80.590843 -36.377953 -101.36868
-9.2443542 32.323364 -30.208927 80.789597 -14.953737 -113.1323 -36.610531 148.38695
-9.6874981 -75.813042 -36.248856 -101.16279 -36.415222 148.57239 -14.499648 -90.041832
2280000000 -20.984331 -31.130951 -9.1230936 138.10014 -9.1933842 27.229465 -9.8196831 -81.290108
-9.1198645 138.00386 -20.967754 -57.65007 -30.08329 74.126434 -36.403893 -111.48853
-9.2524319 27.305573 -30.138233 74.280716 -14.931479 -115.24443 -36.647507 138.39133
-9.6860657 -81.139931 -36.273834 -111.31807 -36.445206 138.55638 -14.35229 -93.262787
2290000000 -20.464714 -32.764194 -9.124321 132.97975 -9.1997299 22.202579 -9.8174019 -86.610542
-9.1222687 132.88557 -20.762833 -62.239246 -29.99299 67.613602 -36.427818 -121.66654
-9.2589207 22.282251 -30.058695 67.804016 -14.901758 -117.36211 -36.660774 128.54044
-9.6814423 -86.456429 -36.285362 -121.4271 -36.459309 128.60495 -14.217556 -96.37133
2300000000 -19.999969 -34.714756 -9.1255302 127.85819 -9.2059832 17.176424 -9.8143749 -91.917816
-9.1238003 127.7738 -20.546816 -66.678589 -29.899334 61.172638 -36.42012 -131.83801
-9.2645979 17.252468 -29.962105 61.366451 -14.870031 -119.47528 -36.658466 118.60293
-9.6781969 -91.757439 -36.281235 -131.58739 -36.464611 118.70768 -14.098012 -99.384583
2310000000 -19.587349 -37.005032 -9.1273975 122.74557 -9.2123461 12.165169 -9.8103733 -97.195229
-9.1249695 122.66698 -20.340498 -70.919144 -29.814575 54.807365 -36.429836 -141.82156
-9.2720404 12.223878 -29.876308 54.955856 -14.838765 -121.60041 -36.685062 108.58413
-9.6751375 -97.050804 -36.325169 -141.75389 -36.487125 108.63058 -13.990355 -102.33058
2320000000 -19.247314 -39.552563 -9.1286678 117.64139 -9.2191696 7.1443195 -9.8051205 -102.4666
-9.126195 117.56963 -20.136103 -75.064171 -29.705582 48.481022 -36.476139 -151.84111
-9.2796955 7.1992493 -29.771288 48.617443 -14.805587 -123.70979 -36.692444 98.706627
-9.6709356 -102.3344 -36.340385 -151.73148 -36.507362 98.780022 -13.892146 -105.23488
2330000000 -18.981255 -42.241287 -9.1314154 112.54083 -9.2263651 2.1399341 -9.7980547 -107.72475
-9.1297703 112.45979 -19.943872 -79.071541 -29.593418 42.207485 -36.520279 -161.73766
-9.287034 2.1797333 -29.660831 42.355511 -14.768858 -125.82509 -36.729637 88.861145
-9.6659908 -107.61336 -36.389015 -161.58888 -36.552357 89.000832 -13.801971 -108.09453
2340000000 -18.766544 -44.983273 -9.1349487 107.45639 -9.2301741 -2.8724093 -9.7909336 -112.97774
-9.1342869 107.36678 -19.764645 -82.942177 -29.454201 35.877171 -36.552185 -171.43796
-9.2936869 -2.8287809 -29.522064 36.035618 -14.726669 -127.95944 -36.759434 79.326027
-9.658514 -112.88304 -36.430603 -171.21866 -36.562641 79.379227 -13.725236 -110.91831
2350000000 -18.590326 -47.713181 -9.1381922 102.38855 -9.2377262 -7.8885298 -9.7827253 -118.22298
-9.1378489 102.28928 -19.596315 -86.630997 -29.320175 29.580864 -36.54705 178.99223
-9.2980719 -7.8489084 -29.389626 29.741085 -14.679959 -130.13284 -36.747272 69.630875
-9.6504021 -118.14001 -36.427914 179.172 -36.571079 69.671623 -13.651683 -113.66636
2360000000 -18.445919 -50.554874 -9.1398315 97.328674 -9.2440968 -12.902364 -9.7756252 -123.46589
-9.1395931 97.228355 -19.437727 -90.191727 -29.181953 23.254295 -36.57851 169.35976
-9.3040628 -12.870543 -29.247894 23.363699 -14.634179 -132.32108 -36.745617 59.845039
-9.6426783 -123.39252 -36.44725 169.68304 -36.559093 59.914291 -13.581353 -116.38424
2370000000 -18.333935 -53.561092 -9.1408587 92.273643 -9.2496862 -17.919382 -9.7686644 -128.70543
-9.1408329 92.163757 -19.285744 -93.655296 -29.046436 16.976704 -36.596985 159.84991
-9.3125095 -17.900494 -29.110647 17.121834 -14.583632 -134.51511 -36.798347 50.14463
-9.6354666 -128.64601 -36.467224 159.95134 -36.583691 50.217278 -13.515458 -119.07663
2380000000 -18.263887 -56.703571 -9.140027 87.213478 -9.2559814 -22.937624 -9.7603235 -133.94333
-9.1431074 87.09919 -19.139963 -97.030663 -28.890493 10.720056 -36.633999 150.33728
-9.3206234 -22.927885 -28.948851 10.830683 -14.526225 -136.7075 -36.834377 40.515293
-9.6281681 -133.89012 -36.496758 150.4594 -36.656078 40.569813 -13.449546 -121.69792
2390000000 -18.234907 -59.875931 -9.1395969 82.155075 -9.2617598 -27.951664 -9.7510405 -139.16473
-9.1437807 82.039604 -19.006144 -100.40189 -28.72027 4.3955278 -36.676727 140.9975
-9.3281975 -27.952133 -28.778711 4.5495262 -14.468507 -138.90033 -36.887135 31.186119
-9.6201677 -139.13074 -36.530491 141.18187 -36.712269 31.300028 -13.386151 -124.22292
2400000000 -18.239943 -63.083984 -9.140233 77.09761 -9.2700949 -32.970089 -9.742157 -144.38737
-9.1451731 76.981392 -18.884745 -103.65601 -28.537495 -1.9662006 -36.688263 131.87956
-9.338069 -32.969486 -28.60869 -1.863192 -14.401052 -141.12401 -36.938389 21.936031
-9.6126699 -144.35286 -36.546955 132.08188 -36.734344 22.042105 -13.319847 -126.63854
2410000000 -18.275215 -66.361412 -9.1428661 72.045326 -9.2800016 -37.983269 -9.7338104 -149.59683
-9.1456833 71.928886 -18.773556 -106.81276 -28.374283 -8.4702539 -36.667389 122.66714
-9.3473625 -37.975628 -28.445318 -8.3764696 -14.33446 -143.39551 -36.94968 13.003839
-9.6040945 -149.57213 -36.543343 122.85658 -36.771263 12.935567 -13.253103 -128.96127
2420000000 -18.352039 -69.634171 -9.1428127 67.010223 -9.2893772 -42.992855 -9.7225733 -154.80818
-9.1473932 66.873825 -18.659208 -109.92413 -28.218613 -14.95047 -36.678776 113.53843
-9.3564806 -42.979469 -28.291969 -14.809838 -14.268389 -145.67239 -36.956944 3.8410482
-9.5942354 -154.78435 -36.537331 113.55176 -36.773273 3.8644595 -13.184106 -131.19542
2430000000 -18.459824 -72.8246 -9.1421022 61.9753 -9.2950964 -47.991753 -9.7111845 -160.01643
-9.1486759 61.836761 -18.549467 -112.92329 -28.076584 -21.313126 -36.679371 104.24143
-9.3636103 -47.98621 -28.132227 -21.152075 -14.204713 -147.9637 -36.9827 -5.4169426
-9.5833626 -159.9854 -36.550186 104.36852 -36.793564 -5.493525 -13.118791 -133.35248
2440000000 -18.575827 -75.970047 -9.1414337 56.942593 -9.3064671 -53.001804 -9.7013149 -165.22652
-9.1492605 56.803986 -18.450377 -115.87055 -27.91255 -27.704206 -36.718693 95.017303
-9.373476 -52.992485 -27.981989 -27.546345 -14.143199 -150.2756 -37.032532 -14.533794
-9.5749989 -165.19609 -36.593658 95.178452 -36.835911 -14.617534 -13.05963 -135.44096
2450000000 -18.709726 -79.253677 -9.1377993 51.897789 -9.3129883 -58.012634 -9.6914225 -170.44858
-9.1475515 51.769852 -18.361139 -118.69068 -27.742785 -34.043301 -36.778458 86.161201
-9.3830853 -57.996742 -27.805979 -33.897804 -14.079117 -152.61263 -37.097855 -23.356575
-9.5651579 -170.40405 -36.666901 86.376465 -36.90237 -23.378614 -13.005324 -137.44556
2460000000 -18.881794 -82.655823 -9.1369667 46.847698 -9.322381 -63.022854 -9.6831493 -175.65413
-9.1448927 46.737228 -18.26829 -121.33349 -27.567333 -40.569096 -36.813492 77.695404
-9.3916121 -63.002682 -27.630005 -40.447006 -14.01379 -155.02675 -37.116875 -31.773785
-9.5569544 -175.60248 -36.680019 77.852249 -36.938938 -31.79034 -12.953959 -139.3653
2470000000 -19.118002 -86.136375 -9.1359692 41.796444 -9.3325214 -68.031837 -9.6714039 179.14476
-9.1463947 41.6973 -18.178846 -123.84446 -27.401045 -47.099495 -36.821705 69.242386
-9.4019976 -67.99485 -27.465532 -46.947193 -13.959412 -157.48061 -37.139893 -40.177601
-9.5481482 179.20338 -36.682854 69.289543 -36.911644 -40.324253 -12.901148 -141.26328
2480000000 -19.40988 -89.41851 -9.137886 36.755325 -9.3417931 -73.020927 -9.6642265 173.94823
-9.1459351 36.647694 -18.086773 -126.1716 -27.251015 -53.717815 -36.779224 60.609112
-9.4111614 -72.985443 -27.307056 -53.592487 -13.908523 -159.97986 -37.082138 -48.664703
-9.5374632 174.00853 -36.633423 60.739212 -36.89814 -48.72205 -12.851131 -143.15924
2490000000 -19.741787 -92.561539 -9.1390114 31.730198 -9.3487787 -78.019989 -9.6522198 168.76424
-9.1498795 31.612982 -17.988628 -128.37956 -27.114614 -60.309029 -36.735455 52.024216
-9.418272 -77.989914 -27.179651 -60.19603 -13.868001 -162.50929 -37.026211 -57.210934
-9.5303364 168.80737 -36.596649 52.109505 -36.826408 -57.254444 -12.800854 -145.09137
2500000000 -20.085274 -95.592438 -9.1384592 26.707203 -9.3596973 -83.012344 -9.6442833 163.58205
-9.1507502 26.598749 -17.890181 -130.49582 -26.986893 -66.873856 -36.697556 43.471283
-9.4269543 -82.990028 -27.043148 -66.723381 -13.833606 -165.03877 -37.00021 -65.897812
-9.5210085 163.61278 -36.576099 43.434391 -36.79945 -65.858528 -12.755232 -147.03934
2510000000 -20.464911 -98.673973 -9.1407318 21.693495 -9.366621 -88.006409 -9.6354513 158.38811
-9.1530504 21.595821 -17.793581 -132.50386 -26.856047 -73.438629 -36.675125 34.862015
-9.4365396 -87.994919 -26.914616 -73.30732 -13.8002 -167.5932 -36.964893 -74.415504
-9.5145254 158.42844 -36.541542 35.033367 -36.767353 -74.438095 -12.706049 -149.05225
2520000000 -20.881626 -101.85876 -9.1406679 16.695787 -9.3772345 -92.996887 -9.6288586 153.20084
-9.1534309 16.599432 -17.688763 -134.45868 -26.728453 -80.004974 -36.636829 26.573692
-9.4485664 -92.9869 -26.790251 -79.89254 -13.772389 -170.17035 -36.904427 -82.844597
-9.5104704 153.24663 -36.521767 26.616243 -36.727398 -82.824745 -12.655988 -151.08031
2530000000 -21.347298 -105.09325 -9.1383886 11.708552 -9.3861666 -97.987183 -9.6214457 148.02084
-9.1521521 11.605663 -17.58263 -136.3644 -26.61035 -86.554695 -36.588112 18.121504
-9.457324 -97.975273 -26.671959 -86.445358 -13.750328 -172.74425 -36.873024 -91.193054
-9.5034847 148.06877 -36.44672 18.287636 -36.69117 -91.199242 -12.601708 -153.18228
2540000000 -21.865877 -108.34662 -9.1363926 6.7159972 -9.3952999 -102.9727 -9.6168957 142.84853
-9.1506071 6.6105075 -17.473377 -138.29906 -26.509043 -93.185471 -36.508411 9.8101854
