!Agilent Technologies,N5224A,MY51441093,A.09.90.21
!Agilent N5224A: A.09.90.21
!Date: Friday, December 19, 2025 16:35:49
!Correction: S11(Full 4 Port(1,2,3,4)) 
!S12(Full 4 Port(1,2,3,4)) 
!S13(Full 4 Port(1,2,3,4)) 
!S14(Full 4 Port(1,2,3,4)) 
!S21(Full 4 Port(1,2,3,4)) 
!S22(Full 4 Port(1,2,3,4)) 
!S23(Full 4 Port(1,2,3,4)) 
!S24(Full 4 Port(1,2,3,4)) 
!S31(Full 4 Port(1,2,3,4)) 
!S32(Full 4 Port(1,2,3,4)) 
!S33(Full 4 Port(1,2,3,4)) 
!S34(Full 4 Port(1,2,3,4)) 
!S41(Full 4 Port(1,2,3,4)) 
!S42(Full 4 Port(1,2,3,4)) 
!S43(Full 4 Port(1,2,3,4)) 
!S44(Full 4 Port(1,2,3,4)) 
!S4P File: Measurements: <S11,S12,S13,S14>,
!<S21,S22,S23,S24>,
!<S31,S32,S33,S34>,
!<S41,S42,S43,S44>:
# Hz S  dB   R 50
2000000000 -12.870198 -49.454502 -9.399271 -75.721741 -9.4404306 -144.23135 -9.2609968 143.08414
-9.4068375 -75.783859 -20.740044 104.74978 -30.366922 -47.688873 -34.57827 -103.25923
-9.4969597 -144.06587 -30.418055 -47.436981 -16.989695 -30.358217 -34.67564 -172.71964
-9.145381 143.3167 -34.448608 -102.98301 -34.486549 -172.62421 -13.160774 -64.981438
2010000000 -13.155808 -52.732346 -9.374279 -80.971992 -9.422122 -149.39236 -9.2460041 138.15137
-9.3849831 -81.008644 -20.939999 99.509453 -30.404387 -54.467751 -34.659504 -113.32969
-9.4736671 -149.22461 -30.451273 -54.265919 -16.960432 -34.379818 -34.750374 177.30164
-9.1276808 138.38492 -34.536255 -113.05891 -34.57383 177.26083 -13.239197 -67.32933
2020000000 -13.480161 -55.89222 -9.3554783 -86.204163 -9.4087429 -154.54793 -9.2315283 133.20728
-9.3628197 -86.243736 -21.136335 94.134903 -30.436205 -61.184277 -34.736553 -123.39783
-9.459796 -154.38605 -30.487007 -60.970417 -16.938667 -38.32196 -34.826336 167.28889
-9.1099358 133.45596 -34.606491 -123.11654 -34.662445 167.3297 -13.311051 -69.650261
2030000000 -13.831791 -58.903069 -9.3371449 -91.441429 -9.3966112 -159.7074 -9.2162037 128.26726
-9.3423615 -91.48185 -21.334742 88.637657 -30.443279 -67.987053 -34.77895 -133.55711
-9.4493132 -159.54016 -30.495911 -67.812042 -16.922806 -42.261688 -34.888145 157.23087
-9.0957241 128.511 -34.65659 -133.18155 -34.720051 157.30209 -13.37929 -71.933647
2040000000 -14.202077 -61.740143 -9.3180723 -96.677216 -9.3849468 -164.85869 -9.2003632 123.30863
-9.3217125 -96.723595 -21.539095 83.01178 -30.450731 -74.96682 -34.821625 -143.79413
-9.4364758 -164.69252 -30.500774 -74.729713 -16.910606 -46.118908 -34.936943 147.13264
-9.078846 123.56258 -34.701237 -143.50146 -34.765511 147.12021 -13.435966 -74.180618
2050000000 -14.576166 -64.404869 -9.2986231 -101.9172 -9.3740091 -170.009 -9.1837482 118.34587
-9.3019085 -101.97159 -21.743458 77.270576 -30.475296 -82.046974 -34.888561 -154.16963
-9.425849 -169.85269 -30.52824 -81.890579 -16.898054 -49.923458 -35.001499 136.8875
-9.0633583 118.58691 -34.773552 -153.94797 -34.827438 136.84904 -13.482725 -76.374695
2060000000 -14.96432 -66.931114 -9.2790909 -107.15739 -9.3651619 -175.16435 -9.1706972 113.3639
-9.2870016 -107.21397 -21.932339 71.416756 -30.503119 -89.116806 -34.975208 -164.48537
-9.4173079 -175.01344 -30.55122 -88.929764 -16.884602 -53.657398 -35.08242 126.65166
-9.0484791 113.60164 -34.853054 -164.23338 -34.905979 126.74039 -13.52071 -78.534851
2070000000 -15.362874 -69.337936 -9.2650051 -112.39773 -9.3587894 179.68861 -9.1574564 108.36083
-9.2723846 -112.45851 -22.109114 65.461494 -30.545109 -96.139961 -35.071377 -174.77145
-9.410265 179.83116 -30.595812 -95.916786 -16.868164 -57.307991 -35.177799 116.71228
-9.0369883 108.6153 -34.947849 -174.42247 -35.00547 116.7449 -13.553175 -80.675064
2080000000 -15.767877 -71.629639 -9.2530603 -117.63236 -9.3513937 174.54933 -9.1476259 103.3681
-9.2597332 -117.69095 -22.271402 59.354965 -30.5676 -103.03137 -35.134624 175.30287
-9.4035397 174.68253 -30.620483 -102.83662 -16.848669 -60.901169 -35.236889 106.82181
-9.027235 103.60947 -35.02203 175.59227 -35.065563 106.99923 -13.581924 -82.760971
2090000000 -16.191027 -73.832176 -9.2439022 -122.84807 -9.3452864 169.41829 -9.1379347 98.369247
-9.2494431 -122.90838 -22.421967 53.119148 -30.582567 -110.03126 -35.202026 165.13673
-9.3996964 169.55136 -30.631985 -109.80097 -16.831909 -64.448807 -35.284451 97.052933
-9.0178375 98.60569 -35.073616 165.41583 -35.103863 97.130028 -13.605445 -84.771866
2100000000 -16.639967 -75.929024 -9.2321692 -128.04767 -9.3384905 164.29483 -9.1311846 93.360741
-9.2363567 -128.10652 -22.555122 46.806377 -30.581488 -117.08086 -35.253426 154.97643
-9.3939276 164.42743 -30.641632 -116.91203 -16.829508 -67.91069 -35.316193 87.076614
-9.007268 93.598442 -35.124546 155.2765 -35.140083 87.143951 -13.624698 -86.711197
2110000000 -17.128773 -77.768044 -9.2208958 -133.243 -9.334094 159.16908 -9.1254797 88.357857
-9.2242432 -133.2914 -22.668091 40.413597 -30.588181 -124.17131 -35.293179 144.72673
-9.3888006 159.30049 -30.651741 -123.96693 -16.825363 -71.269394 -35.333572 77.145737
-9.0016069 88.583168 -35.193626 144.97752 -35.161526 77.18718 -13.636645 -88.605408
2120000000 -17.632133 -79.267235 -9.2091084 -138.43867 -9.3282652 154.0473 -9.1202736 83.338577
-9.2112732 -138.4843 -22.759768 34.00647 -30.609299 -131.20906 -35.362694 134.63013
-9.3828106 154.18459 -30.674398 -131.07449 -16.826996 -74.562561 -35.37534 67.079048
-8.9954548 83.572296 -35.250874 134.79208 -35.200108 67.104546 -13.649001 -90.48436
2130000000 -18.134216 -80.466782 -9.1958733 -143.62654 -9.3225956 148.92943 -9.1172972 78.322044
-9.1972637 -143.67119 -22.81344 27.57299 -30.620474 -138.21927 -35.424374 124.5696
-9.3791008 149.06319 -30.67531 -138.07751 -16.836119 -77.791023 -35.418514 57.127304
-8.9930573 78.542931 -35.307713 124.7795 -35.229958 57.177685 -13.660196 -92.377861
2140000000 -18.636429 -81.457558 -9.1852179 -148.81316 -9.3200169 143.81705 -9.116683 73.313438
-9.1865149 -148.86049 -22.84174 21.148958 -30.620558 -145.24992 -35.466587 114.51546
-9.3774662 143.95477 -30.676674 -145.05888 -16.854353 -80.97467 -35.437229 47.102631
-8.9922485 73.530251 -35.349945 114.78315 -35.265152 47.235367 -13.671023 -94.235176
2150000000 -19.137817 -82.336685 -9.1747637 -154.00648 -9.316164 138.72313 -9.1155605 68.294327
-9.1753416 -154.04582 -22.838934 14.642073 -30.612976 -152.25401 -35.493195 104.53695
-9.3740606 138.85085 -30.66297 -152.14449 -16.879126 -84.11132 -35.462284 37.22739
-8.9908228 68.521042 -35.37368 104.75642 -35.280582 37.367085 -13.680006 -96.129333
2160000000 -19.666622 -83.046997 -9.1640348 -159.18591 -9.3118649 133.6357 -9.1156693 63.28212
-9.1638241 -159.21408 -22.813612 8.2672529 -30.592457 -159.35193 -35.510532 94.437294
-9.3699589 133.76372 -30.659962 -159.11325 -16.90506 -87.191994 -35.471466 27.213461
-8.9891405 63.516346 -35.385956 94.632019 -35.287899 27.300146 -13.689141 -98.028778
2170000000 -20.201256 -83.521782 -9.1550388 -164.34691 -9.3074245 128.55315 -9.1172752 58.276569
-9.151494 -164.38318 -22.758413 1.9735433 -30.584023 -166.38414 -35.528847 84.282021
-9.3660431 128.68111 -30.644028 -166.21722 -16.941832 -90.233902 -35.476963 17.267384
-8.9888611 58.497635 -35.405979 84.515228 -35.291031 17.311548 -13.697871 -99.968803
2180000000 -20.760864 -83.77243 -9.1443911 -169.50865 -9.3033075 123.47318 -9.118062 53.266758
-9.1425667 -169.54262 -22.679377 -4.1414428 -30.572853 -173.40335 -35.546951 74.179695
-9.3589401 123.5917 -30.642073 -173.25127 -16.982107 -93.238976 -35.509342 7.1891737
-8.9905767 53.484077 -35.424923 74.335777 -35.320595 7.2330637 -13.699996 -101.95699
2190000000 -21.332556 -83.726372 -9.133358 -174.65358 -9.2977133 118.38982 -9.1212196 48.257748
-9.1318731 -174.70578 -22.567965 -10.154155 -30.571716 179.73093 -35.561653 63.9142
-9.35497 118.50745 -30.629347 179.87395 -17.014053 -96.196922 -35.533493 -2.8608379
-8.9933519 48.463341 -35.444611 64.156891 -35.35202 -2.7497959 -13.70464 -103.94818
2200000000 -21.916193 -83.212067 -9.1209478 -179.79463 -9.2910452 113.31509 -9.1249828 43.252689
-9.1188974 -179.85263 -22.439598 -16.032528 -30.543163 172.86685 -35.61446 53.829647
-9.3472843 113.41834 -30.612061 173.01395 -17.049454 -99.1521 -35.570595 -12.744395
-8.996377 43.444485 -35.472305 53.940308 -35.398544 -12.678922 -13.706232 -105.97742
2210000000 -22.476446 -82.178665 -9.1085339 175.05635 -9.2847195 108.23433 -9.1298285 38.236477
-9.1058712 174.98331 -22.288216 -21.768431 -30.506617 166.05618 -35.63221 43.757126
-9.3423557 108.33241 -30.574005 166.20372 -17.084557 -102.06151 -35.607883 -22.599447
-8.9999151 38.428394 -35.512367 43.929539 -35.426064 -22.472368 -13.697904 -107.99283
2220000000 -22.995375 -80.772987 -9.0973244 169.89751 -9.2797337 103.16515 -9.1358652 33.232639
-9.0923014 169.82286 -22.121927 -27.398806 -30.461082 159.26064 -35.662006 33.784012
-9.3355274 103.25324 -30.524429 159.4346 -17.124767 -104.93643 -35.635899 -32.421883
-9.0059013 33.41217 -35.546764 33.963757 -35.442532 -32.330978 -13.687612 -110.00236
2230000000 -23.471436 -79.222801 -9.0840788 164.74646 -9.272603 98.09156 -9.1430445 28.231737
-9.0814133 164.65038 -21.95034 -32.877872 -30.4049 152.42964 -35.661224 23.762184
-9.3304338 98.171234 -30.468182 152.67343 -17.159945 -107.75996 -35.655914 -42.152767
-9.0112381 28.412586 -35.5448 23.99967 -35.471378 -42.139664 -13.669103 -112.01979
2240000000 -23.935635 -77.453262 -9.0733433 159.58836 -9.264143 93.028008 -9.1493397 23.235147
-9.0697365 159.49913 -21.770418 -38.192219 -30.367397 145.6174 -35.675026 13.650344
-9.3217993 93.090622 -30.419508 145.82977 -17.193287 -110.50188 -35.670834 -52.086506
-9.0174437 23.402571 -35.555141 13.973883 -35.494877 -51.986179 -13.645395 -114.01643
2250000000 -24.403652 -75.219566 -9.0642748 154.44601 -9.2557526 87.946152 -9.1587362 18.242554
-9.0594692 154.35274 -21.577229 -43.33799 -30.305805 138.88881 -35.702747 3.6501625
-9.3132811 88.005905 -30.371466 139.02498 -17.226238 -113.23135 -35.706448 -61.95731
-9.0249004 18.403694 -35.599007 3.7920537 -35.508442 -61.907734 -13.620158 -116.00508
2260000000 -24.81916 -72.291611 -9.0521574 149.29704 -9.2476282 82.854012 -9.1660824 13.251064
-9.0493498 149.21016 -21.377539 -48.345558 -30.247038 132.25648 -35.740284 -6.4143977
-9.3067732 82.9207 -30.316385 132.41139 -17.262169 -115.86369 -35.721199 -71.906807
-9.0333633 13.404074 -35.623108 -6.2885642 -35.547424 -71.730843 -13.591119 -117.97096
2270000000 -25.134069 -68.776268 -9.0415535 144.15585 -9.2394276 77.766693 -9.1752367 8.2641401
-9.0365391 144.06589 -21.173834 -53.237885 -30.169868 125.69144 -35.792461 -16.268375
-9.2992344 77.830154 -30.242001 125.84192 -17.300274 -118.50246 -35.775066 -81.519791
-9.0422163 8.413641 -35.665752 -16.015682 -35.583122 -81.453728 -13.563596 -119.90868
2280000000 -25.348351 -65.054688 -9.028614 139.00345 -9.2323189 72.6726 -9.1847963 3.2817907
-9.0236177 138.91086 -20.959309 -57.968685 -30.090099 119.12735 -35.827068 -25.992018
-9.2919521 72.750359 -30.158386 119.34439 -17.346149 -121.02929 -35.818592 -91.178436
-9.0519772 3.4333079 -35.718025 -25.795891 -35.617756 -91.14769 -13.531585 -121.8516
2290000000 -25.446831 -61.095955 -9.0160036 133.84966 -9.2239103 67.580925 -9.1949816 -1.7009863
-9.0116463 133.75171 -20.760883 -62.583828 -29.998997 112.63921 -35.836605 -35.629616
-9.2826328 67.656677 -30.059608 112.76965 -17.397945 -123.49447 -35.841656 -100.76158
-9.0590734 -1.5448726 -35.720272 -35.542282 -35.633469 -100.75247 -13.496892 -123.79923
2300000000 -25.413794 -57.190781 -9.0043564 128.68002 -9.2181435 62.485069 -9.2043629 -6.6745467
-8.9989834 128.59148 -20.556376 -66.984932 -29.888103 106.09844 -35.868938 -45.479588
-9.2749357 62.55872 -29.951942 106.2658 -17.449549 -125.89948 -35.860336 -110.48964
-9.0685072 -6.5145116 -35.747456 -45.267479 -35.671993 -110.38316 -13.465947 -125.76395
2310000000 -25.268646 -53.708656 -8.9927874 123.508 -9.2104959 57.390945 -9.2154493 -11.634478
-8.9898729 123.43197 -20.35083 -71.238174 -29.796904 99.669579 -35.905994 -55.246532
-9.271493 57.458988 -29.858101 99.770546 -17.504742 -128.27013 -35.919788 -120.19867
-9.0799398 -11.488332 -35.766869 -55.062347 -35.723007 -120.21383 -13.432517 -127.74734
2320000000 -25.057692 -50.732346 -8.9838581 118.34109 -9.2041855 52.300442 -9.2240553 -16.58283
-8.9799118 118.26541 -20.15126 -75.352592 -29.676567 93.211067 -35.925392 -64.804787
-9.2663984 52.357559 -29.746103 93.38755 -17.56386 -130.60791 -35.963985 -129.74275
-9.090765 -16.458635 -35.811317 -64.626015 -35.766781 -129.72397 -13.397932 -129.77925
2330000000 -24.813637 -48.131191 -8.9751616 113.17396 -9.1974888 47.211262 -9.2323809 -21.533911
-8.9708662 113.09507 -19.960869 -79.367424 -29.550667 86.925278 -35.979332 -74.293564
-9.2592726 47.254299 -29.620874 87.055237 -17.62949 -132.88818 -36.041626 -139.29536
-9.1004467 -21.426331 -35.869461 -74.263206 -35.847572 -139.26472 -13.359632 -131.83597
2340000000 -24.525143 -45.883389 -8.9685402 108.01678 -9.1916227 42.116142 -9.2436047 -26.488985
-8.964242 107.92705 -19.788422 -83.202087 -29.411461 80.525085 -36.01228 -83.615959
-9.2523756 42.157597 -29.473927 80.686874 -17.699076 -135.0932 -36.087746 -148.5295
-9.1104927 -26.390533 -35.888481 -83.386169 -35.896145 -148.5023 -13.317555 -133.96968
2350000000 -24.177061 -43.963501 -8.9621925 102.86568 -9.1834021 37.012951 -9.251379 -31.435509
-8.9600496 102.77016 -19.625565 -86.864021 -29.262457 74.118111 -36.009193 -92.857697
-9.245966 37.047653 -29.322329 74.281921 -17.762421 -137.2507 -36.125084 -157.94809
-9.1204758 -31.350357 -35.882431 -92.706581 -35.930698 -157.89978 -13.272421 -136.15179
2360000000 -23.78084 -42.673367 -8.9555445 97.71566 -9.1777182 31.905361 -9.2605009 -36.375198
-8.9533663 97.614876 -19.468138 -90.402763 -29.108648 67.725571 -35.989433 -102.26447
-9.2408142 31.933287 -29.179552 67.855812 -17.823582 -139.36008 -36.182873 -167.16206
-9.1290932 -36.304016 -35.866913 -102.20366 -35.967232 -167.21011 -13.22455 -138.37692
2370000000 -23.373331 -42.130859 -8.9499474 92.562393 -9.1735678 26.794891 -9.2716103 -41.3186
-8.9461632 92.456245 -19.32165 -93.832741 -28.954025 61.347538 -36.010647 -111.87019
-9.236845 26.805643 -29.032871 61.521175 -17.883589 -141.43379 -36.230865 -176.55287
-9.1381512 -41.261898 -35.88253 -111.76409 -36.037102 -176.54958 -13.176778 -140.62489
2380000000 -22.99597 -42.129227 -8.9431686 87.406471 -9.1689444 21.678967 -9.2803736 -46.258801
-8.9427319 87.289139 -19.176731 -97.206306 -28.793379 54.987347 -36.030788 -121.42416
-9.2353735 21.685051 -28.860249 55.110485 -17.944742 -143.42064 -36.295074 174.23111
-9.1466751 -46.20269 -35.913918 -121.23452 -36.100349 174.31209 -13.120963 -142.8961
2390000000 -22.642071 -42.464703 -8.9390182 82.243881 -9.1659288 16.558323 -9.286377 -51.197765
-8.9401369 82.130508 -19.045706 -100.51482 -28.613482 48.591999 -36.091038 -130.57098
-9.2334671 16.568489 -28.676491 48.710262 -18.006605 -145.30925 -36.365364 165.34711
-9.1543388 -51.156021 -35.97715 -130.62656 -36.155361 165.30342 -13.061161 -145.15355
2400000000 -22.301792 -43.161419 -8.936038 77.083115 -9.1646852 11.438371 -9.2922382 -56.135021
-8.9360352 76.970245 -18.926722 -103.75676 -28.432077 42.140163 -36.131035 -139.69847
-9.2312403 11.445461 -28.498629 42.241402 -18.057039 -147.09668 -36.419815 156.46127
-9.1606131 -56.102432 -35.999454 -139.61613 -36.218906 156.32443 -12.999631 -147.43631
2410000000 -21.981697 -44.145123 -8.9362268 71.931496 -9.1656675 6.3339934 -9.2974367 -61.076324
-8.9354982 71.803085 -18.817392 -106.89622 -28.262531 35.581722 -36.150131 -148.6973
-9.2330389 6.3355727 -28.329882 35.676224 -18.102137 -148.80551 -36.439106 147.43684
-9.1683121 -61.054611 -36.010521 -148.52621 -36.241047 147.57652 -12.941171 -149.73219
2420000000 -21.685246 -45.36097 -8.935709 66.775291 -9.1649313 1.2241915 -9.3026733 -66.024544
-8.9376326 66.647102 -18.707638 -109.97056 -28.101185 29.024933 -36.163975 -157.76888
-9.2340612 1.2318827 -28.174528 29.17782 -18.135216 -150.42717 -36.455181 138.53885
-9.17488 -66.005394 -36.017986 -157.53802 -36.263538 138.56296 -12.889833 -152.01797
2430000000 -21.396172 -46.730404 -8.9366808 61.644051 -9.1641092 -3.8839943 -9.3075838 -70.984818
-8.9402151 61.50716 -18.598194 -112.95666 -27.943993 22.552095 -36.180134 -166.89978
-9.2349167 -3.8780644 -28.013407 22.700546 -18.165539 -152.03156 -36.4981 129.55325
-9.1797867 -70.949173 -36.048153 -166.73991 -36.29644 129.41852 -12.846892 -154.28447
2440000000 -21.108097 -48.401581 -8.9369602 56.509274 -9.1669703 -8.9948196 -9.3138304 -75.942047
-8.9440794 56.369732 -18.501163 -115.86754 -27.784857 16.10713 -36.245674 -175.92964
-9.2361612 -8.9893579 -27.84894 16.248137 -18.184919 -153.56 -36.533066 120.67587
-9.1881905 -75.908936 -36.121021 -175.81477 -36.343369 120.549 -12.813275 -156.56422
2450000000 -20.84236 -50.497082 -8.9372587 51.368034 -9.1681929 -14.119238 -9.3197565 -80.901909
-8.94596 51.241982 -18.41147 -118.66528 -27.600723 9.6688004 -36.300842 175.38345
-9.2390842 -14.095972 -27.668913 9.8055773 -18.195551 -155.01888 -36.601765 111.98494
-9.1953497 -80.86264 -36.17421 175.53818 -36.403282 112.02339 -12.787756 -158.86191
2460000000 -20.638994 -52.8209 -8.9417782 46.219181 -9.1723042 -19.239517 -9.327836 -85.867203
-8.9473944 46.106892 -18.320801 -121.25176 -27.420288 3.0665314 -36.330841 166.94043
-9.2441597 -19.207289 -27.486904 3.2062936 -18.189013 -156.49292 -36.639278 103.49184
-9.2023563 -85.813118 -36.210217 167.07346 -36.42643 103.61407 -12.778034 -161.1712
2470000000 -20.499746 -55.224384 -8.9449949 41.065395 -9.1783409 -24.346531 -9.3323412 -90.821671
-8.9519901 40.960548 -18.231802 -123.70757 -27.252817 -3.5623066 -36.331371 158.59583
-9.2472849 -24.31856 -27.320087 -3.4103787 -18.172237 -157.98625 -36.658951 95.052391
-9.2063799 -90.768608 -36.24155 158.70668 -36.466953 95.226395 -12.78009 -163.52975
2480000000 -20.392607 -57.456829 -8.95298 35.92297 -9.1832809 -29.450769 -9.3388271 -95.782463
-8.9596872 35.810303 -18.135136 -125.9821 -27.094212 -10.294138 -36.294079 150.26665
-9.254878 -29.416555 -27.166298 -10.122602 -18.138865 -159.56537 -36.602161 86.596283
-9.2123432 -95.731491 -36.183765 150.36794 -36.410816 86.432205 -12.79661 -165.9146
2490000000 -20.294516 -59.633583 -8.9612284 30.799664 -9.1880007 -34.550274 -9.3439722 -100.73942
-8.9685841 30.685558 -18.032845 -128.14986 -26.962011 -16.956133 -36.270935 141.70425
-9.258852 -34.511837 -27.03212 -16.831038 -18.104019 -161.20203 -36.573814 77.858871
-9.2193851 -100.70513 -36.146172 141.73039 -36.380882 77.924644 -12.822717 -168.3204
2500000000 -20.19474 -61.960777 -8.9714756 25.685579 -9.1953869 -39.639748 -9.3482933 -105.69787
-8.980526 25.577265 -17.931065 -130.22113 -26.832167 -23.557817 -36.228676 133.05142
-9.2663822 -39.618916 -26.89477 -23.408175 -18.067759 -162.89464 -36.55658 69.228691
-9.226017 -105.6675 -36.110104 133.24556 -36.359962 69.108391 -12.857391 -170.77289
2510000000 -20.118267 -64.490913 -8.9825697 20.584669 -9.2041912 -44.735252 -9.3541155 -110.67445
-8.9923201 20.484247 -17.828119 -132.19243 -26.704222 -30.190313 -36.207455 124.54828
-9.2733374 -44.714447 -26.757809 -30.094088 -18.022253 -164.60684 -36.557121 60.423248
-9.2326059 -110.63529 -36.079384 124.63866 -36.378864 60.459778 -12.895734 -173.25844
2520000000 -20.072855 -67.232513 -8.994462 15.502371 -9.2118216 -49.82328 -9.3594856 -115.64094
-9.0039711 15.401787 -17.720514 -134.10802 -26.576929 -36.806736 -36.198944 116.12145
-9.2842951 -49.811295 -26.640038 -36.681831 -17.965548 -166.39812 -36.558125 51.975689
-9.2401276 -115.59825 -36.07095 116.22478 -36.386208 51.882874 -12.940929 -175.76933
2530000000 -20.067575 -70.168823 -9.0053463 10.432108 -9.2222061 -54.91111 -9.3655319 -120.62053
-9.0151377 10.332973 -17.604301 -135.97552 -26.455002 -43.437386 -36.176056 107.70653
-9.294117 -54.894203 -26.521561 -43.328926 -17.904495 -168.25481 -36.537758 43.540398
-9.2450228 -120.56786 -36.038475 107.787 -36.35907 43.432671 -12.989684 -178.31226
2540000000 -20.111713 -73.270622 -9.0154037 5.3776422 -9.2333145 -59.986118 -9.37115 -125.58858
-9.0273428 5.2782016 -17.486788 -137.88803 -26.354 -50.055088 -36.132618 99.260567
-9.3045492 -59.966515 -26.411528 -49.948372 -17.839104 -170.18105 -36.518803 34.966808
