!Agilent Technologies,N5224A,MY51441093,A.09.90.21
!Agilent N5224A: A.09.90.21
!Date: Friday, December 19, 2025 16:37:18
!Correction: S11(Full 4 Port(1,2,3,4)) 
!S12(Full 4 Port(1,2,3,4)) 
!S13(Full 4 Port(1,2,3,4)) 
!S14(Full 4 Port(1,2,3,4)) 
!S21(Full 4 Port(1,2,3,4)) 
!S22(Full 4 Port(1,2,3,4)) 
!S23(Full 4 Port(1,2,3,4)) 
!S24(Full 4 Port(1,2,3,4)) 
!S31(Full 4 Port(1,2,3,4)) 
!S32(Full 4 Port(1,2,3,4)) 
!S33(Full 4 Port(1,2,3,4)) 
!S34(Full 4 Port(1,2,3,4)) 
!S41(Full 4 Port(1,2,3,4)) 
!S42(Full 4 Port(1,2,3,4)) 
!S43(Full 4 Port(1,2,3,4)) 
!S44(Full 4 Port(1,2,3,4)) 
!S4P File: Measurements: <S11,S12,S13,S14>,
!<S21,S22,S23,S24>,
!<S31,S32,S33,S34>,
!<S41,S42,S43,S44>:
# Hz S  dB   R 50
2000000000 -10.212619 -47.243805 -9.4128056 -143.80057 -9.7030725 -123.66616 -9.5549831 -95.566269
-9.4247589 -143.8485 -16.977942 -38.247692 -30.517033 -96.106178 -34.76836 -50.034454
-9.7604542 -123.49751 -30.560022 -95.880722 -14.210057 -5.5633488 -35.274956 -30.35692
-9.4388275 -95.338654 -34.644341 -49.785423 -35.10046 -30.344734 -24.584044 33.635494
2010000000 -10.391024 -51.455627 -9.3816242 -148.88702 -9.6778841 -128.7392 -9.5272217 -100.78085
-9.3965893 -148.92238 -16.847834 -42.446579 -30.564695 -102.67655 -34.834232 -60.376408
-9.7306051 -128.57495 -30.609573 -102.50718 -14.176194 -9.1988325 -35.363621 -40.704113
-9.4097662 -100.53973 -34.715027 -60.114491 -35.1945 -40.642143 -24.258345 27.518421
2020000000 -10.590688 -55.647968 -9.3594151 -153.98076 -9.6582813 -133.80316 -9.499898 -106.00072
-9.3722219 -154.01987 -16.727974 -46.550941 -30.602734 -109.23286 -34.91415 -70.609802
-9.7083235 -133.64778 -30.637291 -109.02614 -14.152297 -12.817624 -35.449665 -50.868847
-9.380621 -105.75198 -34.779137 -70.379311 -35.276253 -50.782368 -23.937664 21.607479
2030000000 -10.804124 -59.868393 -9.3363018 -159.08031 -9.6355658 -138.87236 -9.473093 -111.21715
-9.3475132 -159.12473 -16.616634 -50.59264 -30.624325 -115.90398 -34.959476 -81.028931
-9.6878433 -138.72113 -30.667183 -115.66313 -14.132421 -16.431562 -35.501511 -61.213871
-9.3534594 -110.96393 -34.823624 -80.791626 -35.336063 -61.140823 -23.636438 15.67752
2040000000 -11.039597 -64.170471 -9.3131733 -164.18764 -9.6109409 -143.94574 -9.4450912 -116.43047
-9.3233519 -164.22972 -16.511808 -54.527054 -30.623295 -122.66119 -35.024311 -91.538208
-9.6635666 -143.79759 -30.669542 -122.3931 -14.117431 -20.029591 -35.533882 -71.689682
-9.323328 -116.18302 -34.882511 -91.188866 -35.355583 -71.551941 -23.352077 9.8757181
2050000000 -11.296467 -68.504585 -9.2902603 -169.28883 -9.5878515 -149.04106 -9.4152155 -121.65294
-9.2998562 -169.33281 -16.419672 -58.33728 -30.652349 -129.51115 -35.083073 -102.00131
-9.6404905 -148.888 -30.704121 -129.32535 -14.102566 -23.605883 -35.604572 -82.297195
-9.2950821 -121.41654 -34.960072 -101.80303 -35.427402 -82.16111 -23.072231 4.1420398
2060000000 -11.583399 -72.873756 -9.2656937 -174.40016 -9.5646772 -154.13966 -9.3882055 -126.89004
-9.2789946 -174.455 -16.329622 -62.041458 -30.681458 -136.4064 -35.17786 -112.50659
-9.6177769 -153.98851 -30.728525 -136.21352 -14.091358 -27.162464 -35.662491 -92.771317
-9.2695789 -126.65605 -35.038666 -112.32632 -35.492672 -92.728661 -22.785818 -1.4329127
2070000000 -11.895886 -77.285202 -9.2439766 -179.51889 -9.5425024 -159.25139 -9.3613892 -132.14453
-9.2554169 -179.57632 -16.23789 -65.638771 -30.708241 -143.2029 -35.269436 -122.82598
-9.5956297 -159.10463 -30.761946 -142.98576 -14.077678 -30.656963 -35.751541 -103.01427
-9.2420549 -131.90723 -35.135979 -122.53973 -35.579937 -103.03321 -22.496519 -6.8107305
2080000000 -12.24191 -81.728905 -9.2237186 175.36742 -9.5223656 -164.36716 -9.3365374 -137.40134
-9.2360935 175.30974 -16.152107 -69.203064 -30.7171 -150.05496 -35.33033 -132.95753
-9.5757732 -164.22699 -30.768213 -149.79846 -14.064614 -34.14389 -35.783337 -113.3236
-9.2184153 -137.157 -35.21825 -132.64388 -35.614506 -113.12751 -22.192852 -12.143009
2090000000 -12.619182 -86.179359 -9.2007446 170.25014 -9.5021906 -169.48085 -9.313158 -142.66881
-9.2118483 170.19374 -16.071125 -72.705879 -30.725744 -156.93631 -35.397621 -143.08882
-9.5560799 -169.3515 -30.772913 -156.77599 -14.048121 -37.599968 -35.807007 -123.5228
-9.1930494 -142.42812 -35.277702 -142.89478 -35.642567 -123.4519 -21.887688 -17.270021
2100000000 -13.033164 -90.632111 -9.1773138 165.11766 -9.4828186 -174.6017 -9.2920504 -147.93184
-9.1859121 165.06726 -15.998251 -76.150673 -30.724573 -163.84354 -35.429867 -153.40388
-9.5368404 -174.46959 -30.767776 -163.72614 -14.041228 -41.003586 -35.824734 -133.94243
-9.168746 -147.69687 -35.303524 -153.17616 -35.637115 -133.85912 -21.587101 -22.208366
2110000000 -13.479783 -95.0886 -9.1557255 159.97275 -9.4652662 -179.72672 -9.2706738 -153.20044
-9.1617651 159.9164 -15.933128 -79.509071 -30.72711 -170.91765 -35.4786 -163.72644
-9.5189476 -179.59181 -30.773863 -170.75191 -14.036828 -44.352135 -35.833084 -144.31911
-9.1480913 -152.97787 -35.347324 -163.45277 -35.659222 -144.23929 -21.291313 -26.919552
2120000000 -13.961788 -99.606133 -9.1345015 154.80217 -9.4448462 175.14006 -9.2530336 -158.48329
-9.141263 154.75281 -15.874888 -82.808929 -30.731907 -177.94839 -35.527119 -173.96786
-9.5013294 175.27843 -30.783243 -177.72787 -14.030439 -47.662563 -35.858509 -154.82513
-9.128726 -158.25009 -35.404694 -173.7379 -35.680176 -154.71733 -21.010443 -31.378218
2130000000 -14.483006 -104.22005 -9.1153488 149.63388 -9.4291658 170.00803 -9.2355433 -163.75923
-9.1235828 149.58934 -15.821 -86.039879 -30.745472 175.08243 -35.577354 175.77603
-9.4840946 170.14381 -30.794497 175.25084 -14.031988 -50.906013 -35.872066 -165.38451
-9.1116238 -163.52992 -35.453007 176.00293 -35.704704 -165.20082 -20.747217 -35.645519
2140000000 -15.054138 -108.98516 -9.1008043 144.46608 -9.4142075 164.86571 -9.2217169 -169.02647
-9.1082363 144.42406 -15.778277 -89.204315 -30.741707 168.17882 -35.61681 165.70103
-9.4702187 165.00095 -30.798258 168.29292 -14.038579 -54.120888 -35.902557 -175.62047
-9.0977163 -168.81114 -35.492928 165.90361 -35.723686 -175.57954 -20.499624 -39.760132
2150000000 -15.681129 -113.9053 -9.0865021 139.31163 -9.3985119 159.73094 -9.2082376 -174.30571
-9.0913343 139.27458 -15.741145 -92.263496 -30.739759 161.10588 -35.628635 155.57932
-9.4554758 159.86111 -30.791386 161.26216 -14.04873 -57.303711 -35.905155 174.09084
-9.0824013 -174.08414 -35.510929 155.87144 -35.715702 174.12592 -20.275249 -43.816578
2160000000 -16.378222 -118.98964 -9.0705357 134.15816 -9.3828926 154.60211 -9.1960659 -179.57855
-9.073905 134.1236 -15.711685 -95.254707 -30.721357 154.08754 -35.618 145.31108
-9.4399586 154.7148 -30.78389 154.25891 -14.0656 -60.430408 -35.888 163.69815
-9.0683804 -179.35208 -35.49313 145.56421 -35.703438 163.8452 -20.074785 -47.741875
2170000000 -17.149809 -124.28397 -9.0551338 129.00708 -9.3714743 149.45099 -9.1861534 175.15538
-9.0566378 128.95848 -15.68186 -98.165771 -30.717497 147.06866 -35.641411 135.05971
-9.4272499 149.57542 -30.768826 147.23146 -14.085542 -63.542267 -35.883492 153.44632
-9.0579424 175.36426 -35.499332 135.32076 -35.706352 153.40034 -19.891657 -51.581867
2180000000 -18.007521 -129.84023 -9.0398874 123.8381 -9.3575773 144.30812 -9.1771078 169.88135
-9.0427217 123.80259 -15.657208 -101.01305 -30.713198 140.0554 -35.621956 124.66383
-9.4147081 144.42439 -30.776533 140.24086 -14.109166 -66.611931 -35.881447 142.99884
-9.0494595 170.09439 -35.495144 124.85167 -35.711224 143.12355 -19.727306 -55.40538
2190000000 -18.952942 -135.65485 -9.0251207 118.67592 -9.3477726 139.15663 -9.1701851 164.60506
-9.0283794 118.62715 -15.636984 -103.7873 -30.708923 133.20235 -35.653427 114.26115
-9.4033213 139.27281 -30.764706 133.36595 -14.129244 -69.659264 -35.881153 132.58206
-9.0419283 164.81459 -35.5247 114.5836 -35.701317 132.61119 -19.574924 -59.164547
2200000000 -19.995152 -141.89499 -9.0135489 113.50291 -9.3384886 134.01439 -9.166172 159.34885
-9.0136452 113.44511 -15.616709 -106.52728 -30.698017 126.37514 -35.682728 103.88078
-9.3937187 134.1187 -30.754215 126.55515 -14.154087 -72.691139 -35.905704 122.30335
-9.0367098 159.54375 -35.539619 104.15652 -35.716217 122.39 -19.428829 -62.921009
2210000000 -21.131182 -148.7966 -9.0033054 108.33619 -9.331584 128.87628 -9.1619215 154.09203
-9.0051584 108.25534 -15.602901 -109.23029 -30.669735 119.62623 -35.715652 93.784431
-9.3863916 128.97401 -30.723116 119.86956 -14.17433 -75.718498 -35.91964 112.12099
-9.0336523 154.27985 -35.576557 93.920158 -35.744473 112.17382 -19.283741 -66.669334
2220000000 -22.403931 -156.89064 -8.9957418 103.1517 -9.3244791 123.74643 -9.1636925 148.8506
-8.9974489 103.06651 -15.59032 -111.87324 -30.64171 112.84092 -35.727341 83.603119
-9.3809395 123.83257 -30.685434 113.07162 -14.199632 -78.715294 -35.930992 102.03906
-9.0338907 149.02678 -35.599731 83.840225 -35.73896 102.08837 -19.146404 -70.401726
2230000000 -23.850847 -166.52757 -8.9892578 97.977211 -9.3181353 118.61285 -9.1645308 143.60629
-8.9915152 97.890823 -15.586016 -114.46308 -30.584846 106.20388 -35.742237 73.384758
-9.3740969 118.68402 -30.643587 106.33823 -14.220969 -81.694283 -35.937542 91.888489
-9.0330954 143.77832 -35.610584 73.619827 -35.744114 91.939644 -19.012566 -74.057892
2240000000 -25.482752 -178.3642 -8.9841833 92.824982 -9.3093204 113.47692 -9.1650543 138.38182
-8.9868011 92.738037 -15.579298 -117.00999 -30.540468 99.456627 -35.770878 63.190357
-9.3675718 113.54615 -30.600546 99.574326 -14.239608 -84.629768 -35.92075 81.706078
-9.0353212 138.54936 -35.625862 63.422195 -35.737698 81.801971 -18.872822 -77.665604
2250000000 -27.206945 166.56282 -8.9817953 87.674637 -9.3056564 108.33566 -9.1716938 133.16348
-8.979949 87.5877 -15.576468 -119.47683 -30.497776 92.737183 -35.772621 52.97953
-9.3629522 108.39899 -30.551033 92.918671 -14.260335 -87.547401 -35.938663 71.477119
-9.0381308 133.32736 -35.654716 53.151497 -35.742924 71.641258 -18.739861 -81.163895
2260000000 -28.756037 146.73204 -8.9770279 82.533745 -9.3030005 103.20184 -9.1769228 127.9666
-8.9751568 82.425804 -15.576027 -121.92316 -30.435457 86.150589 -35.817657 42.807713
-9.360961 103.25719 -30.500986 86.344376 -14.279737 -90.437706 -35.951954 61.490623
-9.0427713 128.12056 -35.682484 43.111954 -35.770493 61.578617 -18.607224 -84.620293
2270000000 -29.526142 122.33347 -8.9708347 77.377769 -9.2993078 98.073654 -9.183075 122.78126
-8.9694185 77.272728 -15.577661 -124.33085 -30.383875 79.661346 -35.863205 32.709709
-9.3588591 98.12796 -30.437916 79.818871 -14.299765 -93.302513 -36.007233 51.641933
-9.0484076 122.93301 -35.728161 33.027821 -35.808342 51.715618 -18.483244 -87.98394
2280000000 -29.115782 97.140297 -8.9657087 72.223045 -9.2987404 92.93811 -9.1885443 117.61568
-8.9661999 72.115204 -15.583303 -126.6543 -30.299765 73.146584 -35.899822 22.941853
-9.3578234 93.004662 -30.362379 73.336006 -14.325206 -96.104431 -36.031654 41.759338
-9.0546904 117.75639 -35.765594 23.268646 -35.82959 41.914917 -18.367521 -91.268227
2290000000 -27.83395 76.033028 -8.9605484 67.046753 -9.2985201 87.811562 -9.1934872 112.45229
-8.9611845 66.959366 -15.593411 -128.95706 -30.221563 66.667862 -35.904652 13.10002
-9.35676 87.885254 -30.282228 66.884056 -14.353507 -98.882744 -36.043236 32.116074
-9.0584936 112.59865 -35.763031 13.341352 -35.860306 32.200924 -18.263094 -94.48806
2300000000 -26.285545 60.116367 -8.9591646 61.868668 -9.2971344 82.694 -9.2003069 107.30228
-8.9602404 61.797832 -15.608342 -131.17212 -30.128376 60.256947 -35.913605 3.199194
-9.3564844 82.769821 -30.187256 60.459942 -14.383148 -101.60744 -36.063019 22.452303
-9.0659075 107.45683 -35.775959 3.3709106 -35.859306 22.556337 -18.17379 -97.628441
2310000000 -24.793432 48.132278 -8.9615479 56.706749 -9.2975855 77.5868 -9.2069826 102.16812
-8.9602022 56.632721 -15.62644 -133.33513 -30.037384 53.920387 -35.939129 -6.6701474
-9.3574419 77.654381 -30.099274 54.106609 -14.41724 -104.30946 -36.08728 12.842183
-9.069973 102.31935 -35.80312 -6.4994197 -35.89584 12.842892 -18.091589 -100.74326
2320000000 -23.425089 38.599804 -8.9645538 51.560658 -9.2974548 72.482399 -9.2122402 97.052399
-8.9629021 51.48106 -15.65248 -135.40926 -29.929436 47.635971 -35.995602 -16.427532
-9.3578587 72.532318 -29.998882 47.803223 -14.45468 -106.97535 -36.113564 3.2850239
-9.0774107 97.183159 -35.837746 -16.297087 -35.916901 3.2974806 -18.020412 -103.88381
2330000000 -22.206837 30.577654 -8.9682083 46.430698 -9.2995882 67.375809 -9.2157974 91.94857
-8.9674978 46.338772 -15.682805 -137.43927 -29.820858 41.456436 -36.018173 -26.072474
-9.3597527 67.417618 -29.877485 41.576122 -14.497616 -109.60686 -36.166481 -6.171638
-9.0849295 92.058945 -35.889606 -25.853401 -35.960094 -6.1694226 -17.956507 -107.02741
2340000000 -21.154268 23.380306 -8.9702301 41.312378 -9.3011255 62.268211 -9.2216158 86.855644
-8.9721088 41.212521 -15.717091 -139.35638 -29.679476 35.197186 -36.016663 -35.414639
-9.364048 62.304264 -29.743519 35.347698 -14.544591 -112.20816 -36.167625 -15.308082
-9.0896206 86.949593 -35.89959 -35.325901 -35.977764 -15.239218 -17.908693 -110.17307
2350000000 -20.252893 16.776121 -8.972434 36.192379 -9.3051786 57.159489 -9.2246237 81.775734
-8.9756651 36.091915 -15.750621 -141.21069 -29.526005 28.98704 -36.01263 -45.020279
-9.3679333 57.198704 -29.592979 29.075531 -14.587559 -114.77097 -36.177757 -24.512392
-9.0946188 81.860451 -35.887337 -44.765022 -35.981888 -24.445543 -17.866692 -113.29322
2360000000 -19.48683 10.761377 -8.9746971 31.068102 -9.3097582 52.075272 -9.2272892 76.699684
-8.9769497 30.965408 -15.781021 -143.02003 -29.372221 22.698963 -36.002544 -54.67358
-9.3726244 52.105164 -29.439167 22.856455 -14.633538 -117.29854 -36.145523 -33.726757
-9.0953417 76.77504 -35.870289 -54.49361 -35.953445 -33.671085 -17.825472 -116.4056
2370000000 -18.813963 5.140419 -8.9769897 25.948862 -9.3152218 46.994362 -9.2286358 71.623756
-8.9795275 25.837505 -15.814804 -144.80222 -29.218067 16.485069 -36.018658 -64.413506
-9.3780012 47.011955 -29.282328 16.646597 -14.679174 -119.79507 -36.136837 -43.003967
-9.0956202 71.685692 -35.886196 -64.216827 -35.943188 -43.092533 -17.78816 -119.51238
2380000000 -18.225012 -0.18491739 -8.9803114 20.814543 -9.3201084 41.920494 -9.2275419 66.539841
-8.9853106 20.705379 -15.8478 -146.53532 -29.044605 10.293203 -36.069332 -74.070885
-9.3833809 41.93045 -29.112482 10.423644 -14.730447 -122.2366 -36.152054 -52.433853
-9.0950279 66.593773 -35.923401 -73.945213 -35.949078 -52.443909 -17.750444 -122.55821
2390000000 -17.693371 -5.3317633 -8.9851284 15.692809 -9.3231506 36.84248 -9.2273436 61.454258
-8.9915857 15.576602 -15.879059 -148.20273 -28.852829 4.0014734 -36.113438 -83.286621
-9.388381 36.837193 -28.917423 4.1511374 -14.781121 -124.60783 -36.177269 -61.621101
-9.0943813 61.494442 -35.964989 -83.293533 -35.996075 -61.671936 -17.717762 -125.50936
2400000000 -17.22551 -10.385476 -8.9929218 10.576371 -9.3288765 31.764536 -9.2251301 56.377369
-8.9978704 10.458654 -15.904918 -149.81499 -28.662367 -2.3726003 -36.144226 -92.462021
-9.3942299 31.7584 -28.725245 -2.2613163 -14.827538 -126.9078 -36.20787 -70.703239
-9.0939932 56.404427 -36.023415 -92.436295 -36.003109 -70.672859 -17.684227 -128.30179
2410000000 -16.812172 -15.396445 -9.0026312 5.4635987 -9.3354368 26.682854 -9.2256222 51.290867
-9.0062504 5.3371058 -15.920387 -151.39246 -28.470602 -8.9209051 -36.144108 -101.63937
-9.4022913 26.68832 -28.533693 -8.7883558 -14.871627 -129.13397 -36.18972 -79.635818
-9.0940475 51.321445 -36.01416 -101.51653 -36.006081 -79.706451 -17.65193 -130.98285
2420000000 -16.443991 -20.361473 -9.0091085 0.36504275 -9.3426361 21.619516 -9.222887 46.213745
-9.0173788 0.2323724 -15.926663 -152.94995 -28.296225 -15.403431 -36.138012 -110.84685
-9.4086246 21.625895 -28.360371 -15.217573 -14.909799 -131.28004 -36.19767 -88.70649
-9.0919771 46.243443 -35.990025 -110.76884 -36.015266 -88.767715 -17.61874 -133.48178
2430000000 -16.134319 -25.305595 -9.0177031 -4.7150245 -9.3488331 16.55481 -9.2184591 41.141102
-9.026454 -4.8547907 -15.925125 -154.48509 -28.140776 -21.856199 -36.170288 -120.15997
-9.4164457 16.556906 -28.196875 -21.661705 -14.943756 -133.40793 -36.224529 -97.984116
-9.0902758 41.171516 -36.019386 -120.00928 -36.011227 -97.894318 -17.593042 -135.84384
2440000000 -15.873347 -30.202034 -9.0259962 -9.8088045 -9.3572655 11.490578 -9.2162657 36.060467
-9.0367947 -9.9413776 -15.922466 -155.97678 -27.963961 -28.268909 -36.192978 -129.31142
-9.4247599 11.497453 -28.028524 -28.098583 -14.972899 -135.45427 -36.247326 -106.99844
-9.0894995 36.096973 -36.063705 -129.28284 -36.074249 -106.94106 -17.574955 -138.09567
2450000000 -15.654771 -34.98745 -9.0311394 -14.909381 -9.3632088 6.4373732 -9.2111988 30.981882
-9.043807 -15.024302 -15.910012 -157.41385 -27.773758 -34.660923 -36.243011 -138.18898
-9.4340057 6.450068 -27.832592 -34.541477 -15.001307 -137.43103 -36.307854 -115.84739
-9.0857277 31.020311 -36.109219 -138.08652 -36.118816 -115.76131 -17.5695 -140.20914
2460000000 -15.468289 -39.642578 -9.0410433 -20.02737 -9.3713303 1.3741214 -9.207819 25.884752
-9.0501356 -20.133533 -15.884583 -158.77882 -27.587551 -41.304993 -36.256725 -146.8494
-9.4411383 1.3996608 -27.64238 -41.181087 -15.017141 -139.39783 -36.368546 -124.34325
-9.0829411 25.930876 -36.137989 -146.69847 -36.155617 -124.29707 -17.574421 -142.17639
2470000000 -15.299788 -44.275009 -9.0525045 -25.13476 -9.3784037 -3.6790826 -9.2054863 20.791925
-9.0634413 -25.239227 -15.853486 -160.15015 -27.413187 -47.921425 -36.272713 -155.34703
-9.4485235 -3.6589665 -27.479248 -47.80975 -15.024675 -141.32358 -36.391197 -132.88823
-9.0799513 20.842865 -36.119907 -155.21758 -36.191738 -132.99936 -17.581867 -144.04707
2480000000 -15.155048 -48.980171 -9.0675812 -30.227903 -9.387578 -8.7348528 -9.2035847 15.707246
-9.0792542 -30.330153 -15.814262 -161.52347 -27.262842 -54.628143 -36.199867 -163.93073
-9.458312 -8.7052593 -27.314648 -54.508823 -15.020743 -143.2834 -36.384872 -141.33101
-9.0776711 15.765246 -36.071331 -163.89546 -36.185802 -141.39146 -17.589607 -145.83113
2490000000 -15.054166 -53.745647 -9.0833921 -35.298775 -9.3992691 -13.788751 -9.1993818 10.628149
-9.0967798 -35.409096 -15.772869 -162.9287 -27.114998 -61.305012 -36.156689 -172.88036
-9.469614 -13.757033 -27.176798 -61.125557 -15.0125 -145.27437 -36.364082 -149.99335
-9.0753479 10.674146 -36.01807 -172.75018 -36.190037 -149.97948 -17.592695 -147.64716
2500000000 -14.986945 -58.537277 -9.0994997 -40.349113 -9.4116697 -18.81665 -9.1937075 5.5515251
-9.111867 -40.456852 -15.73178 -164.30025 -26.982409 -67.889664 -36.111176 178.22302
-9.4820833 -18.79524 -27.041733 -67.783508 -15.003091 -147.27956 -36.378704 -158.64017
-9.0708208 5.5810881 -35.995178 178.37187 -36.194389 -158.59392 -17.593859 -149.46017
2510000000 -14.962973 -63.316109 -9.1149216 -45.390331 -9.4253101 -23.844528 -9.1884384 0.45761013
-9.1304512 -45.498196 -15.690738 -165.7103 -26.849928 -74.488777 -36.136223 169.45735
-9.4954023 -23.830193 -26.90523 -74.388222 -14.986725 -149.28445 -36.394669 -167.18169
-9.0677071 0.49410325 -35.996727 169.56996 -36.206135 -167.02187 -17.583786 -151.32796
2520000000 -14.969494 -68.124451 -9.1300192 -50.416561 -9.4395161 -28.852707 -9.1853504 -4.6486263
-9.1442108 -50.518147 -15.641874 -167.18941 -26.724415 -81.111351 -36.111866 160.89172
-9.5111523 -28.840385 -26.778303 -81.014519 -14.961718 -151.31927 -36.399139 -175.37929
-9.0671034 -4.6074328 -35.993973 160.97852 -36.207874 -175.24367 -17.562893 -153.19368
2530000000 -15.01113 -73.025566 -9.1435089 -55.441875 -9.4524851 -33.857014 -9.1824808 -9.7574444
-9.1597633 -55.54319 -15.595963 -168.72682 -26.599453 -87.761078 -36.09095 152.27884
-9.5243187 -33.839237 -26.65696 -87.639801 -14.927251 -153.39459 -36.374962 176.33263
-9.0639935 -9.7036047 -35.952446 152.39299 -36.195816 176.38087 -17.526375 -155.16435
2540000000 -15.094536 -77.942017 -9.1577997 -60.459164 -9.4661694 -38.837463 -9.1819763 -14.854501
-9.1752176 -60.550892 -15.552054 -170.38582 -26.495197 -94.383354 -36.067421 143.82002
