!Agilent Technologies,N5224A,MY51441093,A.09.90.21
!Agilent N5224A: A.09.90.21
!Date: Friday, December 19, 2025 16:37:40
!Correction: S11(Full 4 Port(1,2,3,4)) 
!S12(Full 4 Port(1,2,3,4)) 
!S13(Full 4 Port(1,2,3,4)) 
!S14(Full 4 Port(1,2,3,4)) 
!S21(Full 4 Port(1,2,3,4)) 
!S22(Full 4 Port(1,2,3,4)) 
!S23(Full 4 Port(1,2,3,4)) 
!S24(Full 4 Port(1,2,3,4)) 
!S31(Full 4 Port(1,2,3,4)) 
!S32(Full 4 Port(1,2,3,4)) 
!S33(Full 4 Port(1,2,3,4)) 
!S34(Full 4 Port(1,2,3,4)) 
!S41(Full 4 Port(1,2,3,4)) 
!S42(Full 4 Port(1,2,3,4)) 
!S43(Full 4 Port(1,2,3,4)) 
!S44(Full 4 Port(1,2,3,4)) 
!S4P File: Measurements: <S11,S12,S13,S14>,
!<S21,S22,S23,S24>,
!<S31,S32,S33,S34>,
!<S41,S42,S43,S44>:
# Hz S  dB   R 50
2000000000 -14.636356 -52.725632 -9.0336866 142.58748 -9.1799068 -170.54541 -9.5972576 -124.35274
-9.0456467 142.55026 -13.127707 -69.489647 -29.771662 145.14421 -34.651035 -151.97035
-9.2365112 -170.37335 -29.820692 145.37418 -15.335588 5.1483383 -34.863899 -106.09531
-9.4811878 -124.1232 -34.54224 -151.74298 -34.698193 -106.04913 -14.232845 -3.9956679
2010000000 -14.985653 -55.410366 -9.0123348 137.64258 -9.1615696 -175.59132 -9.5888796 -129.53505
-9.0258198 137.61955 -13.158369 -71.791695 -29.812065 138.67143 -34.755543 -161.95695
-9.2135916 -175.41208 -29.8556 138.90892 -15.433904 2.1242847 -34.966679 -116.283
-9.4715157 -129.29288 -34.624149 -161.7365 -34.789639 -116.22847 -14.195647 -7.6791167
2020000000 -15.366541 -58.021366 -8.9959011 132.69304 -9.1472883 179.37392 -9.5838013 -134.70668
-9.0091581 132.65262 -13.192332 -74.059669 -29.85004 132.27618 -34.840641 -171.98424
-9.1980171 179.53398 -29.903183 132.4447 -15.536798 -0.87502074 -35.046783 -126.34308
-9.4626513 -134.46204 -34.709953 -171.68892 -34.865948 -126.33143 -14.157015 -11.33911
2030000000 -15.787037 -60.51749 -8.9847326 127.72361 -9.1311636 174.31787 -9.5782185 -139.86417
-8.996109 127.68143 -13.229611 -76.261475 -29.885286 125.70029 -34.900764 177.93947
-9.1826754 174.48277 -29.92407 125.98183 -15.639275 -3.8305442 -35.085487 -136.47603
-9.4567633 -139.61655 -34.759953 178.25931 -34.926899 -136.46349 -14.124813 -15.021316
2040000000 -16.244507 -62.796581 -8.972127 122.75443 -9.115653 169.26134 -9.5741653 -145.01309
-8.9839115 122.71032 -13.255461 -78.389 -29.902308 119.11775 -34.960217 167.71989
-9.168313 169.41394 -29.948256 119.33271 -15.737871 -6.7753015 -35.146702 -146.81253
-9.4520159 -144.76352 -34.823887 167.97714 -34.974846 -146.68861 -14.0956 -18.691145
2050000000 -16.728119 -64.804924 -8.9607353 117.78185 -9.1013489 164.17659 -9.5689831 -150.15068
-8.9722147 117.74062 -13.277246 -80.46244 -29.943035 112.32127 -35.040672 157.35959
-9.1551628 164.33945 -29.980001 112.57862 -15.824905 -9.6629801 -35.215145 -157.08717
-9.4483557 -149.90913 -34.898479 157.61542 -35.042751 -157.13301 -14.07011 -22.327316
2060000000 -17.235203 -66.507622 -8.9506664 112.80565 -9.0898581 159.09009 -9.564868 -155.28983
-8.9621124 112.75046 -13.294378 -82.502846 -29.987661 105.64642 -35.119526 147.1331
-9.1429138 159.25215 -30.029888 105.88428 -15.903242 -12.547279 -35.28973 -167.3502
-9.4441261 -155.04002 -34.987656 147.37248 -35.12204 -167.44608 -14.038025 -25.940269
2070000000 -17.761421 -67.880737 -8.9395485 107.81888 -9.0799274 153.98761 -9.5605307 -160.41966
-8.9529486 107.76173 -13.300961 -84.516861 -30.037201 98.981857 -35.221317 136.94418
-9.1332264 154.14317 -30.079315 99.231544 -15.970803 -15.449159 -35.382042 -177.63902
-9.4399252 -160.16692 -35.095432 137.26723 -35.216946 -177.51259 -14.002516 -29.490534
2080000000 -18.301277 -68.843552 -8.9306459 102.82838 -9.073513 148.88843 -9.5599947 -165.53951
-8.9440413 102.76593 -13.307552 -86.519157 -30.067677 92.45063 -35.301952 127.0045
-9.1244211 149.03021 -30.108969 92.629448 -16.038107 -18.332272 -35.447617 172.43938
-9.4376116 -165.29166 -35.161983 127.23595 -35.281445 172.52174 -13.965571 -33.043747
2090000000 -18.83712 -69.417313 -8.9208536 97.81678 -9.0660973 143.7859 -9.557703 -170.6525
-8.9345407 97.763573 -13.305846 -88.499199 -30.075348 85.767311 -35.349548 116.97545
-9.119771 143.91673 -30.123966 85.954201 -16.093925 -21.15172 -35.490448 162.4995
-9.4365511 -170.41315 -35.221188 117.17883 -35.310539 162.56454 -13.924995 -36.550079
2100000000 -19.372965 -69.62056 -8.9126368 92.796463 -9.0624142 138.68205 -9.5597572 -175.75124
-8.9227352 92.742355 -13.296395 -90.466751 -30.079779 78.957756 -35.407158 106.69654
-9.1170511 138.81908 -30.119349 79.143066 -16.14682 -23.909018 -35.505318 152.36926
-9.4344091 -175.51962 -35.268456 106.93261 -35.340294 152.49913 -13.886969 -39.975243
2110000000 -19.912773 -69.448303 -8.9073706 87.747627 -9.0570488 133.5809 -9.5566854 179.15868
-8.9153223 87.700462 -13.283648 -92.42308 -30.085512 72.04641 -35.452869 96.47197
-9.1124001 133.71571 -30.132381 72.213303 -16.185415 -26.652456 -35.523163 142.22903
-9.4351559 179.38757 -35.324242 96.694389 -35.360245 142.34386 -13.851117 -43.331066
2120000000 -20.458326 -68.702248 -8.9053831 82.691147 -9.0554419 128.46912 -9.5577774 174.07091
-8.9143057 82.638718 -13.26602 -94.410255 -30.11797 65.129349 -35.529793 86.192657
-9.1110992 128.61038 -30.168707 65.292572 -16.216286 -29.335884 -35.554565 132.14252
-9.4333239 174.29831 -35.411324 86.387833 -35.390587 132.24344 -13.818799 -46.596947
2130000000 -20.976557 -67.301888 -8.9059582 77.642731 -9.0554209 123.36057 -9.5568342 168.9902
-8.9149666 77.593552 -13.248291 -96.375893 -30.13793 58.301334 -35.611004 76.067757
-9.1096792 123.50303 -30.19854 58.399567 -16.243553 -32.006439 -35.613953 121.95736
-9.4334497 169.22145 -35.492081 76.299187 -35.426918 121.9567 -13.789579 -49.819317
2140000000 -21.436436 -65.319778 -8.9101677 72.595688 -9.0573244 118.24305 -9.5585585 163.93697
-8.9199305 72.563553 -13.231327 -98.323555 -30.152838 51.412537 -35.705631 66.054062
-9.1139545 118.38683 -30.208994 51.638596 -16.271492 -34.641033 -35.636147 111.87647
-9.4339085 164.15671 -35.557293 66.378563 -35.451878 112.02002 -13.764646 -52.991745
2150000000 -21.807362 -62.905388 -8.9161491 67.569878 -9.0617476 113.1456 -9.5572014 158.88292
-8.9232798 67.541573 -13.208571 -100.23888 -30.156244 44.647907 -35.745632 56.113224
-9.11726 113.27293 -30.215788 44.800865 -16.29423 -37.248268 -35.649796 101.93954
-9.4324865 159.10161 -35.624054 56.361347 -35.472679 101.96079 -13.748597 -56.150089
2160000000 -22.099195 -60.146126 -8.9209099 62.548832 -9.0660095 108.0421 -9.5562153 153.83734
-8.9267941 62.52037 -13.183911 -102.14819 -30.163849 37.723419 -35.774422 46.113823
-9.1241817 108.16858 -30.214794 37.837402 -16.311167 -39.829258 -35.661785 91.755974
-9.4296074 154.06442 -35.655102 46.524075 -35.467052 91.904411 -13.742244 -59.265198
2170000000 -22.273424 -57.235306 -8.9290419 57.534134 -9.0738564 102.95156 -9.5531979 148.80292
-8.9298582 57.491398 -13.153262 -104.05484 -30.178308 30.820234 -35.807926 36.160736
-9.1309786 103.07615 -30.225449 31.018 -16.324715 -42.400711 -35.66082 81.687973
-9.4257278 149.02379 -35.677158 36.37632 -35.487278 81.798203 -13.742736 -62.356922
2180000000 -22.337746 -54.323219 -8.9330893 52.515533 -9.0819902 97.862579 -9.5493298 143.78305
-8.9362221 52.472809 -13.121337 -105.98346 -30.189432 23.956469 -35.831261 26.064352
-9.1377668 97.975616 -30.249865 24.15365 -16.339085 -45.00404 -35.686516 71.626335
-9.4212332 143.99467 -35.707462 26.433723 -35.500927 71.660805 -13.748154 -65.438293
2190000000 -22.308363 -51.817707 -8.9379606 47.496273 -9.0899544 92.783913 -9.542448 138.75784
-8.9428854 47.443249 -13.083809 -107.90611 -30.212507 17.167587 -35.846489 16.10177
-9.1463823 92.886116 -30.26157 17.341253 -16.343746 -47.624989 -35.700142 61.546001
-9.4148178 138.96466 -35.728828 16.34235 -35.5243 61.564205 -13.757476 -68.496643
2200000000 -22.219927 -49.550991 -8.9464464 42.465881 -9.0985727 87.704536 -9.5367231 133.73708
-8.9490633 42.412838 -13.05018 -109.8468 -30.214407 10.459539 -35.90073 6.1651654
-9.1559229 87.809502 -30.271296 10.59177 -16.350286 -50.252144 -35.742516 51.489128
-9.4074888 133.93159 -35.768032 6.3747177 -35.567677 51.558487 -13.769644 -71.563522
2210000000 -22.070553 -47.573143 -8.9561405 37.431133 -9.1107216 82.630646 -9.5293064 128.7092
-8.9582691 37.362465 -13.014553 -111.77652 -30.221037 3.8449347 -35.934265 -3.8291254
-9.1641712 82.730644 -30.271387 4.0311189 -16.353384 -52.892277 -35.787384 41.604218
-9.4001513 128.89464 -35.80751 -3.5518913 -35.593937 41.61969 -13.782763 -74.637329
2220000000 -21.850908 -45.841965 -8.9702044 32.405403 -9.1226215 77.562057 -9.5234327 123.68339
-8.9725361 32.314709 -12.975024 -113.70925 -30.212776 -2.7937143 -35.961269 -13.767241
-9.1792431 77.648125 -30.266026 -2.6080697 -16.352036 -55.52034 -35.797245 31.705322
-9.3940859 123.85941 -35.839897 -13.483995 -35.607872 31.843893 -13.796759 -77.679977
2230000000 -21.558867 -44.711311 -8.9859619 27.385424 -9.1355791 72.505234 -9.514945 118.66114
-8.9901972 27.304989 -12.935719 -115.66135 -30.199726 -9.321888 -35.967781 -23.592941
-9.1933632 72.58284 -30.255823 -9.1697531 -16.34572 -58.153912 -35.794834 21.848061
-9.3844748 118.83582 -35.835625 -23.43815 -35.624371 21.879984 -13.810533 -80.683128
2240000000 -21.243734 -44.279613 -9.0025959 22.392824 -9.1495152 67.460625 -9.5057402 113.64806
-9.0052452 22.313461 -12.892913 -117.61095 -30.182388 -15.787169 -35.977051 -33.463432
-9.206398 67.530701 -30.232393 -15.660808 -16.326378 -60.807892 -35.825966 11.846762
-9.374135 113.81202 -35.840572 -33.322887 -35.636372 11.966234 -13.82362 -83.643181
2250000000 -20.953619 -44.387115 -9.0197086 17.418018 -9.1635933 62.429256 -9.4964457 108.632
-9.0182486 17.332779 -12.851172 -119.54727 -30.146648 -22.273037 -35.999077 -43.457428
-9.2207928 62.487476 -30.211559 -22.093512 -16.307852 -63.458408 -35.858681 2.0097647
-9.3630838 108.78903 -35.859253 -43.283558 -35.65818 2.0179548 -13.837343 -86.541466
2260000000 -20.687223 -44.730217 -9.0345144 12.447268 -9.1775723 57.385452 -9.4844217 103.60838
-9.0339355 12.347065 -12.809654 -121.46857 -30.09964 -28.64304 -36.018925 -53.434898
-9.2370548 57.445518 -30.16997 -28.488712 -16.282812 -66.078003 -35.89666 -7.9579797
-9.3525314 103.76849 -35.876888 -53.219666 -35.678215 -7.7785654 -13.848022 -89.400269
2270000000 -20.428978 -45.284847 -9.0485601 7.4587688 -9.1919823 52.353767 -9.4742727 98.593834
-9.0478106 7.3593249 -12.761861 -123.39155 -30.049248 -35.032982 -36.042675 -63.231159
-9.2499962 52.412323 -30.117025 -34.836838 -16.254091 -68.661652 -35.929558 -17.720934
-9.3403549 98.73851 -35.928757 -62.949039 -35.750069 -17.512798 -13.864851 -92.192513
2280000000 -20.175728 -46.110149 -9.0629339 2.481092 -9.2066841 47.321762 -9.4599972 93.565796
-9.0641985 2.3774416 -12.712136 -125.29635 -29.9872 -41.402416 -36.066463 -73.01075
-9.2662287 47.402321 -30.053463 -41.198521 -16.218243 -71.216507 -35.975986 -27.288322
-9.3269701 93.717506 -35.955631 -72.733063 -35.789021 -27.18471 -13.882378 -94.940422
2290000000 -19.948185 -47.192734 -9.0771294 -2.5121632 -9.2235899 42.308701 -9.4465313 88.538353
-9.0799866 -2.6004362 -12.654335 -127.23893 -29.923445 -47.765263 -36.086468 -82.598213
-9.2831078 42.382874 -29.981911 -47.584034 -16.181374 -73.750572 -36.009953 -36.902618
-9.3108397 88.692429 -35.960346 -82.279503 -35.825008 -36.898994 -13.905295 -97.631371
2300000000 -19.740961 -48.44939 -9.0946693 -7.5088387 -9.2403021 37.30344 -9.4318018 83.499527
-9.0960836 -7.5808072 -12.603748 -129.1879 -29.857662 -54.064423 -36.122887 -92.339386
-9.2987423 37.382957 -29.919062 -53.908096 -16.139355 -76.268723 -36.042984 -46.645859
-9.2962885 83.658035 -35.965343 -92.097168 -35.841011 -46.443932 -13.932444 -100.25271
2310000000 -19.55509 -49.832237 -9.1159639 -12.489967 -9.2565384 32.307858 -9.4180784 78.475517
-9.1156483 -12.554932 -12.553654 -131.13123 -29.784849 -60.325912 -36.132069 -102.19297
-9.316946 32.377258 -29.84215 -60.182449 -16.097641 -78.781776 -36.102493 -56.12471
-9.283658 78.617584 -36.000141 -101.97642 -35.906055 -56.028797 -13.960428 -102.83752
2320000000 -19.373493 -51.422592 -9.1364355 -17.447027 -9.2733707 27.320816 -9.401413 73.438629
-9.1353893 -17.530426 -12.502917 -133.04828 -29.707127 -66.531464 -36.190887 -111.8091
-9.333106 27.372683 -29.773052 -66.350395 -16.048552 -81.253738 -36.157932 -65.594276
-9.2679319 73.563461 -36.064064 -111.58713 -35.964176 -65.597626 -13.99421 -105.44095
2330000000 -19.224773 -53.287109 -9.1604195 -22.379084 -9.2899904 22.347311 -9.3845434 68.398209
-9.1600676 -22.473558 -12.451427 -134.97029 -29.61684 -72.554008 -36.249851 -121.18501
-9.3534336 22.386902 -29.667669 -72.430031 -16.000629 -83.732964 -36.233398 -74.973259
-9.2540455 68.51049 -36.134808 -121.09268 -36.031353 -74.90377 -14.030367 -108.01791
2340000000 -19.109758 -55.349503 -9.1792698 -27.295803 -9.3076115 17.375946 -9.3678513 63.360462
-9.1817675 -27.391485 -12.397789 -136.91064 -29.505844 -78.707672 -36.28875 -130.3674
-9.3706856 17.416285 -29.566532 -78.567795 -15.94673 -86.204208 -36.284374 -84.109604
-9.2376747 63.453545 -36.162735 -130.19058 -36.087902 -84.102135 -14.07088 -110.58451
2350000000 -19.033705 -57.524361 -9.1984653 -32.201107 -9.3234472 12.423238 -9.3512831 58.310951
-9.2000523 -32.293476 -12.34434 -138.87794 -29.387873 -84.802086 -36.315609 -139.61659
-9.3846369 12.453955 -29.443562 -84.718163 -15.8882 -88.717369 -36.323898 -93.270248
-9.2185116 58.389492 -36.18285 -139.46187 -36.126823 -93.215675 -14.10853 -113.12853
2360000000 -18.99017 -59.693729 -9.2147703 -37.106865 -9.3406115 7.4762106 -9.3340282 53.242039
-9.2166166 -37.200432 -12.292158 -140.8745 -29.270761 -90.975319 -36.35236 -148.83766
-9.4021063 7.5048623 -29.339058 -90.81189 -15.827686 -91.222595 -36.352219 -102.20628
-9.2013311 53.317993 -36.20472 -148.7518 -36.140392 -102.37335 -14.144332 -115.65946
2370000000 -18.959932 -61.966606 -9.2310591 -42.012859 -9.3551264 2.538239 -9.317193 48.160107
-9.2332411 -42.12524 -12.243463 -142.89868 -29.162115 -97.023178 -36.362679 -158.09297
-9.4173431 2.554529 -29.216572 -96.886444 -15.762456 -93.737396 -36.37603 -111.56252
-9.1833954 48.224945 -36.241444 -158.05286 -36.175484 -111.61539 -14.178327 -118.18734
2380000000 -18.945055 -64.396095 -9.2471218 -46.936306 -9.3690166 -2.3990922 -9.2992983 43.067886
-9.2521496 -47.047035 -12.195323 -144.948 -29.018955 -103.02507 -36.403 -167.34883
-9.4336309 -2.3875425 -29.081833 -102.9022 -15.69156 -96.242607 -36.428673 -120.75484
-9.1664362 43.118938 -36.269646 -167.11417 -36.211018 -120.77148 -14.210082 -120.66861
2390000000 -18.950956 -66.9319 -9.2638407 -51.84132 -9.3833656 -7.3257222 -9.2816067 37.960361
-9.2719545 -51.948986 -12.145488 -147.0255 -28.860956 -109.0767 -36.47467 -176.29832
-9.4461975 -7.3270512 -28.92334 -108.96447 -15.612235 -98.737656 -36.473804 -129.69821
-9.1516428 37.993942 -36.335136 -176.0679 -36.275642 -129.73817 -14.237333 -123.0656
2400000000 -18.984308 -69.584412 -9.2849226 -56.73859 -9.3943787 -12.252381 -9.2702026 32.837803
-9.2909889 -56.839958 -12.099773 -149.15671 -28.697102 -115.17287 -36.503235 174.94046
-9.4605389 -12.252192 -28.764658 -115.04371 -15.524443 -101.27909 -36.529308 -138.52762
-9.1380453 32.87574 -36.380299 175.13762 -36.316032 -138.59898 -14.256989 -125.36646
2410000000 -19.03846 -72.375465 -9.3038902 -61.605377 -9.4081345 -17.161688 -9.2579947 27.723246
-9.3085918 -61.725109 -12.058197 -151.31023 -28.532179 -121.40105 -36.486088 166.28755
-9.4748774 -17.159678 -28.607988 -121.26436 -15.434412 -103.8475 -36.533894 -147.32249
-9.125864 27.746361 -36.376141 166.36946 -36.33897 -147.33163 -14.270435 -127.59064
2420000000 -19.128582 -75.294914 -9.3223257 -66.449425 -9.4205532 -22.076235 -9.2450752 22.592577
-9.3279037 -66.596901 -12.017612 -153.45686 -28.384884 -127.6554 -36.479275 157.37337
-9.4890308 -22.068424 -28.449316 -127.49478 -15.341529 -106.41471 -36.542492 -156.21138
-9.1161213 22.621006 -36.360512 157.48886 -36.346897 -156.29686 -14.276667 -129.73224
2430000000 -19.261208 -78.20993 -9.3339195 -71.293053 -9.4290695 -26.975861 -9.2335768 17.458197
-9.3443012 -71.442444 -11.976161 -155.60661 -28.232859 -133.83435 -36.484291 148.34674
-9.4961891 -26.96258 -28.302143 -133.66641 -15.249115 -109.02949 -36.583675 -165.23007
-9.1039743 17.48596 -36.362434 148.50375 -36.384491 -165.26994 -14.281964 -131.79779
2440000000 -19.422876 -81.056328 -9.345726 -76.144272 -9.4380283 -31.872463 -9.2256489 12.308422
-9.3576355 -76.274536 -11.936552 -157.79274 -28.080524 -139.99799 -36.529072 139.549
-9.5041037 -31.854435 -28.14395 -139.8266 -15.155689 -111.62334 -36.629475 -174.10779
-9.098155 12.346 -36.398911 139.60611 -36.444962 -174.17236 -14.290124 -133.78346
2450000000 -19.600149 -83.84655 -9.3531818 -81.013336 -9.443821 -36.769943 -9.2178993 7.1584811
-9.3666153 -81.115974 -11.896554 -160.00447 -27.914408 -146.18559 -36.598736 130.85072
-9.5127096 -36.755482 -27.975815 -146.03326 -15.056839 -114.23754 -36.691631 177.14342
-9.0923338 7.1947412 -36.455822 131.04083 -36.486843 177.09888 -14.297857 -135.69331
2460000000 -19.782225 -86.617805 -9.3636217 -85.883507 -9.448308 -41.682335 -9.2158251 2.0010285
-9.3737268 -85.979271 -11.864919 -162.23474 -27.739393 -152.49969 -36.634151 122.56599
-9.5188951 -41.654686 -27.803156 -152.39844 -14.959332 -116.92654 -36.718441 168.77623
-9.0898466 2.0580518 -36.505161 122.6493 -36.51511 168.82939 -14.30689 -137.51814
2470000000 -19.985027 -89.685074 -9.3717041 -90.763786 -9.4539013 -46.587891 -9.2126083 -3.135726
-9.3833876 -90.862091 -11.843855 -164.47739 -27.58246 -158.92799 -36.644009 114.42216
-9.5226212 -46.55769 -27.641144 -158.77954 -14.868095 -119.65147 -36.758545 160.40147
-9.0879354 -3.0793884 -36.496944 114.47555 -36.549107 160.36426 -14.31098 -139.32147
2480000000 -20.239592 -92.876373 -9.381958 -95.619629 -9.4592428 -51.480965 -9.2124853 -8.2600355
-9.3930702 -95.733414 -11.834419 -166.68919 -27.441948 -165.34445 -36.594612 106.2803
-9.525403 -51.456116 -27.505487 -165.21169 -14.781626 -122.42477 -36.73151 151.85408
-9.0858269 -8.212204 -36.463036 106.36375 -36.520287 151.88409 -14.314785 -141.14894
2490000000 -20.565283 -96.140518 -9.3916864 -100.47411 -9.462244 -56.380581 -9.2111139 -13.396211
-9.4062376 -100.58169 -11.834776 -168.87198 -27.306484 -171.73569 -36.545975 97.749405
-9.5295486 -56.352467 -27.36479 -171.57007 -14.706986 -125.22092 -36.718082 143.28983
-9.0879593 -13.351698 -36.413513 97.963684 -36.518799 143.38478 -14.312969 -143.0065
2500000000 -20.942316 -99.31086 -9.4009571 -105.31288 -9.4618835 -61.271652 -9.2104387 -18.517462
-9.4154463 -105.41227 -11.841756 -171.01051 -27.176205 -178.06975 -36.526329 89.422836
-9.5307484 -61.245796 -27.237791 -177.9583 -14.635945 -128.02681 -36.725128 134.74057
-9.0876818 -18.480883 -36.367592 89.572556 -36.534748 134.68747 -14.315737 -144.89171
2510000000 -21.365602 -102.50397 -9.4061794 -110.14371 -9.4623909 -66.169197 -9.2109728 -23.663343
-9.420599 -110.24259 -11.853514 -173.14969 -27.042555 175.58063 -36.479973 81.109306
-9.5318365 -66.149246 -27.104239 175.65817 -14.567599 -130.85591 -36.728214 126.18949
-9.0897198 -23.619883 -36.35471 81.097382 -36.542225 126.26177 -14.30866 -146.85507
2520000000 -21.836433 -105.77848 -9.4087296 -114.97139 -9.461154 -71.058556 -9.2133741 -28.802246
-9.4235735 -115.07089 -11.873741 -175.29602 -26.91699 169.12537 -36.42783 72.759789
-9.5321388 -71.051788 -26.975735 169.25446 -14.504206 -133.72107 -36.738789 117.83858
-9.0940418 -28.75889 -36.317043 72.865135 -36.546864 117.87759 -14.297976 -148.87781
2530000000 -22.372919 -109.08006 -9.4079447 -119.80531 -9.4593601 -75.965546 -9.2188644 -33.945599
-9.4241009 -119.90478 -11.900482 -177.43225 -26.796001 162.73344 -36.404854 64.373512
-9.5279322 -75.953156 -26.849987 162.84254 -14.444529 -136.59251 -36.745232 109.57859
-9.0985241 -33.893627 -36.26086 64.602318 -36.526234 109.58753 -14.280231 -150.99924
2540000000 -22.979527 -112.41542 -9.4048243 -124.64832 -9.4549322 -80.868843 -9.2278728 -39.080685
-9.4231043 -124.74267 -11.932647 -179.59309 -26.688768 156.26259 -36.349995 56.072075
