!Agilent Technologies,N5224A,MY51441093,A.09.90.21
!Agilent N5224A: A.09.90.21
!Date: Friday, December 19, 2025 16:38:01
!Correction: S11(Full 4 Port(1,2,3,4)) 
!S12(Full 4 Port(1,2,3,4)) 
!S13(Full 4 Port(1,2,3,4)) 
!S14(Full 4 Port(1,2,3,4)) 
!S21(Full 4 Port(1,2,3,4)) 
!S22(Full 4 Port(1,2,3,4)) 
!S23(Full 4 Port(1,2,3,4)) 
!S24(Full 4 Port(1,2,3,4)) 
!S31(Full 4 Port(1,2,3,4)) 
!S32(Full 4 Port(1,2,3,4)) 
!S33(Full 4 Port(1,2,3,4)) 
!S34(Full 4 Port(1,2,3,4)) 
!S41(Full 4 Port(1,2,3,4)) 
!S42(Full 4 Port(1,2,3,4)) 
!S43(Full 4 Port(1,2,3,4)) 
!S44(Full 4 Port(1,2,3,4)) 
!S4P File: Measurements: <S11,S12,S13,S14>,
!<S21,S22,S23,S24>,
!<S31,S32,S33,S34>,
!<S41,S42,S43,S44>:
# Hz S  dB   R 50
2000000000 -12.904531 -49.442146 -9.922719 100.89867 -9.2587624 142.97765 -9.4719496 -144.3269
-9.9351959 100.8398 -18.792177 153.4209 -30.689228 56.619625 -35.389488 146.00645
-9.3138227 143.1356 -30.733997 56.778751 -13.774831 -62.976273 -34.670021 -172.78824
-9.3562613 -144.09256 -35.258205 146.31163 -34.508244 -172.70201 -16.72209 -29.15799
2010000000 -13.192508 -52.643303 -9.8773489 95.084717 -9.2375164 138.04128 -9.4581118 -149.48911
-9.8932829 95.040642 -19.632029 150.29094 -30.704239 49.387638 -35.446339 135.09341
-9.2892303 138.19914 -30.742697 49.562889 -13.844258 -65.26725 -34.758312 177.18942
-9.3410473 -149.2495 -35.331951 135.37152 -34.595543 177.18088 -16.675781 -33.169865
2020000000 -13.51186 -55.731621 -9.8376551 89.280716 -9.2208281 133.09726 -9.4475317 -154.65338
-9.8539009 89.245529 -20.563232 147.10559 -30.708729 42.193325 -35.507156 124.38554
-9.2719269 133.2614 -30.746941 42.419209 -13.915032 -67.522774 -34.838245 167.21187
-9.3278627 -154.40376 -35.362179 124.55479 -34.673538 167.24896 -16.628941 -37.14389
2030000000 -13.853368 -58.678539 -9.7996731 83.49704 -9.2040806 128.14955 -9.4369278 -159.80756
-9.8140097 83.455841 -21.616213 143.9532 -30.707361 34.935383 -35.548885 113.30788
-9.2570429 128.311 -30.745581 35.158939 -13.982894 -69.735435 -34.884674 157.18674
-9.3174353 -159.55975 -35.40966 113.64533 -34.721497 157.21941 -16.588272 -41.13147
2040000000 -14.206712 -61.508045 -9.7621307 77.71048 -9.1892633 123.18705 -9.4264936 -164.95091
-9.7726755 77.67308 -22.81811 140.88191 -30.70085 27.579418 -35.558472 102.31383
-9.2410965 123.34837 -30.738659 27.764004 -14.042407 -71.912987 -34.942242 147.02406
-9.3045998 -164.70305 -35.426308 102.65045 -34.763813 147.08769 -16.548172 -45.061966
2050000000 -14.575978 -64.218178 -9.7241993 71.937721 -9.1745577 118.21326 -9.4160185 -170.09789
-9.7363939 71.883842 -24.205992 137.86452 -30.703871 20.081573 -35.611767 91.052315
-9.2264032 118.37138 -30.747107 20.312471 -14.089128 -74.041138 -35.009392 136.73309
-9.2943258 -169.8578 -35.481789 91.324951 -34.82692 136.8045 -16.512459 -48.931679
2060000000 -14.959462 -66.785469 -9.686924 66.152626 -9.1614075 113.22916 -9.4064255 -175.24078
-9.7025242 66.100311 -25.833517 134.90282 -30.725147 12.608763 -35.674896 80.119698
-9.2125931 113.3811 -30.764982 12.801252 -14.133421 -76.16433 -35.079559 126.51637
-9.2846231 -174.99911 -35.534935 80.3675 -34.911091 126.58572 -16.467489 -52.708176
2070000000 -15.357757 -69.233574 -9.6550665 60.372452 -9.1517487 108.23539 -9.396862 179.60822
-9.6698103 60.32111 -27.820656 132.04454 -30.760889 5.1897025 -35.729244 69.137177
-9.2032995 108.37496 -30.800552 5.4523544 -14.166604 -78.261536 -35.169956 116.66001
-9.2769699 179.85374 -35.610237 69.374481 -35.003296 116.67339 -16.421875 -56.412209
2080000000 -15.766669 -71.531754 -9.625948 54.602898 -9.1422682 103.2413 -9.390542 174.46873
-9.6389713 54.544529 -30.374146 129.37015 -30.763668 -2.0175135 -35.775337 58.361111
-9.1942987 103.37009 -30.806065 -1.8619612 -14.198427 -80.315659 -35.246746 106.72611
-9.2705441 174.71048 -35.649815 58.683792 -35.075455 106.8251 -16.370918 -60.050369
2090000000 -16.190355 -73.70359 -9.5995865 48.845116 -9.1327028 98.249466 -9.3841572 169.33713
-9.612422 48.790306 -33.97768 127.29522 -30.752495 -9.3899784 -35.801758 47.546585
-9.1876793 98.381248 -30.800896 -9.1945601 -14.220838 -82.3386 -35.292374 96.778473
-9.262907 169.57076 -35.663101 47.858227 -35.101418 96.966347 -16.324682 -63.589874
2100000000 -16.640274 -75.755127 -9.5755196 43.099525 -9.1238718 93.24276 -9.3794937 164.20888
-9.5854998 43.04427 -39.991043 127.47255 -30.743208 -16.796507 -35.809223 36.677139
-9.1803522 93.377968 -30.793232 -16.616219 -14.24397 -84.328552 -35.321621 86.94696
-9.2559557 164.44585 -35.684326 36.909618 -35.139729 87.089531 -16.286345 -67.005676
2110000000 -17.112534 -77.574562 -9.5529432 37.36631 -9.1186447 88.232903 -9.3742437 159.09172
-9.5631552 37.315685 -59.023067 -156.70262 -30.737463 -24.337639 -35.84367 25.656624
-9.1747494 88.366745 -30.782158 -24.124508 -14.257545 -86.289948 -35.354885 76.85556
-9.2514477 159.32545 -35.706394 25.849072 -35.175293 77.029602 -16.250233 -70.306221
2120000000 -17.603622 -79.122871 -9.5338621 31.638632 -9.1149273 83.209549 -9.3707743 153.9726
-9.5444927 31.596766 -40.346889 -71.813759 -30.735821 -31.7967 -35.882805 14.53968
-9.1694641 83.349228 -30.790869 -31.611273 -14.267018 -88.238159 -35.391262 66.813278
-9.246603 154.20403 -35.737778 14.87461 -35.215076 67.006477 -16.222406 -73.508675
2130000000 -18.09417 -80.421227 -9.5140448 25.938608 -9.1115608 78.190865 -9.3652697 148.8654
-9.5235786 25.893564 -34.441792 -71.345947 -30.74 -39.20372 -35.923313 3.7640448
-9.1658573 78.321091 -30.795134 -39.051281 -14.275131 -90.216782 -35.443314 56.931412
-9.2426109 149.09708 -35.793758 4.0288711 -35.267937 56.977955 -16.203463 -76.635666
2140000000 -18.598995 -81.551384 -9.4996386 20.246792 -9.1107492 73.170036 -9.362689 143.77243
-9.509161 20.200693 -31.014288 -73.051712 -30.735371 -46.680695 -35.965858 -7.1221004
-9.1653957 73.300148 -30.785273 -46.404842 -14.285751 -92.179405 -35.477005 46.995262
-9.2378826 143.99176 -35.837303 -6.8769174 -35.296562 47.099445 -16.193712 -79.723434
2150000000 -19.115067 -82.530067 -9.4879885 14.576428 -9.1101484 68.151871 -9.3575649 138.67908
-9.4946823 14.533464 -28.59977 -75.393799 -30.72258 -54.043804 -35.995079 -17.774893
-9.1654291 68.276939 -30.766243 -53.910294 -14.288935 -94.140694 -35.484032 37.056931
-9.233736 138.90703 -35.873322 -17.580296 -35.312763 37.150913 -16.193567 -82.786827
2160000000 -19.658096 -83.246368 -9.4750462 8.9230852 -9.1095982 63.143517 -9.3530874 133.59875
-9.4825621 8.8839388 -26.771255 -77.930428 -30.708805 -61.49192 -36.018066 -28.542271
-9.1689348 63.26516 -30.754805 -61.298927 -14.290089 -96.126068 -35.504555 27.122477
-9.2286053 133.82599 -35.877811 -28.254543 -35.332581 27.179413 -16.206758 -85.79142
2170000000 -20.203712 -83.73661 -9.4669313 3.2934628 -9.1135798 58.132122 -9.3486118 128.52043
-9.4713659 3.2569618 -25.297194 -80.551102 -30.68902 -68.890663 -36.014969 -39.207733
-9.1718321 58.254112 -30.744333 -68.752556 -14.287784 -98.144043 -35.519711 17.046406
-9.219902 128.74641 -35.899117 -39.026386 -35.344692 17.256474 -16.228241 -88.786301
2180000000 -20.764538 -83.968498 -9.4588614 -2.3179502 -9.1152382 53.120285 -9.3393431 123.44615
-9.4628181 -2.3548932 -24.072254 -83.161415 -30.684256 -76.332237 -36.052662 -49.906765
-9.1730089 53.240891 -30.743034 -76.158951 -14.286834 -100.1886 -35.55267 7.0526381
-9.2124748 123.6637 -35.927624 -49.742615 -35.358479 7.107295 -16.251682 -91.770584
2190000000 -21.338808 -83.971085 -9.4509525 -7.9045577 -9.1201105 48.108852 -9.3310928 118.37138
-9.4548359 -7.9538622 -23.023479 -85.775719 -30.683872 -83.668884 -36.086361 -60.433228
-9.177289 48.220737 -30.732107 -83.449799 -14.276373 -102.24848 -35.577625 -2.8956845
-9.2041521 118.57151 -35.939693 -60.236046 -35.403378 -2.8366148 -16.28091 -94.72438
2200000000 -21.931135 -83.471664 -9.4427671 -13.478719 -9.1251478 43.102573 -9.3231268 113.28938
-9.4471436 -13.536263 -22.114912 -88.389725 -30.675261 -90.795448 -36.092911 -71.021782
-9.1804266 43.210464 -30.735359 -90.688042 -14.268764 -104.31378 -35.610085 -12.887994
-9.194994 113.48857 -35.973938 -70.856026 -35.441135 -12.782361 -16.309347 -97.674561
2210000000 -22.50106 -82.541733 -9.4391851 -19.043041 -9.1316528 38.09594 -9.3154354 108.20829
-9.4405394 -19.11294 -21.311117 -91.041611 -30.662764 -97.972137 -36.1189 -81.459053
-9.1873407 38.189674 -30.71562 -97.816544 -14.256038 -106.39935 -35.657467 -22.641815
-9.1870117 108.39352 -35.987545 -81.277664 -35.48423 -22.652853 -16.339539 -100.59972
2220000000 -23.036774 -81.241829 -9.433753 -24.592644 -9.1391115 33.102451 -9.309207 103.12934
-9.4367161 -24.67178 -20.591343 -93.720749 -30.628498 -105.00426 -36.134365 -91.886452
-9.1957884 33.188648 -30.684662 -104.83559 -14.238769 -108.48212 -35.696301 -32.50491
-9.1789312 103.30996 -36.006912 -91.512047 -35.503075 -32.401268 -16.370983 -103.4803
2230000000 -23.549879 -79.717499 -9.4336777 -30.116453 -9.1466589 28.11146 -9.3009481 98.048668
-9.4354973 -30.209736 -19.956665 -96.440498 -30.599707 -112.09088 -36.12714 -102.19118
-9.2033596 28.182573 -30.659267 -111.94968 -14.21754 -110.5769 -35.692947 -42.36525
-9.1704531 98.224274 -35.999237 -101.89398 -35.514305 -42.348881 -16.401588 -106.2873
2240000000 -24.059725 -77.824181 -9.4328299 -35.625362 -9.1537571 23.120659 -9.2925282 92.970863
-9.4358377 -35.713703 -19.380114 -99.121834 -30.56538 -119.13866 -36.121983 -112.53836
-9.2097797 23.193825 -30.622072 -118.96799 -14.192041 -112.68016 -35.724308 -52.143654
-9.1597271 93.13195 -35.987343 -112.26274 -35.522156 -52.077686 -16.427101 -109.03366
2250000000 -24.556084 -75.335251 -9.4343939 -41.100071 -9.1598206 18.131178 -9.2843561 87.887337
-9.4357405 -41.188625 -18.860561 -101.76412 -30.531221 -126.037 -36.131382 -122.88759
-9.2177973 18.196833 -30.590479 -125.85683 -14.162786 -114.79248 -35.733944 -62.095745
-9.1514635 88.041397 -35.989269 -122.70553 -35.551384 -61.925175 -16.456415 -111.67708
2260000000 -24.978857 -72.032524 -9.4347696 -46.551651 -9.1672974 13.134628 -9.2760696 82.802971
-9.4362621 -46.645191 -18.384342 -104.35328 -30.476313 -132.79437 -36.126457 -133.19815
-9.2272863 13.187959 -30.541845 -132.63635 -14.135374 -116.87609 -35.781441 -71.826622
-9.143774 82.956627 -35.984184 -133.03419 -35.591572 -71.843857 -16.486713 -114.25923
2270000000 -25.277077 -68.372879 -9.4347248 -51.991913 -9.1771002 8.1425467 -9.2687511 77.720413
-9.4355764 -52.092144 -17.94054 -106.98097 -30.410004 -139.48717 -36.126282 -143.46494
-9.2371693 8.1996527 -30.468727 -139.35539 -14.104061 -118.95656 -35.832634 -81.67794
-9.1355267 77.872833 -36.021748 -143.24422 -35.637997 -81.547234 -16.525419 -116.7677
2280000000 -25.479324 -64.502007 -9.4348621 -57.418198 -9.1872797 3.1541996 -9.2601843 72.63546
-9.4352608 -57.517597 -17.533112 -109.56023 -30.335403 -146.27383 -36.138611 -153.54665
-9.2466307 3.2244763 -30.388844 -146.09538 -14.073556 -121.02019 -35.862171 -91.300964
-9.1259708 72.781654 -36.001255 -153.42253 -35.671871 -91.260063 -16.566135 -119.20361
2290000000 -25.569565 -60.42049 -9.4342003 -62.837578 -9.1971359 -1.8289347 -9.2518892 67.550781
-9.4376907 -62.929123 -17.156385 -112.20101 -30.245399 -153.02794 -36.123264 -163.55234
-9.2582502 -1.754078 -30.302721 -152.87732 -14.040541 -123.10391 -35.888683 -100.9565
-9.1167898 67.705002 -36.003544 -163.41043 -35.683399 -100.89786 -16.61594 -121.55268
2300000000 -25.523012 -56.314205 -9.4348698 -68.253609 -9.208456 -6.8081865 -9.2434359 62.459705
-9.437211 -68.327919 -16.81671 -114.77737 -30.164415 -159.75784 -36.114357 -173.81604
-9.2675476 -6.7331276 -30.213442 -159.62685 -14.005913 -125.19902 -35.92173 -110.6341
-9.1077528 62.617428 -35.987144 -173.58162 -35.730923 -110.54186 -16.667475 -123.83432
2310000000 -25.351597 -52.734142 -9.4344759 -73.647377 -9.2204742 -11.780854 -9.235383 57.383827
-9.4374218 -73.716599 -16.505541 -117.33453 -30.081415 -166.37282 -36.122566 176.05016
-9.2805939 -11.715072 -30.137304 -166.2395 -13.974036 -127.31578 -35.955124 -120.34727
-9.1002874 57.523041 -35.988617 176.29735 -35.773407 -120.21889 -16.720482 -126.08055
2320000000 -25.121529 -49.701817 -9.4390135 -79.013466 -9.2320309 -16.742184 -9.2258987 52.298069
-9.4405594 -79.095413 -16.221201 -119.8571 -29.976101 -172.97948 -36.142349 165.95979
-9.2940178 -16.688858 -30.041046 -172.85463 -13.940794 -129.43495 -36.0158 -129.95055
-9.092185 52.419525 -36.016445 166.19768 -35.832005 -129.84889 -16.78035 -128.33569
2330000000 -24.860224 -47.007092 -9.4435577 -84.349487 -9.2424679 -21.692495 -9.216197 47.21254
-9.4460688 -84.432228 -15.965094 -122.37808 -29.872208 -179.43842 -36.200371 156.01164
-9.3056183 -21.651237 -29.935865 -179.30191 -13.90697 -131.57239 -36.089207 -139.36153
-9.0844965 47.324104 -36.062698 156.19797 -35.887745 -139.35925 -16.839981 -130.56186
2340000000 -24.53878 -44.687885 -9.4468136 -89.654587 -9.2540922 -26.645313 -9.2083712 42.129398
-9.449358 -89.748627 -15.735228 -124.85207 -29.756443 174.06783 -36.228806 146.29251
-9.3174877 -26.603945 -29.809999 174.23518 -13.869792 -133.75699 -36.137836 -148.72417
-9.0754137 42.220936 -36.082634 146.56453 -35.931908 -148.67976 -16.899473 -132.7657
2350000000 -24.160273 -42.864639 -9.4461222 -94.944572 -9.2648354 -31.589014 -9.199234 37.028942
-9.4513817 -95.038963 -15.527171 -127.27472 -29.621693 167.5717 -36.230896 136.70985
-9.3259563 -31.554522 -29.67791 167.68985 -13.83253 -135.9776 -36.167065 -158.01784
-9.0681591 37.113335 -36.117645 136.85141 -35.976261 -157.96815 -16.951887 -134.91574
2360000000 -23.746006 -41.678936 -9.4465065 -100.22368 -9.2750168 -36.541626 -9.1923885 31.935677
-9.4514332 -100.31876 -15.340202 -129.6768 -29.496721 161.10657 -36.267975 126.92773
-9.3365774 -36.506462 -29.548252 161.2139 -13.796172 -138.2112 -36.20282 -167.24719
-9.0598984 32.006016 -36.123726 127.20441 -36.011471 -167.2877 -17.000002 -137.04874
2370000000 -23.332134 -41.223328 -9.4444513 -105.48524 -9.2850561 -41.479019 -9.1854134 26.831854
-9.4485559 -105.59613 -15.169862 -132.04039 -29.365654 154.63449 -36.313801 117.33093
-9.3482542 -41.462524 -29.420639 154.79086 -13.75899 -140.44795 -36.263912 -176.69463
-9.0506926 26.882925 -36.1824 117.48878 -36.061333 -176.59769 -17.043245 -139.17174
2380000000 -22.950876 -41.25349 -9.4420567 -110.75703 -9.2929201 -46.411819 -9.1776638 21.715517
-9.4488077 -110.8684 -15.017718 -134.39897 -29.221497 148.28886 -36.362568 107.97711
-9.3590889 -46.411011 -29.280836 148.3855 -13.720686 -142.70824 -36.33955 174.12457
-9.0440636 21.763184 -36.233295 108.13374 -36.134964 174.17847 -17.078663 -141.18468
2390000000 -22.588854 -41.616432 -9.4383497 -116.01509 -9.3035669 -51.355103 -9.1702576 16.59832
-9.4464931 -116.11834 -14.880711 -136.73959 -29.056915 141.90779 -36.417599 98.801086
-9.3684187 -51.35936 -29.114513 142.06416 -13.680141 -144.97984 -36.408203 165.09053
-9.0382652 16.628431 -36.282017 98.803749 -36.195171 165.15172 -17.106358 -143.08168
2400000000 -22.248772 -42.32431 -9.4373999 -121.25759 -9.3095875 -56.299835 -9.1660538 11.466353
-9.4460306 -121.35787 -14.762506 -139.02155 -28.89254 135.49196 -36.436573 89.772598
-9.377697 -56.300079 -28.953182 135.57359 -13.640041 -147.30075 -36.461174 156.18219
-9.0348005 11.506434 -36.312809 89.911224 -36.24585 156.14252 -17.12109 -144.84068
2410000000 -21.928877 -43.314594 -9.4376984 -126.47324 -9.3195419 -61.23365 -9.1617908 6.3398504
-9.4441042 -126.59182 -14.654165 -141.24179 -28.720804 128.9166 -36.421871 80.776253
-9.3878183 -61.234974 -28.778168 129.07521 -13.605187 -149.65175 -36.476299 147.35951
-9.0332403 6.3718715 -36.303101 80.862244 -36.26786 147.4169 -17.124376 -146.51556
2420000000 -21.62236 -44.514004 -9.4327984 -131.66814 -9.3282452 -66.175735 -9.1578312 1.2193042
-9.4438076 -131.80725 -14.552285 -143.40379 -28.571001 122.40987 -36.42429 71.635796
-9.3945227 -66.171867 -28.62948 122.55775 -13.575746 -152.00954 -36.479618 138.44144
-9.0310316 1.2443683 -36.297806 71.795807 -36.286591 138.36073 -17.120882 -148.09941
2430000000 -21.32534 -45.906509 -9.4289455 -136.85777 -9.3335629 -71.111847 -9.1574974 -3.9139597
-9.440114 -137.00119 -14.450331 -145.51907 -28.412094 115.96435 -36.415104 62.391655
-9.4014635 -71.108185 -28.47122 116.13309 -13.546998 -154.37088 -36.508678 129.32809
-9.0304565 -3.8858564 -36.285114 62.587509 -36.309834 129.41756 -17.118586 -149.60451
2440000000 -21.025164 -47.652729 -9.4203224 -142.04031 -9.3420496 -76.051758 -9.1578474 -9.0452642
-9.435008 -142.1756 -14.358941 -147.59082 -28.249495 109.49207 -36.43866 53.286339
-9.4098558 -76.04747 -28.304728 109.63401 -13.526578 -156.74916 -36.565044 120.45033
-9.0329771 -9.0118504 -36.304775 53.401543 -36.370071 120.32992 -17.113939 -151.03493
2450000000 -20.764618 -49.753571 -9.4108171 -147.23264 -9.3459053 -81.000877 -9.1588383 -14.17631
-9.4243193 -147.35106 -14.277233 -149.62134 -28.071505 103.04475 -36.480614 44.294739
-9.416893 -80.98362 -28.124907 103.1226 -13.507384 -159.15089 -36.621113 111.77008
-9.0340824 -14.125498 -36.35524 44.475449 -36.435135 111.74443 -17.107901 -152.39386
2460000000 -20.561464 -52.059986 -9.4024286 -152.42677 -9.3523359 -85.949257 -9.1613455 -19.300713
-9.4136734 -152.52614 -14.202279 -151.52988 -27.889887 96.437424 -36.495117 35.626465
-9.4248152 -85.927025 -27.944847 96.568672 -13.494177 -161.6086 -36.66082 103.29343
-9.0375242 -19.245237 -36.383179 35.906139 -36.474129 103.26688 -17.098652 -153.71834
2470000000 -20.406704 -54.383514 -9.3916683 -157.62125 -9.358326 -90.899078 -9.1674824 -24.422354
-9.4037104 -157.71533 -14.129467 -153.3591 -27.716866 89.743896 -36.516335 27.109711
-9.4282722 -90.87355 -27.775343 89.866287 -13.493939 -164.08328 -36.681194 94.853806
-9.0398006 -24.367857 -36.390186 27.2341 -36.474304 94.801041 -17.084196 -155.07718
2480000000 -20.268036 -56.634861 -9.3822079 -162.7973 -9.362627 -95.853683 -9.1726818 -29.535091
-9.3954268 -162.90417 -14.057112 -155.10487 -27.571772 83.03994 -36.467312 18.631353
-9.4334507 -95.81739 -27.631029 83.132088 -13.499525 -166.5687 -36.635597 86.356697
-9.046236 -29.476221 -36.346191 18.764263 -36.454426 86.313377 -17.068903 -156.51288
2490000000 -20.143394 -58.934753 -9.3729477 -167.97299 -9.3679724 -100.81282 -9.1767054 -34.635178
-9.3874187 -168.08394 -13.988195 -156.8036 -27.435865 76.405106 -36.4519 9.9710331
-9.436511 -100.78049 -27.492079 76.505333 -13.516079 -169.06 -36.611382 77.555412
-9.0530863 -34.592522 -36.315205 10.026181 -36.409988 77.634834 -17.045856 -158.05373
2500000000 -20.033747 -61.447239 -9.3634338 -173.13751 -9.3730507 -105.77173 -9.1815481 -39.723469
-9.3793478 -173.23891 -13.917999 -158.44064 -27.306301 69.741859 -36.408352 1.323781
-9.4426003 -105.75789 -27.361254 69.916397 -13.538651 -171.53731 -36.591824 68.879494
-9.0604124 -39.68919 -36.286404 1.4297639 -36.396706 68.838486 -17.028717 -159.67696
2510000000 -19.958214 -64.161369 -9.3524199 -178.28656 -9.381341 -110.73141 -9.1868858 -44.82568
-9.3693151 -178.39113 -13.854498 -160.04642 -27.173323 63.211197 -36.388329 -7.2264562
-9.4502821 -110.71919 -27.224384 63.320568 -13.568364 -173.99466 -36.579636 60.131584
-9.0658655 -44.789009 -36.253941 -7.0979214 -36.418262 60.171085 -17.000019 -161.41962
2520000000 -19.928413 -67.007286 -9.3405018 176.5663 -9.3872547 -115.69048 -9.1936398 -49.932583
-9.3572912 176.46722 -13.787601 -161.61732 -27.039862 56.578407 -36.333542 -15.720751
-9.4587288 -115.68523 -27.097664 56.644573 -13.602402 -176.44289 -36.601608 51.726391
-9.0734205 -49.88776 -36.21434 -15.466584 -36.396297 51.699352 -16.965904 -163.26833
2530000000 -19.930428 -69.916565 -9.326931 171.41904 -9.3931332 -120.65159 -9.202282 -55.040554
-9.3436069 171.31998 -13.71817 -163.18491 -26.915541 49.944202 -36.266636 -24.269836
-9.4646864 -120.64362 -26.969994 50.036736 -13.642176 -178.87971 -36.584133 43.298531
-9.0811367 -54.990063 -36.135765 -24.022238 -36.395321 43.34832 -16.922434 -165.25961
2540000000 -19.964117 -72.932976 -9.3122959 166.27135 -9.3993387 -125.62013 -9.2133875 -60.128498
-9.3300362 166.17792 -13.642989 -164.7822 -26.798672 43.251221 -36.207455 -32.678692
-9.4711304 -125.60339 -26.856688 43.406456 -13.683783 178.7272 -36.53952 34.896278
