!Agilent Technologies,N5224A,MY51441093,A.09.90.21
!Agilent N5224A: A.09.90.21
!Date: Friday, December 19, 2025 16:38:19
!Correction: S11(Full 4 Port(1,2,3,4)) 
!S12(Full 4 Port(1,2,3,4)) 
!S13(Full 4 Port(1,2,3,4)) 
!S14(Full 4 Port(1,2,3,4)) 
!S21(Full 4 Port(1,2,3,4)) 
!S22(Full 4 Port(1,2,3,4)) 
!S23(Full 4 Port(1,2,3,4)) 
!S24(Full 4 Port(1,2,3,4)) 
!S31(Full 4 Port(1,2,3,4)) 
!S32(Full 4 Port(1,2,3,4)) 
!S33(Full 4 Port(1,2,3,4)) 
!S34(Full 4 Port(1,2,3,4)) 
!S41(Full 4 Port(1,2,3,4)) 
!S42(Full 4 Port(1,2,3,4)) 
!S43(Full 4 Port(1,2,3,4)) 
!S44(Full 4 Port(1,2,3,4)) 
!S4P File: Measurements: <S11,S12,S13,S14>,
!<S21,S22,S23,S24>,
!<S31,S32,S33,S34>,
!<S41,S42,S43,S44>:
# Hz S  dB   R 50
2000000000 -14.585723 -52.329048 -9.6675825 29.154701 -10.256959 120.62302 -9.2277184 -169.84952
-9.6835804 29.108654 -19.676495 94.658394 -31.515318 -37.313961 -34.882374 48.673641
-10.314332 120.7896 -31.564962 -37.097027 -15.304993 152.73178 -35.471306 139.83244
-9.1132326 -169.61507 -34.76144 48.938457 -35.291687 139.78966 -15.044542 3.8387072
2010000000 -14.940183 -55.067989 -9.6192245 23.438087 -10.212268 114.84101 -9.2120485 -174.92462
-9.6366787 23.405373 -20.39403 88.214714 -31.491974 -45.206554 -34.941372 37.912327
-10.265842 115.0067 -31.528976 -44.996155 -15.669088 148.80632 -35.535248 129.08578
-9.0949841 -174.67723 -34.816456 38.226727 -35.355247 129.0905 -15.145156 0.67075753
2020000000 -15.318828 -57.635891 -9.5791588 17.74379 -10.177064 109.07493 -9.1997633 -179.99457
-9.5968847 17.706505 -21.104256 81.212234 -31.467743 -53.055504 -35.00782 27.317366
-10.226517 109.24297 -31.514366 -52.823238 -16.05616 144.80746 -35.580616 118.38351
-9.0788012 -179.75012 -34.873455 27.572182 -35.409393 118.45271 -15.240348 -2.4714184
2030000000 -15.722408 -60.100483 -9.5424004 12.051681 -10.139329 103.32178 -9.1850309 174.93279
-9.5567293 12.012478 -21.79492 73.705482 -31.435293 -60.952877 -35.02932 16.656033
-10.19037 103.49277 -31.468605 -60.77956 -16.473284 140.74678 -35.599922 107.72807
-9.0648975 175.17995 -34.897934 16.945322 -35.435272 107.77967 -15.3397 -5.5930233
2040000000 -16.157219 -62.449314 -9.5066252 6.3641734 -10.103425 97.588493 -9.1729059 169.86476
-9.5205431 6.3193707 -22.433796 65.577049 -31.404354 -68.988144 -35.058617 5.9436631
-10.154462 97.745941 -31.441011 -68.734421 -16.912846 136.61002 -35.628986 96.924538
-9.0531158 170.11365 -34.91671 6.1475983 -35.453598 96.974709 -15.435572 -8.6993961
2050000000 -16.617374 -64.605186 -9.4733467 0.69401842 -10.065929 91.864799 -9.1597414 164.80005
-9.4863977 0.64105248 -22.997705 56.815521 -31.389896 -77.104462 -35.100777 -4.9089904
-10.118773 92.010704 -31.428019 -76.920776 -17.387274 132.3815 -35.685841 86.054703
-9.0393353 165.04489 -34.967049 -4.6589351 -35.501472 86.046936 -15.520468 -11.74798
2060000000 -17.113184 -66.493279 -9.441844 -4.9875979 -10.030999 86.138634 -9.1474552 159.72397
-9.4569483 -5.0373893 -23.446924 47.485207 -31.378725 -85.133362 -35.155624 -15.632426
-10.086484 86.282021 -31.415068 -84.90123 -17.886457 128.03493 -35.742989 75.231537
-9.0274572 159.96506 -35.028534 -15.452523 -35.553658 75.326439 -15.594352 -14.824077
2070000000 -17.636015 -68.103233 -9.4154558 -10.651914 -9.9994535 80.423256 -9.1369438 154.63719
-9.4301214 -10.703499 -23.773781 37.6292 -31.379702 -93.108078 -35.236881 -26.334469
-10.054012 80.56398 -31.417486 -92.92128 -18.413145 123.54008 -35.804226 64.617508
-9.017952 154.8817 -35.117531 -26.061483 -35.633904 64.681122 -15.659342 -17.868029
2080000000 -18.185833 -69.365173 -9.3912201 -16.299212 -9.9663839 74.70903 -9.1271734 149.54547
-9.4055357 -16.354437 -23.966099 27.651783 -31.369888 -100.96148 -35.281441 -36.748234
-10.0196 74.847527 -31.404764 -100.74471 -18.973921 118.85498 -35.829258 54.049973
-9.0082712 149.79097 -35.155998 -36.431969 -35.664776 54.262936 -15.715359 -20.903078
2090000000 -18.75971 -70.122253 -9.37152 -21.927542 -9.936904 69.008667 -9.120163 144.45341
-9.3847208 -21.986414 -23.998388 17.781244 -31.341032 -108.83691 -35.297386 -47.304188
-9.989255 69.144951 -31.378101 -108.66232 -19.567875 113.89212 -35.844524 43.523674
-8.9988194 144.69377 -35.177986 -46.888512 -35.690521 43.650272 -15.761349 -23.885557
2100000000 -19.338228 -70.346466 -9.3525181 -27.538733 -9.9100409 63.316544 -9.1166859 139.36569
-9.3653879 -27.596298 -23.879503 8.2886353 -31.316225 -116.79445 -35.319149 -57.682232
-9.9646082 63.448845 -31.357643 -116.60052 -20.19593 108.67805 -35.871918 32.913742
-8.9930267 139.60521 -35.178596 -57.48185 -35.698532 33.057205 -15.798821 -26.75561
2110000000 -19.894001 -70.059853 -9.3345718 -33.138695 -9.8836756 57.63908 -9.1106672 134.28595
-9.3452396 -33.192177 -23.63114 -0.686373 -31.285555 -124.81865 -35.315269 -68.36631
-9.938117 57.7658 -31.333311 -124.64098 -20.856342 103.08721 -35.872746 22.180498
-8.9899225 134.51065 -35.190296 -68.139862 -35.713699 22.320246 -15.820548 -29.568043
2120000000 -20.439318 -69.333549 -9.3195744 -38.733234 -9.8603487 51.97245 -9.108285 129.20712
-9.3307333 -38.77507 -23.285236 -9.0711527 -31.268026 -132.72955 -35.327969 -79.006813
-9.9150639 52.105217 -31.317066 -132.57011 -21.538126 97.155022 -35.91787 11.589455
-8.9852543 129.43254 -35.213547 -78.786743 -35.736313 11.67224 -15.839405 -32.297012
2130000000 -20.96414 -68.122398 -9.3065233 -44.303783 -9.83671 46.323681 -9.1065111 124.12904
-9.3156214 -44.350452 -22.875946 -16.706739 -31.242941 -140.63562 -35.353374 -89.62616
-9.8930902 46.451473 -31.294962 -140.46269 -22.237476 90.772911 -35.945042 1.0122912
-8.9815607 124.35658 -35.229034 -89.448288 -35.775242 1.0448681 -15.853656 -34.986362
2140000000 -21.465349 -66.29557 -9.2953606 -49.870697 -9.8157597 40.688789 -9.1040926 119.05705
-9.3041248 -49.909851 -22.428535 -23.704771 -31.225025 -148.50296 -35.374817 -100.23767
-9.8740396 40.820221 -31.274422 -148.33714 -22.946489 83.854561 -35.973137 -9.5060444
-8.9796753 119.27979 -35.242016 -99.981628 -35.796867 -9.4479208 -15.866693 -37.622486
2150000000 -21.898575 -63.804867 -9.2871876 -55.410572 -9.7950678 35.060356 -9.1039629 113.98242
-9.2966986 -55.453869 -21.954981 -30.067131 -31.187757 -156.39546 -35.376648 -110.80273
-9.8517609 35.190311 -31.234213 -156.17624 -23.657207 76.283356 -35.979542 -19.99354
-8.9792862 114.20239 -35.253971 -110.52343 -35.809059 -19.941317 -15.879116 -40.21944
2160000000 -22.232197 -60.833935 -9.2807016 -60.934269 -9.7739668 29.457191 -9.1041956 108.91879
-9.2884502 -60.962944 -21.475451 -35.84948 -31.153965 -164.19002 -35.407593 -121.42838
-9.8334036 29.583326 -31.202181 -164.08401 -24.351387 68.181664 -35.997952 -30.565977
-8.9787083 109.14374 -35.267193 -121.0995 -35.793442 -30.454752 -15.891603 -42.757885
2170000000 -22.434479 -57.631859 -9.2753258 -66.426254 -9.7588205 23.86117 -9.1044531 103.86689
-9.2798758 -66.461952 -20.995363 -41.150097 -31.125183 -172.07477 -35.401524 -132.04478
-9.8146477 23.981237 -31.172812 -171.93259 -25.011507 59.309189 -35.997311 -41.137665
-8.9761095 104.07784 -35.269745 -131.75151 -35.813259 -41.07608 -15.904157 -45.304462
2180000000 -22.523949 -54.383472 -9.2709627 -71.903236 -9.742466 18.282829 -9.1052542 98.812622
-9.2759066 -71.94014 -20.526487 -46.038006 -31.085293 -179.89087 -35.429256 -142.65945
-9.7983656 18.401449 -31.14679 -179.71916 -25.596163 49.82243 -36.009521 -51.868511
-8.9762707 99.024422 -35.312927 -142.38057 -35.816273 -51.735748 -15.916438 -47.842762
2190000000 -22.487459 -51.365112 -9.2645426 -77.346825 -9.7269745 12.724017 -9.103857 93.754723
-9.2705259 -77.402954 -20.064632 -50.602814 -31.068766 172.42058 -35.471764 -153.18817
-9.782546 12.832359 -31.121613 172.62454 -26.093304 39.515987 -36.048996 -62.412056
-8.9753475 93.963425 -35.351685 -152.94846 -35.861107 -62.340298 -15.926713 -50.393188
2200000000 -22.339434 -48.789917 -9.260231 -82.791794 -9.7128105 7.1813769 -9.1042395 88.711502
-9.2660036 -82.840904 -19.623205 -54.86837 -31.031027 164.81305 -35.515736 -163.59465
-9.7693882 7.2791395 -31.079294 164.97264 -26.447475 28.680992 -36.076088 -72.895615
-8.9753485 88.907219 -35.385323 -163.37941 -35.886967 -72.706276 -15.938251 -52.954166
2210000000 -22.134247 -46.785931 -9.2560444 -88.217453 -9.6992903 1.6483891 -9.1045866 83.659401
-9.2593613 -88.288437 -19.203302 -58.888683 -30.98579 157.28952 -35.563145 -173.92003
-9.7563744 1.7478522 -31.033894 157.46696 -26.64377 17.451824 -36.107281 -83.220215
-8.9753513 83.846313 -35.42522 -173.6967 -35.921677 -83.233368 -15.941458 -55.516758
2220000000 -21.892391 -45.240261 -9.252243 -93.645195 -9.6881161 -3.861258 -9.1058273 78.610725
-9.2554493 -93.723625 -18.795979 -62.713753 -30.92865 149.75266 -35.587231 175.85648
-9.7433367 -3.7803335 -30.988434 149.86729 -26.663952 6.1446176 -36.137459 -93.501511
-8.9763403 78.784996 -35.460018 176.0853 -35.938431 -93.477005 -15.937819 -58.073521
2230000000 -21.611027 -44.045616 -9.2496386 -99.052025 -9.6756201 -9.357007 -9.107049 73.557617
-9.2548342 -99.1362 -18.41238 -66.310745 -30.883373 142.21999 -35.613838 165.63547
-9.7333956 -9.2957897 -30.919228 142.44681 -26.523731 -4.933845 -36.124641 -103.879
-8.9786215 73.727158 -35.471031 165.81769 -35.944073 -103.79731 -15.927078 -60.638065
2240000000 -21.288647 -43.305332 -9.248189 -104.4432 -9.6643858 -14.852243 -9.1091909 68.506363
-9.2552462 -104.52713 -18.044998 -69.805443 -30.815147 134.77095 -35.630749 155.3877
-9.7214403 -14.782589 -30.873487 134.98955 -26.223358 -15.396983 -36.153404 -114.25433
-8.9791517 68.677513 -35.498718 155.61778 -35.952686 -114.17493 -15.904311 -63.190765
2250000000 -20.945591 -43.188717 -9.2497921 -109.81275 -9.6533146 -20.323288 -9.1145563 63.466759
-9.2527838 -109.9037 -17.690922 -73.105835 -30.760912 127.40703 -35.656849 145.13594
-9.7110319 -20.262688 -30.816381 127.60557 -25.813374 -25.117868 -36.159691 -124.70155
-8.9814978 63.630344 -35.540195 145.35425 -35.967644 -124.53139 -15.874547 -65.704788
2260000000 -20.609495 -43.554192 -9.2483053 -115.16747 -9.6414242 -25.779629 -9.1150579 58.432297
-9.2507687 -115.26018 -17.356283 -76.282547 -30.690708 120.26555 -35.699326 135.15236
-9.7019176 -25.72662 -30.75206 120.37665 -25.311209 -34.018185 -36.189804 -134.8882
-8.9831409 58.587429 -35.572868 135.31148 -36.002663 -134.78505 -15.836635 -68.196648
2270000000 -20.300726 -44.30241 -9.2448645 -120.5147 -9.6320124 -31.238037 -9.1196175 53.400558
-9.2468958 -120.60645 -17.030405 -79.343819 -30.622816 113.06442 -35.734177 125.10204
-9.6911879 -31.18149 -30.669926 113.25371 -24.764162 -42.150181 -36.238914 -145.1282
-8.9856119 53.554092 -35.606533 125.24944 -36.033539 -145.10535 -15.797364 -70.633141
2280000000 -20.018766 -45.384491 -9.2435226 -125.84848 -9.6233969 -36.676731 -9.1215487 48.372509
-9.2446079 -125.94667 -16.71232 -82.284492 -30.51642 105.936 -35.764153 115.18191
-9.6823301 -36.606174 -30.581589 106.13582 -24.207966 -49.468182 -36.249184 -155.11288
-8.9872789 48.518478 -35.622795 115.29285 -36.050823 -155.12039 -15.748388 -73.029182
2290000000 -19.754807 -46.694221 -9.2400732 -131.17633 -9.6149082 -42.10078 -9.1236486 43.339943
-9.2439699 -131.27223 -16.40811 -85.168381 -30.417507 98.793449 -35.755135 105.3242
-9.6739006 -42.031277 -30.480801 98.94722 -23.668543 -56.111034 -36.272812 -165.289
-8.9889565 43.491726 -35.630756 105.40247 -36.072441 -165.08626 -15.690314 -75.376518
2300000000 -19.53013 -48.297325 -9.2349806 -136.51953 -9.6076097 -47.516567 -9.1261616 38.311234
-9.2405386 -136.5952 -16.113173 -87.953621 -30.316742 91.680695 -35.77636 95.294037
-9.6662445 -47.441952 -30.371717 91.812386 -23.14337 -62.172092 -36.277927 -175.23343
-8.9899254 38.464577 -35.636715 95.379311 -36.076256 -175.16197 -15.634487 -77.721603
2310000000 -19.337687 -50.082062 -9.2343292 -141.84389 -9.5998602 -52.908245 -9.1293077 33.290897
-9.2365608 -141.91859 -15.833126 -90.668854 -30.21036 84.615105 -35.796619 85.389732
-9.659338 -52.847416 -30.272875 84.769478 -22.650103 -67.761223 -36.308735 174.49504
-8.9932299 33.429729 -35.659721 85.38517 -36.118561 174.54108 -15.575854 -80.067009
2320000000 -19.184219 -51.939472 -9.2321367 -147.16335 -9.5923319 -58.294216 -9.13029 28.268833
-9.234376 -147.24031 -15.562225 -93.291428 -30.0973 77.68174 -35.817745 75.442162
-9.6539192 -58.241653 -30.162838 77.790466 -22.179556 -72.935783 -36.349522 164.4924
-8.9956417 28.387388 -35.69022 75.703842 -36.129032 164.61116 -15.517775 -82.426529
2330000000 -19.055069 -53.949471 -9.2324724 -152.46889 -9.5851946 -63.663197 -9.1309156 23.248583
-9.2355757 -152.55339 -15.304543 -95.850883 -29.978075 70.801964 -35.862587 65.600304
-9.6478271 -63.621487 -30.040508 70.924088 -21.746077 -77.799156 -36.394779 154.59717
-8.9987383 23.356672 -35.737961 65.808731 -36.19585 154.64723 -15.455738 -84.792969
2340000000 -18.942986 -56.148064 -9.2307215 -157.74951 -9.5811357 -69.02124 -9.1330824 18.227957
-9.2370882 -157.84659 -15.049719 -98.330666 -29.850016 63.86401 -35.887115 55.855995
-9.6435823 -68.986626 -29.910744 64.010727 -21.347738 -82.369598 -36.420002 144.82861
-9.0009995 18.324184 -35.743328 55.973648 -36.231949 144.92738 -15.388267 -87.222473
2350000000 -18.86458 -58.540855 -9.2307653 -163.02153 -9.5752668 -74.363579 -9.1345243 13.204163
-9.2368116 -163.11795 -14.806535 -100.76615 -29.712439 57.035046 -35.894009 46.155804
-9.6366711 -74.33255 -29.765654 57.104523 -20.978804 -86.747765 -36.460857 135.02
-9.001915 13.293497 -35.775867 46.306038 -36.256668 135.08557 -15.31831 -89.666824
2360000000 -18.833786 -61.071934 -9.2289219 -168.28719 -9.5699034 -79.693069 -9.1363001 8.1861887
-9.2334404 -168.38634 -14.56962 -103.17686 -29.579828 50.087013 -35.918434 36.298615
-9.6313343 -79.670555 -29.640192 50.248619 -20.638733 -90.855652 -36.472122 125.25276
-9.0027237 8.2576447 -35.804699 36.55748 -36.277527 125.36481 -15.241955 -92.197075
2370000000 -18.838203 -63.674007 -9.2278547 -173.55168 -9.5629034 -85.011566 -9.1375971 3.1583307
-9.2328091 -173.65987 -14.34081 -105.5557 -29.439604 43.331261 -35.989559 26.411869
-9.627368 -84.99543 -29.506775 43.435886 -20.316729 -94.807404 -36.521179 115.39452
-9.0045271 3.2113214 -35.858593 26.541334 -36.323463 115.52956 -15.164298 -94.752876
2380000000 -18.871613 -66.31134 -9.2248468 -178.81509 -9.5584707 -90.32386 -9.1386662 -1.8878547
-9.2336597 -178.93164 -14.116632 -107.90279 -29.296907 36.553345 -36.070843 16.866199
-9.6236076 -90.314278 -29.355949 36.725163 -20.015543 -98.623924 -36.578369 105.81199
-9.0068398 -1.8299018 -35.95256 16.928688 -36.385872 105.76572 -15.074376 -97.325508
2390000000 -18.934187 -69.019913 -9.2231474 175.91425 -9.5538416 -95.62767 -9.1401882 -6.9209003
-9.2339239 175.80319 -13.894272 -110.27273 -29.120657 29.867397 -36.20208 7.5644584
-9.62076 -95.6222 -29.182926 30.001432 -19.743193 -102.26512 -36.66489 96.374802
-9.0098734 -6.8877702 -36.054783 7.7289038 -36.476799 96.460075 -14.973153 -99.902763
2400000000 -19.024683 -71.744514 -9.2227077 170.65381 -9.5489416 -100.91489 -9.1429672 -11.964987
-9.2336912 170.54846 -13.674383 -112.65917 -28.951548 23.081507 -36.268135 -1.6059994
-9.6161861 -100.91104 -29.019556 23.163523 -19.488213 -105.74375 -36.713524 87.062859
-9.012866 -11.934906 -36.12952 -1.4533259 -36.5163 87.065659 -14.862286 -102.49161
2410000000 -19.131601 -74.486252 -9.2267065 165.40074 -9.5447702 -106.1929 -9.1477709 -17.004641
-9.2347908 165.29056 -13.46191 -115.08152 -28.786934 16.165447 -36.287029 -10.539464
-9.6119566 -106.18344 -28.847637 16.267456 -19.256916 -109.05769 -36.735661 78.058418
-9.0183802 -16.973978 -36.174065 -10.447017 -36.53968 78.021049 -14.742319 -105.12679
2420000000 -19.259548 -77.302216 -9.2281694 160.168 -9.5417423 -111.46154 -9.1511202 -22.047401
-9.2377453 160.0372 -13.254029 -117.53378 -28.628752 9.2690554 -36.331921 -19.696953
-9.6081476 -111.45738 -28.692013 9.4159193 -19.03644 -112.16953 -36.752552 68.881683
-9.0228443 -22.022451 -36.203655 -19.417532 -36.548286 68.778694 -14.621445 -107.73419
2430000000 -19.415459 -80.237747 -9.2306376 154.94296 -9.5372295 -116.71725 -9.1558428 -27.087763
-9.2411556 154.80205 -13.052457 -119.99166 -28.474785 2.5701106 -36.352703 -28.880819
-9.6055899 -116.7156 -28.535412 2.7213788 -18.825718 -115.194 -36.773125 59.447029
-9.0270948 -27.061472 -36.249931 -28.652344 -36.587952 59.50433 -14.500343 -110.30965
2440000000 -19.612288 -83.185013 -9.231657 149.72096 -9.5352325 -121.96288 -9.160758 -32.133587
-9.2469988 149.58928 -12.858419 -122.43266 -28.316431 -4.1428957 -36.419144 -37.921944
-9.6033363 -121.95554 -28.36754 -3.9796982 -18.637209 -118.09001 -36.821838 50.354343
-9.0356541 -32.105335 -36.282429 -37.641968 -36.624653 50.28688 -14.381778 -112.85612
2450000000 -19.85705 -86.152786 -9.2338839 144.4993 -9.5283194 -127.19798 -9.1661272 -37.196136
-9.2493753 144.38339 -12.667457 -124.88667 -28.13047 -10.868178 -36.481777 -46.835121
-9.6000671 -127.17911 -28.182457 -10.739011 -18.4611 -120.86521 -36.896637 41.516262
-9.0414114 -37.1497 -36.351627 -46.562271 -36.709286 41.486729 -14.267756 -115.4008
2460000000 -20.142212 -88.946983 -9.2363796 139.27028 -9.5244246 -132.41986 -9.1736364 -42.24419
-9.250927 139.16953 -12.478483 -127.33063 -27.94558 -17.701731 -36.538174 -55.383301
-9.59727 -132.39684 -27.998377 -17.598953 -18.301899 -123.51407 -36.924782 33.008621
-9.0509806 -42.198513 -36.400837 -55.211346 -36.715843 32.938976 -14.158297 -117.95484
2470000000 -20.444218 -91.668465 -9.2387934 134.04324 -9.520915 -137.6387 -9.182868 -47.282219
-9.2519388 133.94954 -12.297774 -129.82056 -27.77309 -24.646311 -36.537357 -63.936069
-9.5894051 -137.61525 -27.828636 -24.527269 -18.153778 -126.01367 -36.944874 24.343683
-9.0603085 -47.234131 -36.427956 -63.690994 -36.731575 24.350101 -14.05726 -120.5304
2480000000 -20.765863 -94.403473 -9.2433214 128.83173 -9.5167313 -142.8455 -9.1932364 -52.316757
-9.2565823 128.71811 -12.127806 -132.30989 -27.623318 -31.70311 -36.535809 -72.428795
-9.586441 -142.82465 -27.671553 -31.545092 -18.003096 -128.4205 -36.889626 15.765035
-9.0678005 -52.262962 -36.392624 -72.390724 -36.692093 15.749724 -13.974501 -123.15273
2490000000 -21.133074 -97.210007 -9.2494297 123.63055 -9.5139122 -148.05461 -9.2003632 -57.329227
-9.2640953 123.51501 -11.972544 -134.77528 -27.482666 -38.639011 -36.520775 -81.388191
-9.5838232 -148.02525 -27.535156 -38.491989 -17.858572 -130.78807 -36.847752 6.9449248
-9.0773544 -57.285923 -36.384865 -81.220444 -36.640743 7.0604935 -13.902442 -125.79333
2500000000 -21.563185 -100.11793 -9.2560225 118.44012 -9.5097523 -153.23578 -9.2067747 -62.343727
-9.2738161 118.33846 -11.827828 -137.20142 -27.349031 -45.511059 -36.538284 -90.165169
-9.5818796 -153.21393 -27.40568 -45.375004 -17.71686 -133.10689 -36.797188 -1.7702589
-9.086132 -62.305889 -36.406544 -90.063881 -36.620331 -1.7960843 -13.84168 -128.46544
2510000000 -22.053625 -102.94363 -9.2622643 113.26244 -9.5079231 -158.41496 -9.2136765 -67.375549
-9.2802515 113.16585 -11.694115 -139.62216 -27.214746 -52.315205 -36.545956 -98.734924
-9.579813 -158.39319 -27.272243 -52.20245 -17.577185 -135.36621 -36.778778 -10.464584
-9.0933084 -67.334915 -36.435795 -98.481575 -36.598953 -10.477061 -13.785261 -131.22569
2520000000 -22.610052 -105.64943 -9.2684441 108.10081 -9.5057974 -163.57442 -9.2194901 -72.414078
-9.2860107 107.9962 -11.567538 -142.0376 -27.092382 -59.181404 -36.583225 -107.09399
-9.5771465 -163.56784 -27.150215 -59.115349 -17.43684 -137.56577 -36.748535 -18.967052
-9.1022749 -72.372475 -36.41452 -107.03197 -36.553104 -19.059879 -13.739134 -134.04012
2530000000 -23.215761 -108.26221 -9.2721949 102.93964 -9.5024824 -168.72516 -9.2288008 -77.451294
-9.2915173 102.83878 -11.449171 -144.46169 -26.969509 -66.058014 -36.541714 -115.39031
-9.5741377 -168.71355 -27.022341 -65.941017 -17.28993 -139.72192 -36.707024 -27.590569
-9.1093893 -77.411041 -36.403393 -115.15214 -36.517078 -27.595076 -13.699492 -136.92979
2540000000 -23.884781 -110.73808 -9.2755737 97.77874 -9.4978104 -173.86252 -9.2394695 -82.48484
-9.2966051 97.68203 -11.345761 -146.91431 -26.858484 -72.876007 -36.488365 -123.6646
