!Agilent Technologies,N5224A,MY51441093,A.09.90.21
!Agilent N5224A: A.09.90.21
!Date: Friday, December 19, 2025 16:38:39
!Correction: S11(Full 4 Port(1,2,3,4)) 
!S12(Full 4 Port(1,2,3,4)) 
!S13(Full 4 Port(1,2,3,4)) 
!S14(Full 4 Port(1,2,3,4)) 
!S21(Full 4 Port(1,2,3,4)) 
!S22(Full 4 Port(1,2,3,4)) 
!S23(Full 4 Port(1,2,3,4)) 
!S24(Full 4 Port(1,2,3,4)) 
!S31(Full 4 Port(1,2,3,4)) 
!S32(Full 4 Port(1,2,3,4)) 
!S33(Full 4 Port(1,2,3,4)) 
!S34(Full 4 Port(1,2,3,4)) 
!S41(Full 4 Port(1,2,3,4)) 
!S42(Full 4 Port(1,2,3,4)) 
!S43(Full 4 Port(1,2,3,4)) 
!S44(Full 4 Port(1,2,3,4)) 
!S4P File: Measurements: <S11,S12,S13,S14>,
!<S21,S22,S23,S24>,
!<S31,S32,S33,S34>,
!<S41,S42,S43,S44>:
# Hz S  dB   R 50
2000000000 -12.846477 -57.797279 -9.3511248 -40.420189 -10.21863 74.76181 -9.3212671 168.78204
-9.3676186 -40.46624 -15.573502 -125.6975 -31.127983 -153.25941 -34.608063 -42.614803
-10.277412 74.929222 -31.177063 -153.0788 -19.037977 67.259727 -35.501926 72.900917
-9.2059622 169.02213 -34.488136 -42.336731 -35.324581 72.929153 -13.523349 -49.590744
2010000000 -13.227841 -61.485741 -9.3241358 -45.917248 -10.170731 68.967972 -9.3032131 163.75818
-9.3427563 -45.949093 -15.586843 -126.7115 -31.140165 -160.93362 -34.689392 -53.094429
-10.22486 69.143822 -31.179523 -160.69449 -19.281755 58.771919 -35.574356 62.226643
-9.185873 163.99718 -34.562714 -52.739204 -35.385796 62.258488 -13.599863 -52.474983
2020000000 -13.654234 -65.129601 -9.3033743 -51.392159 -10.128761 63.196072 -9.2866535 158.72588
-9.3204641 -51.433716 -15.609954 -127.69326 -31.149244 -168.55563 -34.757877 -63.4408
-10.180693 63.359989 -31.176439 -168.28839 -19.461176 50.144444 -35.625328 51.605949
-9.1645708 158.97324 -34.637787 -63.162632 -35.466747 51.701157 -13.670751 -55.336647
2030000000 -14.127028 -68.674057 -9.285964 -56.869221 -10.088646 57.424576 -9.2705841 153.68974
-9.3001719 -56.904518 -15.638322 -128.6472 -31.139853 -176.15063 -34.827248 -73.865959
-10.141811 57.594322 -31.183971 -176.07178 -19.576183 41.464359 -35.669907 40.974831
-9.1468668 153.93771 -34.685463 -73.516365 -35.500317 41.047714 -13.741381 -58.184006
2040000000 -14.644925 -72.076302 -9.2671022 -62.32534 -10.051303 51.669853 -9.2519932 148.65088
-9.2796078 -62.367332 -15.664713 -129.50313 -31.135983 176.0253 -34.89056 -84.344139
-10.10405 51.825054 -31.175795 176.19521 -19.615988 32.834896 -35.701424 30.158113
-9.1298761 148.90024 -34.746769 -84.053383 -35.533569 30.204798 -13.806154 -60.960716
2050000000 -15.201387 -75.252022 -9.2475519 -67.780853 -10.01688 45.917042 -9.2353449 143.60307
-9.2613401 -67.82589 -15.688771 -130.28604 -31.134897 168.15492 -34.962185 -94.932449
-10.070821 46.063343 -31.187128 168.32799 -19.585186 24.356932 -35.750874 19.265026
-9.1142797 143.84299 -34.827179 -94.742851 -35.573547 19.364637 -13.864541 -63.694138
2060000000 -15.802377 -78.21627 -9.2281837 -73.231148 -9.9869423 40.164158 -9.2202263 138.54472
-9.2452736 -73.282532 -15.707146 -131.03156 -31.163174 160.39934 -35.040279 -105.40797
-10.039966 40.317982 -31.201071 160.57883 -19.491779 16.118177 -35.819946 8.5201311
-9.0992107 138.78789 -34.905342 -105.09538 -35.65147 8.5843306 -13.912238 -66.368317
2070000000 -16.443939 -80.91143 -9.2127867 -78.68412 -9.9592371 34.424698 -9.2065401 133.46434
-9.2283697 -78.736839 -15.716961 -131.76396 -31.196913 152.65312 -35.133293 -115.76595
-10.013501 34.568848 -31.230095 152.91801 -19.335594 8.1973886 -35.913361 -2.1952434
-9.0881538 133.71152 -35.003445 -115.57243 -35.734093 -2.1198947 -13.954591 -69.010201
2080000000 -17.127766 -83.302498 -9.1953707 -84.13427 -9.9351883 28.709078 -9.1976089 128.38594
-9.2125406 -84.182602 -15.722957 -132.48511 -31.199429 145.02831 -35.213741 -126.01179
-9.9892292 28.845989 -31.241056 145.20746 -19.128181 0.58406913 -35.946766 -12.663698
-9.0769539 128.6377 -35.077026 -125.71609 -35.775803 -12.580172 -13.992647 -71.590889
2090000000 -17.848209 -85.356529 -9.1835308 -89.580017 -9.914753 23.002281 -9.1895046 123.31689
-9.1974888 -89.633316 -15.724422 -133.15129 -31.190628 137.39311 -35.266891 -136.23451
-9.970336 23.134645 -31.240717 137.52225 -18.882946 -6.6354928 -35.984943 -23.223026
-9.0684309 123.55871 -35.124268 -135.86714 -35.817513 -23.088985 -14.028048 -74.107536
2100000000 -18.618856 -87.105652 -9.1712141 -95.022339 -9.8968801 17.322453 -9.184226 118.25048
-9.1835814 -95.078888 -15.717668 -133.8015 -31.195988 129.62598 -35.299938 -146.42381
-9.9526157 17.451857 -31.239725 129.80933 -18.621109 -13.421671 -36.028587 -33.844757
-9.0589876 118.48985 -35.160652 -146.24895 -35.853058 -33.812328 -14.062648 -76.508667
2110000000 -19.459232 -88.428833 -9.1617727 -100.47191 -9.8813763 11.660419 -9.1763411 113.18843
-9.1708317 -100.52377 -15.700812 -134.44299 -31.180443 121.83772 -35.325844 -156.77754
-9.9363146 11.784456 -31.240288 122.01543 -18.337509 -19.834278 -36.061386 -44.565685
-9.0533218 113.416 -35.213264 -156.54253 -35.888351 -44.508282 -14.09123 -78.830681
2120000000 -20.384527 -89.07679 -9.1533175 -105.91184 -9.8675671 6.0076923 -9.1732798 108.11708
-9.1649294 -105.95911 -15.675681 -135.10625 -31.199974 114.06798 -35.372391 -167.1855
-9.9237528 6.1472807 -31.255665 114.24601 -18.048534 -25.820408 -36.114414 -55.238453
-9.0475988 108.34882 -35.253971 -166.87186 -35.944702 -55.053947 -14.1206 -81.10347
2130000000 -21.372789 -88.795692 -9.1476803 -111.33903 -9.8554153 0.37998229 -9.1686916 103.04869
-9.1598768 -111.3764 -15.643414 -135.76141 -31.199928 106.40643 -35.41304 -177.44733
-9.9116869 0.51661521 -31.254934 106.56105 -17.757961 -31.484495 -36.159695 -65.847878
-9.045682 103.27267 -35.276203 -177.24088 -35.999134 -65.655342 -14.148943 -83.347878
2140000000 -22.397217 -87.28054 -9.144515 -116.74147 -9.8461733 -5.233098 -9.1684408 97.981483
-9.1558943 -116.77058 -15.60697 -136.41701 -31.206255 98.810768 -35.447903 172.36845
-9.9053001 -5.0975137 -31.257057 98.950958 -17.481022 -36.815197 -36.208702 -76.337845
-9.0420141 98.202904 -35.33239 172.62903 -36.032295 -76.245125 -14.178462 -85.570084
2150000000 -23.397449 -84.454277 -9.1445293 -122.12974 -9.8404646 -10.819002 -9.1650639 92.915306
-9.1509123 -122.15878 -15.563855 -137.05611 -31.193081 91.185204 -35.454456 162.03169
-9.8971958 -10.690975 -31.246138 91.295898 -17.209732 -41.884743 -36.249817 -86.872444
-9.039279 93.143654 -35.327564 162.30821 -36.054615 -86.765274 -14.208944 -87.771484
2160000000 -24.356897 -80.192101 -9.1412077 -127.50454 -9.835146 -16.376831 -9.1648836 87.859909
-9.1484156 -127.53608 -15.510125 -137.73843 -31.180628 83.45842 -35.457783 151.7363
-9.8923912 -16.256889 -31.23736 83.627365 -16.956264 -46.728237 -36.258965 -97.41555
-9.0384579 88.087364 -35.318027 151.93217 -36.08873 -97.324448 -14.239513 -89.95517
2170000000 -25.173403 -74.440811 -9.1384716 -132.86241 -9.8321657 -21.921747 -9.1644697 82.80117
-9.1461382 -132.90776 -15.446815 -138.43436 -31.17214 75.86541 -35.471394 141.30518
-9.8916254 -21.792923 -31.230547 76.019974 -16.711739 -51.331734 -36.286427 -107.9384
-9.0376396 83.029198 -35.337364 141.54362 -36.08638 -107.90516 -14.267557 -92.162865
2180000000 -25.756933 -67.322418 -9.1366405 -138.2198 -9.8301229 -27.43104 -9.1647387 77.75782
-9.1436386 -138.25436 -15.379419 -139.19574 -31.159883 68.343552 -35.486389 130.75841
-9.8862782 -27.314306 -31.215933 68.525459 -16.482464 -55.749947 -36.295444 -118.66837
-9.0369492 77.972534 -35.359146 131.05693 -36.130199 -118.47414 -14.293036 -94.373207
2190000000 -26.023634 -59.653358 -9.1349649 -143.55476 -9.8278933 -32.921761 -9.1654005 72.706825
-9.1428986 -143.60538 -15.304512 -139.9955 -31.155331 60.78236 -35.535549 120.33325
-9.8839722 -32.809361 -31.210604 60.988323 -16.259474 -60.02832 -36.363731 -129.18733
-9.0364065 72.910309 -35.390293 120.5043 -36.166302 -129.1244 -14.317523 -96.594185
2200000000 -25.964582 -52.07325 -9.134779 -148.8987 -9.8266897 -38.389309 -9.1665983 67.659531
-9.1414843 -148.95331 -15.228013 -140.84541 -31.14179 53.376945 -35.566795 110.02956
-9.8832483 -38.287724 -31.194031 53.503616 -16.048777 -64.147911 -36.396343 -139.69315
-9.0372324 67.849579 -35.443409 110.2908 -36.20776 -139.6523 -14.33817 -98.824997
2210000000 -25.595081 -45.191017 -9.1350899 -154.22667 -9.8261223 -43.835251 -9.1670294 62.602501
-9.1428728 -154.295 -15.149337 -141.72122 -31.112991 46.058353 -35.618431 99.723038
-9.8823595 -43.740143 -31.173201 46.27359 -15.847674 -68.182671 -36.434334 -150.02588
-9.0386267 62.795139 -35.493336 100.01699 -36.266048 -149.90643 -14.351279 -101.04831
2220000000 -24.997131 -39.797333 -9.1385489 -159.5439 -9.8267498 -49.261986 -9.1695118 57.549145
-9.1451788 -159.62149 -15.064543 -142.62407 -31.079924 38.727177 -35.657303 89.415962
-9.8824501 -49.179729 -31.131313 38.968086 -15.659114 -72.069351 -36.480156 -160.29463
-9.0396442 57.731457 -35.520142 89.751495 -36.293728 -160.17113 -14.359429 -103.23627
2230000000 -24.281521 -36.188877 -9.1423721 -164.84065 -9.8272429 -54.666283 -9.1741438 52.506386
-9.1482687 -164.9184 -14.975554 -143.59769 -31.037077 31.465712 -35.684834 79.424759
-9.8844719 -54.589306 -31.093344 31.608204 -15.477006 -75.851112 -36.50462 -170.54126
-9.0426226 52.682556 -35.553856 79.591072 -36.310032 -170.49464 -14.359493 -105.40592
2240000000 -23.560127 -34.143158 -9.1438885 -170.11908 -9.8249521 -60.040531 -9.1767673 47.462662
-9.1503601 -170.19576 -14.883338 -144.59097 -30.990593 24.246782 -35.717899 69.127182
-9.8843756 -59.972519 -31.039253 24.445843 -15.30242 -79.515091 -36.529823 179.05363
-9.0444927 47.62804 -35.576271 69.367645 -36.326614 179.28773 -14.351297 -107.5612
2250000000 -22.891039 -33.192867 -9.1470623 -175.38068 -9.8246336 -65.4011 -9.1807566 42.427055
-9.1512136 -175.46516 -14.788601 -145.63219 -30.932022 17.083323 -35.756939 58.950768
-9.8846006 -65.343468 -30.993879 17.194986 -15.138166 -83.088631 -36.548035 168.80759
-9.0490675 42.59272 -35.622814 59.131203 -36.363384 168.87962 -14.340899 -109.65485
2260000000 -22.26342 -32.955105 -9.1478539 179.36378 -9.8223963 -70.746468 -9.1846657 37.393375
-9.1503572 179.26176 -14.692053 -146.69881 -30.885525 9.9968586 -35.806934 48.917164
-9.8832216 -70.693336 -30.94533 10.163607 -14.981157 -86.540253 -36.58688 158.66055
-9.0531597 37.543282 -35.662952 49.039886 -36.383156 158.68602 -14.322248 -111.73785
2270000000 -21.675673 -33.353256 -9.1471014 174.09584 -9.8195848 -76.086838 -9.1901484 32.355679
-9.1514254 173.99553 -14.592482 -147.80995 -30.802435 3.0269344 -35.851154 38.897358
-9.87885 -76.027184 -30.873205 3.2281663 -14.834863 -89.911011 -36.621109 148.59325
-9.0571537 32.508404 -35.726624 39.041634 -36.43277 148.73694 -14.307326 -113.7575
2280000000 -21.145226 -34.329216 -9.1459284 168.83206 -9.8182936 -81.409439 -9.193285 27.325214
-9.1522312 168.73785 -14.491279 -148.94479 -30.719255 -3.9039152 -35.901943 28.979704
-9.8775635 -81.345627 -30.778715 -3.7543221 -14.702919 -93.178429 -36.650799 138.60771
-9.0604706 27.474068 -35.759296 29.269749 -36.471573 138.6749 -14.283755 -115.76661
2290000000 -20.669724 -35.691639 -9.1477633 163.56628 -9.8146124 -86.713608 -9.1978168 22.289904
-9.152257 163.48694 -14.385993 -150.1806 -30.6185 -10.893234 -35.917778 19.200085
-9.8720932 -86.635262 -30.686203 -10.770189 -14.579336 -96.359169 -36.674175 128.62825
-9.0630159 22.449551 -35.786488 19.454731 -36.475052 128.77066 -14.258992 -117.75667
2300000000 -20.250547 -37.331558 -9.1483345 158.30377 -9.8102398 -92.006432 -9.2029648 17.265615
-9.152235 158.23181 -14.286518 -151.45648 -30.539854 -17.954378 -35.941181 9.2227325
-9.8680887 -91.930977 -30.594271 -17.733646 -14.466116 -99.443176 -36.683792 118.74369
-9.0682726 17.420765 -35.803894 9.5358534 -36.464264 118.82709 -14.2353 -119.72637
2310000000 -19.876451 -39.270584 -9.1519108 153.05594 -9.804328 -97.296494 -9.2083549 12.251652
-9.1534071 152.98 -14.193839 -152.75565 -30.440092 -24.819647 -35.97337 -0.70676327
-9.8627081 -97.22718 -30.494949 -24.665939 -14.3648 -102.45085 -36.687176 108.81843
-9.0738449 12.391022 -35.843819 -0.34782699 -36.480518 108.72773 -14.206378 -121.71389
2320000000 -19.551989 -41.477562 -9.1521568 147.82141 -9.7982836 -102.56045 -9.2122316 7.234848
-9.1561441 147.73949 -14.100061 -154.06488 -30.33383 -31.613173 -36.020458 -10.450739
-9.8598213 -102.5124 -30.389244 -31.479588 -14.271906 -105.39384 -36.700348 98.728027
-9.0790062 7.3519387 -35.881248 -10.222143 -36.511395 98.721207 -14.176262 -123.73467
2330000000 -19.28718 -43.895298 -9.1529322 142.59828 -9.7926207 -107.82234 -9.2160339 2.2123268
-9.159564 142.50356 -14.007772 -155.4216 -30.219496 -38.280079 -36.068905 -20.025946
-9.8570499 -107.77547 -30.27738 -38.185558 -14.190458 -108.27145 -36.758835 88.980995
-9.0855083 2.3257103 -35.932388 -19.905664 -36.568432 89.015785 -14.139659 -125.76854
2340000000 -19.079697 -46.437469 -9.153882 137.38184 -9.7866306 -113.0572 -9.2220726 -2.7993374
-9.1615601 137.2943 -13.920496 -156.83572 -30.08061 -45.084866 -36.079208 -29.571136
-9.8517075 -113.02671 -30.138313 -44.958992 -14.115983 -111.07925 -36.777611 79.428223
-9.0901937 -2.7023878 -35.953724 -29.386971 -36.563946 79.419846 -14.097157 -127.85451
2350000000 -18.918476 -49.015495 -9.15343 132.17561 -9.7816916 -118.29975 -9.2262011 -7.8115697
-9.160676 132.09093 -13.836288 -158.29556 -29.950804 -51.945118 -36.075031 -39.287106
-9.8437042 -118.25864 -30.002026 -51.818409 -14.050259 -113.8399 -36.758659 69.877838
-9.0944567 -7.7211027 -35.933357 -39.036762 -36.575108 69.826797 -14.045746 -129.98108
2360000000 -18.792837 -51.669994 -9.1538382 126.9552 -9.771512 -123.52546 -9.2319679 -12.829923
-9.1593781 126.85656 -13.757614 -159.82414 -29.814556 -58.693867 -36.094475 -48.851585
-9.83218 -123.50211 -29.881113 -58.570225 -13.987291 -116.50885 -36.755882 60.20327
-9.0988026 -12.75037 -35.952934 -48.775158 -36.561329 60.056446 -13.990605 -132.15504
2370000000 -18.68977 -54.454521 -9.1530266 121.73259 -9.7610321 -128.75777 -9.2380352 -17.847397
-9.159893 121.6203 -13.683577 -161.37515 -29.687998 -65.382446 -36.122433 -58.920799
-9.8239155 -128.73892 -29.741642 -65.255844 -13.92735 -119.14101 -36.779556 50.403904
-9.1051722 -17.785433 -35.984303 -58.825817 -36.583652 50.339554 -13.931317 -134.34668
2380000000 -18.627275 -57.340511 -9.1533041 116.50874 -9.7516737 -133.97496 -9.2438316 -22.869078
-9.1631289 116.39494 -13.614133 -162.96962 -29.544022 -72.011375 -36.191166 -68.728683
-9.8169851 -133.97255 -29.602482 -71.883545 -13.872723 -121.70676 -36.827137 40.724159
-9.1097631 -22.819574 -36.062656 -68.514221 -36.626362 40.687885 -13.862815 -136.53754
2390000000 -18.599245 -60.29163 -9.1551304 111.28499 -9.74259 -139.19679 -9.2462873 -27.893372
-9.1664314 111.18018 -13.542192 -164.61061 -29.375282 -78.593468 -36.280205 -78.120071
-9.8087549 -139.19743 -29.437639 -78.48851 -13.828532 -124.18616 -36.90218 31.288811
-9.116374 -27.853739 -36.160149 -77.845184 -36.690689 31.360981 -13.782317 -138.71619
2400000000 -18.601511 -63.288036 -9.1594706 106.0731 -9.7301645 -144.407 -9.2544699 -32.919601
-9.1683865 105.96249 -13.47629 -166.31665 -29.209908 -85.285667 -36.352657 -87.222946
-9.7981491 -144.40692 -29.268217 -85.162033 -13.779902 -126.59319 -36.944313 22.196205
-9.1223459 -32.882477 -36.22739 -87.093849 -36.722759 22.161697 -13.697925 -140.91077
2410000000 -18.633074 -66.356453 -9.1644144 100.87782 -9.7212563 -149.61374 -9.2600679 -37.938725
-9.1732044 100.74477 -13.418571 -168.09763 -29.043243 -92.060707 -36.389446 -96.153404
-9.7876301 -149.61267 -29.099863 -91.91539 -13.736307 -128.93521 -36.945984 13.08392
-9.1305504 -37.909161 -36.259617 -96.114792 -36.745018 13.160789 -13.610628 -143.12056
2420000000 -18.698183 -69.493019 -9.1673708 95.684097 -9.7118549 -154.82681 -9.2663832 -42.961761
-9.1801367 95.539368 -13.363442 -169.87669 -28.895664 -98.783104 -36.425697 -105.45986
-9.7797337 -154.81366 -28.948078 -98.599083 -13.689254 -131.19421 -36.962719 3.9457445
-9.1386328 -42.933067 -36.282696 -105.41507 -36.750111 3.9414217 -13.524086 -145.32428
2430000000 -18.806822 -72.566994 -9.1690111 90.487717 -9.6990976 -160.01828 -9.2738028 -47.991951
-9.1845846 90.351868 -13.312849 -171.68425 -28.742456 -105.384 -36.482212 -114.72839
-9.7655334 -160.01431 -28.797619 -105.26363 -13.641354 -133.42693 -36.968201 -5.2967834
-9.1463289 -47.958252 -36.330112 -114.63582 -36.763985 -5.2930646 -13.443438 -147.5096
2440000000 -18.931807 -75.562469 -9.1740255 85.294922 -9.6891947 -165.22282 -9.2828665 -53.013065
-9.1904726 85.169434 -13.273194 -173.52754 -28.580526 -112.00141 -36.525955 -123.79343
-9.7558126 -165.21097 -28.629631 -111.85835 -13.59834 -135.58633 -37.014854 -14.488039
-9.1563396 -52.981312 -36.400757 -123.71342 -36.804047 -14.384335 -13.368101 -149.70622
2450000000 -19.067047 -78.563446 -9.1770058 80.082832 -9.6762543 -170.42888 -9.2922144 -58.051003
-9.190897 79.969727 -13.241356 -175.40173 -28.391197 -118.61948 -36.611217 -132.73865
-9.7455463 -170.4147 -28.454296 -118.46481 -13.556419 -137.67773 -37.044636 -23.372456
-9.1662073 -58.002686 -36.479473 -132.48235 -36.865971 -23.225086 -13.29781 -151.92116
2460000000 -19.225613 -81.664993 -9.1823626 74.865868 -9.6654015 -175.63676 -9.3029718 -63.064026
-9.1971865 74.754738 -13.222332 -177.26193 -28.20434 -125.35361 -36.663643 -141.32368
-9.7347918 -175.61647 -28.268932 -125.22041 -13.509534 -139.73065 -37.098457 -31.72209
-9.1784143 -63.011288 -36.510082 -141.10312 -36.91082 -31.77718 -13.236457 -154.17889
2470000000 -19.430552 -84.892258 -9.1924667 69.644905 -9.6555748 179.1682 -9.3139954 -68.07193
-9.2088604 69.545013 -13.220731 -179.12814 -28.034792 -132.18867 -36.66922 -149.7811
-9.726965 179.1888 -28.095869 -132.04628 -13.459672 -141.7491 -37.086365 -40.270622
-9.1897202 -68.012672 -36.537296 -149.70035 -36.891884 -40.381657 -13.186463 -156.49947
2480000000 -19.689045 -88.123741 -9.2043877 64.45665 -9.6469545 173.97583 -9.323679 -73.071381
-9.2199926 64.346092 -13.235115 179.0575 -27.877901 -139.01001 -36.637936 -158.28275
-9.7176352 174.00475 -27.941654 -138.91867 -13.404548 -143.76807 -37.064312 -48.666351
-9.1967869 -73.019272 -36.513058 -158.17073 -36.852722 -48.676331 -13.147246 -158.86327
2490000000 -19.99988 -91.248375 -9.2167568 59.293438 -9.6368256 168.79112 -9.3311958 -78.063347
-9.2334127 59.187393 -13.262239 177.32204 -27.737663 -145.79565 -36.625008 -167.05511
-9.7066097 168.82198 -27.789562 -145.66661 -13.349367 -145.79808 -37.013626 -57.208313
-9.2062283 -78.022697 -36.498428 -166.8625 -36.825165 -57.233757 -13.115669 -161.27711
2500000000 -20.341785 -94.215775 -9.2286758 54.143448 -9.6285925 163.60703 -9.3391676 -83.057709
-9.2449617 54.037827 -13.296481 175.62126 -27.600229 -152.57216 -36.616428 -175.85963
-9.69629 163.63338 -27.647392 -152.46295 -13.295197 -147.83571 -36.9757 -65.748177
-9.2147141 -83.030731 -36.4776 -175.75533 -36.796482 -65.808884 -13.093169 -163.75154
2510000000 -20.71373 -97.155235 -9.238553 49.004318 -9.6211758 158.43407 -9.3458767 -88.064743
-9.2571239 48.900314 -13.342279 173.96077 -27.454123 -159.27821 -36.643162 175.52628
-9.6886015 158.44234 -27.504927 -159.14853 -13.235981 -149.84796 -36.941517 -74.331169
-9.2246866 -88.027351 -36.513615 175.54507 -36.757713 -74.325691 -13.072599 -166.29343
2520000000 -21.118563 -100.14405 -9.2488823 43.864105 -9.6133013 153.26447 -9.3531399 -93.079376
-9.2660379 43.755611 -13.391696 172.32365 -27.313231 -166.03362 -36.62579 167.02757
-9.683238 153.26779 -27.364435 -165.93568 -13.173899 -151.86789 -36.899673 -82.683601
-9.2354517 -93.033813 -36.513241 167.2081 -36.703957 -82.681732 -13.057569 -168.90288
2530000000 -21.558638 -103.18923 -9.2580366 38.728004 -9.6075668 148.10217 -9.3640175 -98.079506
-9.2776737 38.621349 -13.450706 170.71248 -27.182486 -172.86705 -36.648926 158.65167
-9.6769886 148.11055 -27.229897 -172.77817 -13.10662 -153.89587 -36.850792 -91.130325
-9.2446489 -98.030937 -36.500538 158.81927 -36.651165 -91.147484 -13.047586 -171.56064
2540000000 -22.043642 -106.35506 -9.2675571 33.582157 -9.5975742 142.94893 -9.374794 -103.08119
-9.2880583 33.485821 -13.515494 169.10777 -27.060223 -179.71321 -36.610584 150.39297
