!Agilent Technologies,N5224A,MY51441093,A.09.90.21
!Agilent N5224A: A.09.90.21
!Date: Friday, December 19, 2025 16:46:15
!Correction: S11(Full 4 Port(1,2,3,4)) 
!S12(Full 4 Port(1,2,3,4)) 
!S13(Full 4 Port(1,2,3,4)) 
!S14(Full 4 Port(1,2,3,4)) 
!S21(Full 4 Port(1,2,3,4)) 
!S22(Full 4 Port(1,2,3,4)) 
!S23(Full 4 Port(1,2,3,4)) 
!S24(Full 4 Port(1,2,3,4)) 
!S31(Full 4 Port(1,2,3,4)) 
!S32(Full 4 Port(1,2,3,4)) 
!S33(Full 4 Port(1,2,3,4)) 
!S34(Full 4 Port(1,2,3,4)) 
!S41(Full 4 Port(1,2,3,4)) 
!S42(Full 4 Port(1,2,3,4)) 
!S43(Full 4 Port(1,2,3,4)) 
!S44(Full 4 Port(1,2,3,4)) 
!S4P File: Measurements: <S11,S12,S13,S14>,
!<S21,S22,S23,S24>,
!<S31,S32,S33,S34>,
!<S41,S42,S43,S44>:
# Hz S  dB   R 50
2000000000 -14.181596 -52.228706 -9.0626068 144.41908 -9.5942907 -123.82767 -9.237093 -169.78838
-9.0890303 144.38846 -13.150421 -68.480904 -34.593845 -146.799 -30.266254 150.62054
-9.6498489 -123.65234 -34.618549 -146.63432 -14.166779 -5.3054652 -34.871014 -101.92602
-9.1215153 -169.55821 -30.130791 150.86604 -34.695385 -101.86464 -15.040154 3.6948843
2010000000 -14.49317 -54.876404 -9.0409555 139.50626 -9.5819654 -128.9935 -9.2210426 -174.82306
-9.0700016 139.48291 -13.19794 -70.86412 -34.670757 -156.87492 -30.281681 144.38976
-9.6337624 -128.8195 -34.69706 -156.56525 -14.136666 -8.9757605 -34.964451 -112.13593
-9.104352 -174.57967 -30.152918 144.57719 -34.795918 -112.14637 -15.147092 0.50484413
2020000000 -14.836409 -57.42506 -9.0261831 134.58833 -9.575819 -134.13751 -9.2054758 -179.86346
-9.0541658 134.55244 -13.247732 -73.20163 -34.73632 -166.65765 -30.293585 138.07782
-9.6257277 -133.97047 -34.760815 -166.40186 -14.115866 -12.618281 -35.048779 -122.12466
-9.0858088 -179.61658 -30.156889 138.3824 -34.887695 -122.00378 -15.251207 -2.6559148
2030000000 -15.218323 -59.834282 -9.0138588 129.65929 -9.5685425 -139.27895 -9.1911097 175.09354
-9.0401134 129.6187 -13.301703 -75.476051 -34.79327 -176.64412 -30.294689 131.73592
-9.6221952 -139.11455 -34.816376 -176.41885 -14.101791 -16.265171 -35.107895 -132.24538
-9.0705156 175.34402 -30.152861 132.00294 -34.921566 -132.1131 -15.361856 -5.8086982
2040000000 -15.629904 -62.053143 -8.9980545 124.72321 -9.5625248 -144.41553 -9.1751356 170.04007
-9.0247908 124.68719 -13.347274 -77.675285 -34.846878 173.27098 -30.288097 125.26701
-9.6148434 -144.25839 -34.872303 173.48862 -14.087975 -19.905052 -35.154076 -142.45102
-9.0550003 170.29457 -30.139835 125.53727 -34.98476 -142.37526 -15.46667 -8.9243479
2050000000 -16.057686 -63.978992 -8.9847059 119.77107 -9.5561981 -149.5537 -9.1600885 164.98186
-9.0097256 119.73605 -13.386665 -79.824692 -34.898014 163.02092 -30.292244 118.64445
-9.6081362 -149.38863 -34.92527 163.23369 -14.076859 -23.529139 -35.218895 -152.74265
-9.0404463 165.23039 -30.149401 118.9571 -35.058643 -152.66194 -15.558869 -12.005542
2060000000 -16.503498 -65.66684 -8.9685173 114.81074 -9.5514069 -154.68015 -9.1458054 159.91904
-8.9971762 114.76717 -13.422656 -81.950142 -34.982315 153.06615 -30.299965 112.05717
-9.6037807 -154.52754 -35.02483 153.12775 -14.066119 -27.106201 -35.304333 -162.95378
-9.0275593 160.16011 -30.156561 112.33286 -35.107792 -162.80232 -15.643815 -15.081448
2070000000 -16.961842 -67.100693 -8.9566336 109.83416 -9.5485125 -159.80264 -9.13276 154.83112
-8.9850559 109.78681 -13.448322 -84.055046 -35.073345 143.05894 -30.314526 105.51244
-9.6013269 -159.65355 -35.1059 143.3037 -14.053131 -30.644365 -35.375629 -172.94418
-9.0155001 155.08627 -30.176195 105.78188 -35.19722 -172.81088 -15.715153 -18.131605
2080000000 -17.43438 -68.205803 -8.9463797 104.85374 -9.5449648 -164.9201 -9.1217537 149.74973
-8.9734278 104.79992 -13.476196 -86.13591 -35.135715 133.23662 -30.310472 98.937233
-9.5985098 -164.77347 -35.151314 133.52271 -14.039062 -34.172646 -35.43642 177.17113
-9.0042276 149.99721 -30.167517 99.242332 -35.24173 177.24452 -15.780742 -21.164442
2090000000 -17.905567 -68.995857 -8.9355946 99.864113 -9.5434036 -170.02229 -9.1139393 144.65715
-8.9623432 99.816002 -13.494559 -88.172562 -35.16552 123.42092 -30.293179 92.371246
-9.5970011 -169.88527 -35.185078 123.59994 -14.026418 -37.65572 -35.44273 167.19911
-8.9940891 144.89917 -30.148455 92.639915 -35.269485 167.38152 -15.832752 -24.115892
2100000000 -18.383921 -69.486473 -8.9277487 94.863068 -9.5416422 -175.11601 -9.1070509 139.56252
-8.9522038 94.808052 -13.504631 -90.181763 -35.185871 113.36118 -30.271318 85.574677
-9.5973997 -174.9823 -35.211414 113.46497 -14.021619 -41.076923 -35.455364 157.31187
-8.9854088 139.80231 -30.121084 85.888596 -35.270222 157.35741 -15.873931 -26.96085
2110000000 -18.869991 -69.595222 -8.9189234 89.844078 -9.5396643 179.79967 -9.1017046 134.47168
-8.9413023 89.796204 -13.506231 -92.164085 -35.220737 103.29887 -30.252264 78.785774
-9.597023 179.9326 -35.251019 103.46845 -14.016651 -44.455685 -35.456623 147.08266
-8.9793854 134.70055 -30.11385 79.04216 -35.292118 147.16037 -15.901957 -29.718109
2120000000 -19.357229 -69.20652 -8.9136763 84.82106 -9.5372353 174.71387 -9.0969067 129.36946
-8.9368315 84.764244 -13.502592 -94.150276 -35.26091 93.163124 -30.250359 71.938637
-9.5917559 174.85139 -35.286682 93.379654 -14.016885 -47.76421 -35.477459 137.02342
-8.9736967 129.60062 -30.110844 72.219093 -35.296581 137.06178 -15.920825 -32.383858
2130000000 -19.823818 -68.266342 -8.9104023 79.788139 -9.5352583 169.63852 -9.0932817 124.27254
-8.9333925 79.747818 -13.490047 -96.122162 -35.311337 83.137497 -30.241892 65.096855
-9.5916462 169.7814 -35.357105 83.279945 -14.022259 -51.039024 -35.490929 126.82437
-8.9713907 124.49716 -30.101091 65.428963 -35.318764 126.9819 -15.933409 -34.999485
2140000000 -20.242931 -66.861206 -8.9084158 74.756096 -9.5332003 164.57092 -9.0935707 119.1691
-8.9322443 74.718224 -13.474996 -98.068161 -35.348885 73.152451 -30.230288 58.408112
-9.5918407 164.70552 -35.385559 73.368439 -14.036368 -54.279297 -35.499416 116.86705
-8.9687223 119.39467 -30.080147 58.617157 -35.329491 116.90826 -15.945036 -37.555508
2150000000 -20.599499 -65.081131 -8.9102917 69.717995 -9.5321331 159.51363 -9.094079 114.06751
-8.9316492 69.69706 -13.454814 -99.978348 -35.387688 63.213539 -30.196106 51.516415
-9.5881119 159.64505 -35.414757 63.368214 -14.054403 -57.476582 -35.507538 106.82642
-8.968936 114.29414 -30.052326 51.772533 -35.326035 106.88486 -15.957353 -40.070805
2160000000 -20.902727 -62.979877 -8.9113951 64.696449 -9.5301552 154.4669 -9.0944376 108.97189
-8.9335403 64.668152 -13.429171 -101.88473 -35.40456 53.207462 -30.159327 44.607479
-9.5887938 154.59383 -35.433414 53.370354 -14.079729 -60.642128 -35.509247 96.680069
-8.9709597 109.20004 -30.020655 44.820938 -35.306858 96.781189 -15.96392 -42.528889
2170000000 -21.120163 -60.597698 -8.916296 59.676708 -9.5278597 149.42271 -9.0972385 103.88384
-8.9352779 59.638248 -13.39553 -103.79341 -35.396336 43.169357 -30.130663 37.700882
-9.5861216 149.54903 -35.447971 43.329651 -14.111667 -63.774223 -35.499622 86.524643
-8.9713688 104.10134 -29.993225 37.966244 -35.321613 86.63269 -15.97129 -44.991852
2180000000 -21.244375 -58.09322 -8.9218397 54.660175 -9.5262489 144.39142 -9.1029139 98.791946
-8.9399357 54.619255 -13.362272 -105.70312 -35.438469 33.074638 -30.12322 30.801912
-9.5830479 144.51572 -35.499187 33.246906 -14.14513 -66.875755 -35.504131 76.498459
-8.9742432 99.002472 -29.983019 31.01745 -35.326748 76.525856 -15.97986 -47.476532
2190000000 -21.278997 -55.799881 -8.9266567 49.646194 -9.522954 139.3687 -9.1052799 93.702339
-8.9456768 49.60099 -13.325395 -107.62373 -35.472237 23.08917 -30.107893 23.949253
-9.5786476 139.48824 -35.509689 23.288832 -14.176374 -69.962036 -35.506584 66.367752
-8.9795771 93.912285 -29.960583 24.197863 -35.337284 66.385345 -15.980568 -49.966412
2200000000 -21.249176 -53.688927 -8.9343147 44.62487 -9.5172052 134.355 -9.1129818 88.623306
-8.9500685 44.571346 -13.287348 -109.56895 -35.506405 13.094304 -30.070522 17.165716
-9.574049 134.45604 -35.54826 13.336609 -14.209047 -73.019051 -35.548782 56.381565
-8.9848003 88.821815 -29.932648 17.348688 -35.351856 56.444946 -15.983614 -52.510712
2210000000 -21.155556 -51.755508 -8.94102 39.601276 -9.5111113 129.33018 -9.1192703 83.542732
-8.9584723 39.538021 -13.250193 -111.50639 -35.5443 3.3579981 -30.042789 10.421811
-9.5684299 129.43338 -35.58445 3.4882081 -14.239164 -76.083527 -35.560215 46.411667
-8.9912367 83.732811 -29.901854 10.637759 -35.37149 46.496933 -15.978198 -55.054249
2220000000 -20.998468 -50.070461 -8.9534264 34.588081 -9.5046616 124.31469 -9.1282225 78.467384
-8.9695921 34.50795 -13.211493 -113.46886 -35.56488 -6.5226197 -29.992605 3.6291416
-9.5622625 124.40845 -35.613285 -6.330802 -14.271938 -79.111526 -35.573112 36.631989
-8.9997644 78.644821 -29.862345 3.9146316 -35.390686 36.662857 -15.965178 -57.608383
2230000000 -20.771284 -48.784294 -8.9656725 29.573339 -9.498642 119.30995 -9.1395578 73.390976
-8.9839306 29.495121 -13.171504 -115.44413 -35.591187 -16.342335 -29.955673 -3.0342002
-9.55585 119.38824 -35.625374 -16.210945 -14.303707 -82.11142 -35.569946 26.670809
-9.0096998 73.569939 -29.818714 -2.8226089 -35.398682 26.789936 -15.943658 -60.194622
2240000000 -20.520939 -48.033585 -8.9785376 24.577448 -9.4881563 114.30416 -9.1499681 68.331024
-8.9977551 24.501997 -13.129986 -117.43845 -35.609081 -26.255289 -29.915373 -9.8022671
-9.547555 114.37609 -35.628529 -26.174026 -14.331055 -85.06089 -35.582287 16.773901
-9.0211811 68.497704 -29.76602 -9.5206213 -35.38353 16.867556 -15.910307 -62.766762
2250000000 -20.266876 -47.713928 -8.9942389 19.594164 -9.4794292 109.29432 -9.1643686 63.283043
-9.0097313 19.512701 -13.087951 -119.45557 -35.625816 -36.137177 -29.876797 -16.490396
-9.5392618 109.35713 -35.670521 -35.990292 -14.358293 -87.975006 -35.579041 6.887888
-9.0328503 63.448395 -29.727522 -16.214037 -35.389942 6.9222894 -15.869035 -65.322342
2260000000 -20.016233 -47.650429 -9.0079184 14.61007 -9.4688005 104.27537 -9.1765404 58.236835
-9.0232086 14.524029 -13.045911 -121.45672 -35.653473 -45.953255 -29.81743 -23.010359
-9.528388 104.33417 -35.710278 -45.872475 -14.384645 -90.838135 -35.597149 -2.9989276
-9.0442276 58.396446 -29.6798 -22.797743 -35.423386 -2.8694601 -15.821562 -67.852379
2270000000 -19.762079 -47.799644 -9.023695 9.6291494 -9.457181 99.24485 -9.1904383 53.197422
-9.0377131 9.5283642 -12.998058 -123.46515 -35.701763 -55.684975 -29.763273 -29.490459
-9.5170717 99.315895 -35.740807 -55.535748 -14.413309 -93.667328 -35.636463 -12.761599
-9.0570602 53.360271 -29.619196 -29.184586 -35.449745 -12.603665 -15.770372 -70.339836
2280000000 -19.502155 -48.294735 -9.0379448 4.6478696 -9.4447021 94.215836 -9.2035246 48.166916
-9.054635 4.5468149 -12.945731 -125.48299 -35.736748 -65.298958 -29.684744 -35.925648
-9.5060339 94.296227 -35.774406 -65.114006 -14.44276 -96.420395 -35.652752 -22.391857
-9.0702286 48.324047 -29.545467 -35.648457 -35.472809 -22.317039 -15.711171 -72.783272
2290000000 -19.259012 -49.077671 -9.0523844 -0.3335295 -9.4341183 89.194176 -9.2185125 43.143936
-9.0706701 -0.41920871 -12.890757 -127.54302 -35.743771 -74.797798 -29.597914 -42.401039
-9.4937658 89.27301 -35.797958 -74.580452 -14.475687 -99.132286 -35.684643 -31.904104
-9.0827408 43.309185 -29.448078 -42.168537 -35.480904 -31.873699 -15.647839 -75.185928
2300000000 -19.040905 -50.048767 -9.0691881 -5.3139243 -9.4206953 84.166824 -9.2312002 38.134388
-9.0866375 -5.3804803 -12.831643 -129.59831 -35.749126 -84.325111 -29.510288 -48.842278
-9.4793692 84.245422 -35.806866 -84.237938 -14.508945 -101.78809 -35.681118 -41.612431
-9.0978756 38.29837 -29.367035 -48.614445 -35.489681 -41.5382 -15.581337 -77.57399
2310000000 -18.834391 -51.177181 -9.0881605 -10.286245 -9.4076805 79.139175 -9.2469311 33.140903
-9.1027031 -10.351365 -12.777063 -131.67639 -35.771137 -93.981194 -29.419621 -55.290623
-9.4668121 79.209549 -35.814445 -93.827721 -14.5446 -104.41167 -35.720078 -51.186417
-9.1130257 33.28503 -29.27746 -55.078697 -35.531338 -51.193882 -15.520161 -79.976738
2320000000 -18.643488 -52.454674 -9.1063261 -15.238431 -9.393733 74.102188 -9.2604904 28.146599
-9.1207323 -15.318962 -12.722892 -133.72153 -35.802471 -103.44079 -29.330315 -61.660046
-9.453414 74.161858 -35.839394 -103.35677 -14.581797 -107.00087 -35.76815 -60.735321
-9.1276646 28.276211 -29.181454 -61.410122 -35.561287 -60.686485 -15.456727 -82.370323
2330000000 -18.462593 -53.955536 -9.1258345 -20.188627 -9.3792162 69.070145 -9.2758236 23.167976
-9.142622 -20.272814 -12.667051 -135.76451 -35.833778 -112.85193 -29.228981 -67.959297
-9.4414253 69.114014 -35.885792 -112.72318 -14.621695 -109.56758 -35.830341 -70.273941
-9.1453819 23.283159 -29.085201 -67.730247 -35.622581 -70.13559 -15.39737 -84.783981
2340000000 -18.306231 -55.678608 -9.1460476 -25.11212 -9.3648548 64.020035 -9.2922468 18.195738
-9.1636009 -25.206697 -12.611279 -137.82231 -35.85342 -122.22173 -29.106834 -74.313766
-9.4292831 64.061897 -35.888824 -122.07774 -14.663504 -112.11276 -35.858322 -79.411186
-9.1595182 18.297729 -28.963249 -74.043373 -35.667938 -79.338982 -15.331269 -87.240051
2350000000 -18.176441 -57.561531 -9.1658535 -30.028927 -9.3506927 58.973049 -9.3075762 13.236624
-9.1849279 -30.122828 -12.559052 -139.90276 -35.856144 -131.50464 -28.990017 -80.598808
-9.4140491 59.012917 -35.892998 -131.37282 -14.705557 -114.63754 -35.90604 -88.421249
-9.1758966 13.326196 -28.841331 -80.424477 -35.700455 -88.534111 -15.260364 -89.740181
2360000000 -18.08057 -59.579521 -9.1847935 -34.930573 -9.3358746 53.915287 -9.3218126 8.2872925
-9.2032127 -35.028839 -12.506015 -141.98117 -35.864105 -141.00079 -28.864487 -86.947884
-9.3996763 53.949017 -35.913269 -140.7946 -14.744963 -117.111 -35.901825 -97.694763
-9.1902523 8.3667307 -28.717546 -86.750565 -35.729912 -97.594757 -15.188738 -92.314552
2370000000 -18.004292 -61.725498 -9.2032919 -39.827843 -9.3222427 48.848774 -9.3355074 3.3432276
-9.2215223 -39.936897 -12.459764 -144.07552 -35.893635 -150.45557 -28.742561 -93.159813
-9.3852072 48.877045 -35.952469 -150.29541 -14.782184 -119.57642 -35.939915 -106.8877
-9.2031364 3.4043341 -28.600502 -92.988228 -35.750271 -106.75735 -15.114509 -94.917969
2380000000 -17.950468 -63.970493 -9.2201853 -44.727184 -9.3081131 43.771633 -9.3478632 -1.6070675
-9.2410879 -44.838589 -12.413824 -146.19479 -35.947163 -159.64166 -28.607399 -99.438293
-9.3712168 43.789471 -35.982597 -159.61395 -14.819134 -122.01511 -35.966702 -115.83105
-9.2161274 -1.5487114 -28.459738 -99.236168 -35.789165 -115.84214 -15.031399 -97.53968
2390000000 -17.922985 -66.299507 -9.2354355 -49.625771 -9.2926359 38.689629 -9.3608456 -6.5467033
-9.2591162 -49.733906 -12.366579 -148.32387 -36.007484 -168.62564 -28.461761 -105.69379
-9.3584375 38.693153 -36.062382 -168.51715 -14.855228 -124.38202 -36.011993 -124.81376
-9.2273893 -6.5059676 -28.310673 -105.52401 -35.805607 -124.70898 -14.93553 -100.17077
2400000000 -17.91427 -68.660469 -9.2539454 -54.520763 -9.2807465 33.593063 -9.3709431 -11.488056
-9.2762022 -54.616127 -12.31939 -150.52188 -36.028637 -177.49889 -28.299358 -112.02268
-9.348628 33.604691 -36.064167 -177.31793 -14.889949 -126.69808 -36.032913 -133.6131
-9.2414961 -11.448612 -28.156765 -111.92041 -35.810791 -133.56859 -14.833144 -102.82437
2410000000 -17.917435 -71.161865 -9.2741814 -59.378304 -9.269762 28.502777 -9.3840389 -16.41847
-9.2939014 -59.498058 -12.28111 -152.73767 -36.036385 173.62802 -28.153795 -118.47093
-9.3389797 28.510946 -36.056641 173.83963 -14.919051 -128.95076 -35.991791 -142.50235
-9.2544937 -16.386425 -28.013231 -118.35196 -35.798538 -142.45042 -14.719848 -105.48355
2420000000 -17.944075 -73.763809 -9.2891617 -64.238754 -9.2606974 23.406332 -9.3940315 -21.335043
-9.3125753 -64.373367 -12.243626 -154.98434 -36.011478 164.7459 -28.019541 -124.86301
-9.3280945 23.416683 -36.067539 164.84338 -14.94161 -131.15036 -35.990593 -151.37692
-9.266511 -21.311308 -27.879642 -124.71991 -35.784439 -151.43932 -14.604629 -108.12383
2430000000 -18.007626 -76.454323 -9.3018408 -69.089851 -9.2508259 18.299032 -9.4033937 -26.265369
-9.3287306 -69.227646 -12.206134 -157.21996 -36.038189 155.7058 -27.893583 -131.20894
-9.3192015 18.310493 -36.08514 155.74055 -14.959547 -133.31612 -35.975674 -160.48384
-9.2762537 -26.22975 -27.745026 -131.03014 -35.781479 -160.55869 -14.489111 -110.71484
2440000000 -18.096975 -79.123886 -9.3147774 -73.945305 -9.2423668 13.191737 -9.4122972 -31.182041
-9.3444004 -74.072372 -12.172771 -159.49966 -36.075844 146.69899 -27.756876 -137.50165
-9.3107529 13.204878 -36.113941 146.8616 -14.975554 -135.43541 -36.015717 -169.47401
-9.2871304 -31.147839 -27.609678 -137.35857 -35.8241 -169.5638 -14.376672 -113.27934
2450000000 -18.202843 -81.786835 -9.3273869 -78.802666 -9.234066 8.0721817 -9.4200459 -36.108776
-9.3560925 -78.908424 -12.140122 -161.79643 -36.110783 138.03612 -27.60656 -143.81654
-9.3046551 8.0920038 -36.166187 138.21184 -14.992441 -137.49353 -36.056309 -178.3145
-9.296752 -36.062119 -27.459663 -143.66592 -35.882652 -178.36385 -14.264495 -115.82555
2460000000 -18.325077 -84.496918 -9.3395929 -83.662186 -9.2290926 2.9495053 -9.4297638 -41.031605
-9.365365 -83.766052 -12.110525 -164.11403 -36.130745 129.63057 -27.456594 -150.24837
-9.2986069 2.9782872 -36.189514 129.90594 -14.997795 -139.51561 -36.07972 173.16301
-9.3075485 -40.978062 -27.308321 -150.08678 -35.883095 173.21944 -14.159389 -118.37321
2470000000 -18.477383 -87.388908 -9.3507881 -88.520645 -9.2230206 -2.1670864 -9.4400253 -45.928455
-9.3770409 -88.620773 -12.09088 -166.44937 -36.135769 121.36753 -27.312275 -156.73627
-9.2933693 -2.1392286 -36.179462 121.45863 -14.999105 -141.51627 -36.087753 164.7897
-9.3149643 -45.877415 -27.169161 -156.55608 -35.901409 164.69078 -14.064203 -120.93693
2480000000 -18.672731 -90.357071 -9.363162 -93.368011 -9.2208843 -7.2883234 -9.4473534 -50.818665
-9.3891563 -93.469414 -12.079902 -168.77557 -36.084743 112.89417 -27.187693 -163.27159
-9.2902355 -7.2532058 -36.129074 113.02721 -14.992325 -143.54607 -36.054264 156.25282
-9.3229866 -50.765881 -27.045151 -163.06659 -35.859909 156.24538 -13.986599 -123.51752
2490000000 -18.923086 -93.335701 -9.3728943 -98.196991 -9.2171974 -12.411323 -9.4527397 -55.696762
-9.4020433 -98.299782 -12.079851 -171.0657 -36.052307 104.43236 -27.079584 -169.72044
-9.2878046 -12.375957 -36.080475 104.39571 -14.981738 -145.60609 -36.022446 147.57535
-9.3298674 -55.649712 -26.93313 -169.54143 -35.839771 147.51642 -13.918967 -126.12674
2500000000 -19.211504 -96.245232 -9.3801937 -103.02075 -9.2166252 -17.533308 -9.4543219 -60.567535
-9.4104347 -103.11987 -12.084086 -173.33675 -36.022293 95.719963 -26.966667 -176.11824
-9.2863121 -17.500689 -36.071732 95.936714 -14.969193 -147.68422 -36.008865 138.93983
-9.3308449 -60.527306 -26.818064 -175.96851 -35.822857 138.91594 -13.863091 -128.74611
2510000000 -19.541155 -99.155899 -9.385684 -107.8425 -9.218051 -22.652102 -9.4519625 -65.457268
-9.4167595 -107.94328 -12.097836 -175.59326 -36.003693 87.47805 -26.854191 177.44327
-9.2882538 -22.633223 -36.044029 87.500122 -14.949631 -149.79366 -35.983765 130.36024
-9.3338604 -65.413719 -26.712389 177.56462 -35.80925 130.38913 -13.811937 -131.44228
2520000000 -19.905596 -102.08816 -9.3896275 -112.66884 -9.2198076 -27.773767 -9.4516506 -70.350311
-9.4200735 -112.76578 -12.117363 -177.84184 -35.969559 79.083557 -26.750443 170.99843
-9.2927818 -27.756052 -36.007809 79.216942 -14.926369 -151.9041 -35.99538 121.94832
-9.3341999 -70.300629 -26.605694 171.12907 -35.777988 121.93861 -13.77037 -134.20357
2530000000 -20.325214 -105.12519 -9.3918943 -117.48988 -9.2257938 -32.89172 -9.4502668 -75.244011
-9.4250107 -117.58807 -12.146245 179.92664 -35.919136 70.794411 -26.649576 164.54613
-9.2958031 -32.874352 -35.956326 70.844475 -14.895427 -154.06064 -35.934086 113.52161
-9.3310003 -75.190865 -26.506048 164.66025 -35.748913 113.54642 -13.735991 -137.03377
2540000000 -20.799541 -108.14954 -9.3919096 -122.3247 -9.2315969 -38.001137 -9.4474411 -80.136032
-9.4241638 -122.40922 -12.182617 177.68707 -35.839993 62.469227 -26.566118 158.04532
