!Agilent Technologies,N5224A,MY51441093,A.09.90.21
!Agilent N5224A: A.09.90.21
!Date: Friday, December 19, 2025 16:45:57
!Correction: S11(Full 4 Port(1,2,3,4)) 
!S12(Full 4 Port(1,2,3,4)) 
!S13(Full 4 Port(1,2,3,4)) 
!S14(Full 4 Port(1,2,3,4)) 
!S21(Full 4 Port(1,2,3,4)) 
!S22(Full 4 Port(1,2,3,4)) 
!S23(Full 4 Port(1,2,3,4)) 
!S24(Full 4 Port(1,2,3,4)) 
!S31(Full 4 Port(1,2,3,4)) 
!S32(Full 4 Port(1,2,3,4)) 
!S33(Full 4 Port(1,2,3,4)) 
!S34(Full 4 Port(1,2,3,4)) 
!S41(Full 4 Port(1,2,3,4)) 
!S42(Full 4 Port(1,2,3,4)) 
!S43(Full 4 Port(1,2,3,4)) 
!S44(Full 4 Port(1,2,3,4)) 
!S4P File: Measurements: <S11,S12,S13,S14>,
!<S21,S22,S23,S24>,
!<S31,S32,S33,S34>,
!<S41,S42,S43,S44>:
# Hz S  dB   R 50
2000000000 -10.078045 -46.833694 -9.4409142 -142.08237 -9.5580521 -95.365807 -9.7839003 -123.44253
-9.4697742 -142.11855 -17.371233 -33.404873 -34.830746 -45.596992 -30.996387 -90.461212
-9.6143465 -95.195976 -34.849834 -45.391594 -23.357574 28.203276 -35.349827 -27.011669
-9.6694517 -123.20991 -30.858814 -90.234627 -35.192226 -26.965822 -14.211005 -3.5774651
2010000000 -10.242342 -50.894794 -9.4160166 -147.15506 -9.5272551 -100.56566 -9.7658777 -128.50453
-9.444521 -147.18365 -17.245749 -37.713932 -34.898693 -55.842766 -31.021826 -96.954674
-9.5789518 -100.39542 -34.921352 -55.735119 -23.07662 22.735342 -35.456673 -37.331448
-9.6490183 -128.26469 -30.887129 -96.649292 -35.295563 -37.27375 -14.167692 -7.2856007
2020000000 -10.430605 -54.926716 -9.3938665 -152.23154 -9.502058 -105.76966 -9.7474613 -133.57501
-9.4228802 -152.26082 -17.123636 -41.929462 -34.964306 -66.145798 -31.031239 -103.35925
-9.5525408 -105.59369 -34.986397 -65.913406 -22.815603 17.386703 -35.534748 -47.40995
-9.6280203 -133.32509 -30.893084 -103.08836 -35.38055 -47.500652 -14.12474 -10.982845
2030000000 -10.631719 -58.996025 -9.3733091 -157.30458 -9.476368 -110.96211 -9.7290831 -138.63123
-9.3995743 -157.33966 -17.012308 -46.090019 -35.007492 -76.514824 -31.025095 -109.86859
-9.5269794 -110.79237 -35.037094 -76.308723 -22.563461 12.036448 -35.597042 -57.715153
-9.6078873 -138.37691 -30.886454 -109.58366 -35.432663 -57.583298 -14.088492 -14.721071
2040000000 -10.856849 -63.12706 -9.3528748 -162.36813 -9.4490814 -116.16375 -9.7085876 -143.68526
-9.3770428 -162.40927 -16.908804 -50.150242 -35.046383 -86.88546 -31.023943 -116.46772
-9.4999475 -115.99663 -35.079857 -86.639694 -22.322227 6.7201457 -35.629913 -68.131958
-9.586463 -143.43068 -30.869999 -116.218 -35.480938 -67.963768 -14.05711 -18.453506
2050000000 -11.107179 -67.277245 -9.3301144 -167.44807 -9.421896 -121.36501 -9.6850138 -148.7368
-9.3539295 -167.49026 -16.817049 -54.138237 -35.115429 -97.281738 -31.010965 -123.23939
-9.4718704 -121.21478 -35.144783 -97.207771 -22.089718 1.4745935 -35.695354 -78.529213
-9.5652542 -148.49754 -30.877665 -123.02877 -35.534607 -78.526474 -14.024883 -22.153587
2060000000 -11.385024 -71.427635 -9.3047237 -172.53564 -9.3934422 -126.59405 -9.6627502 -153.81134
-9.3320637 -172.58139 -16.729397 -58.025387 -35.190186 -107.70329 -31.013054 -130.01508
-9.4480114 -126.44373 -35.214378 -107.48106 -21.860029 -3.6984925 -35.759842 -88.894424
-9.544241 -153.57095 -30.876945 -129.73302 -35.600651 -88.814194 -13.99071 -25.839319
2070000000 -11.686724 -75.582558 -9.2822266 -177.6382 -9.3676834 -131.82813 -9.6398067 -158.89282
-9.3087025 -177.68611 -16.640944 -61.830692 -35.279583 -117.94569 -31.023085 -136.69254
-9.4219379 -131.67874 -35.299477 -117.8478 -21.625673 -8.7203922 -35.842915 -99.180588
-9.5218868 -158.64275 -30.888048 -136.4091 -35.678276 -99.10994 -13.955667 -29.483496
2080000000 -12.015382 -79.762466 -9.2593927 177.26758 -9.3430872 -137.06531 -9.6201658 -163.98497
-9.2878656 177.21283 -16.558947 -65.611046 -35.316315 -128.12112 -31.008247 -143.3338
-9.3981485 -136.92986 -35.335827 -127.80115 -21.391899 -13.682508 -35.883995 -109.28069
-9.5012197 -163.73599 -30.880171 -143.01726 -35.714565 -109.22902 -13.915341 -33.10939
2090000000 -12.372361 -83.921211 -9.2386246 172.16467 -9.321249 -142.30817 -9.5999994 -169.0761
-9.2650518 172.11253 -16.483255 -69.341034 -35.335579 -138.216 -30.989424 -150.13043
-9.3752146 -142.17285 -35.38018 -137.99957 -21.155581 -18.562887 -35.890766 -119.49406
-9.4799871 -168.82721 -30.835739 -149.85463 -35.725868 -119.44049 -13.876518 -36.687218
2100000000 -12.762817 -88.110565 -9.2163954 167.05949 -9.3000879 -147.55754 -9.5805864 -174.16782
-9.2411566 167.00761 -16.411613 -72.997231 -35.373131 -148.54645 -30.952589 -156.95177
-9.3548212 -147.41821 -35.406387 -148.37457 -20.940908 -23.29928 -35.905319 -129.83902
-9.45718 -173.92783 -30.807537 -156.71382 -35.731396 -129.69435 -13.839344 -40.18465
2110000000 -13.185968 -92.301193 -9.1946869 161.94325 -9.2793322 -152.81332 -9.5594692 -179.26541
-9.2165146 161.89473 -16.349091 -76.570816 -35.391251 -158.86766 -30.921629 -163.93332
-9.3337584 -152.67915 -35.421806 -158.71313 -20.734869 -27.883215 -35.891857 -140.25821
-9.4386244 -179.03456 -30.787138 -163.63377 -35.729343 -140.09999 -13.806984 -43.591385
2120000000 -13.64771 -96.527687 -9.173439 156.80672 -9.2587919 -158.06906 -9.5402784 175.62462
-9.1952868 156.75685 -16.292431 -80.091957 -35.437508 -169.23775 -30.897665 -170.83887
-9.3149614 -157.93246 -35.4659 -168.93503 -20.536003 -32.359463 -35.911274 -150.67175
-9.4174194 175.8629 -30.755491 -170.56967 -35.73233 -150.61623 -13.779357 -46.911846
2130000000 -14.154578 -100.79756 -9.1519461 151.67018 -9.2411823 -163.33247 -9.5221624 170.52029
-9.1748075 151.62306 -16.235441 -83.514717 -35.468204 -179.42159 -30.868753 -177.75633
-9.2967196 -163.19635 -35.510044 -179.22903 -20.356379 -36.684639 -35.92688 -161.09059
-9.3988504 170.75255 -30.727596 -177.5352 -35.762012 -161.00659 -13.753565 -50.165581
2140000000 -14.711148 -105.13561 -9.1322241 146.53206 -9.2260647 -168.59825 -9.5049133 165.4137
-9.1561556 146.48695 -16.18977 -86.859962 -35.501465 170.29539 -30.831558 175.31964
-9.2841024 -168.45755 -35.528065 170.56331 -20.193542 -40.907406 -35.93475 -171.31615
-9.3815851 165.63707 -30.689394 175.63972 -35.758499 -171.29041 -13.737523 -53.361935
2150000000 -15.319974 -109.54062 -9.1141119 141.38451 -9.2140141 -173.84889 -9.4864244 160.30675
-9.1368484 141.35587 -16.147818 -90.120773 -35.494564 160.25806 -30.776054 168.35338
-9.2697783 -173.7234 -35.532715 160.39799 -20.044682 -45.055645 -35.938866 178.28101
-9.3625803 160.52916 -30.6444 168.53845 -35.75943 178.42262 -13.72977 -56.54385
2160000000 -15.994559 -114.05113 -9.0979633 136.24812 -9.2007685 -179.10596 -9.4694843 155.18797
-9.118639 136.22026 -16.115932 -93.278038 -35.496864 150.10632 -30.734703 161.26248
-9.2564898 -178.97705 -35.53894 150.17088 -19.914099 -49.119804 -35.934639 167.98827
-9.3433161 155.4187 -30.583923 161.53406 -35.736946 167.98769 -13.733779 -59.652611
2170000000 -16.739006 -118.6916 -9.0804472 131.10565 -9.1898689 175.63364 -9.4506445 150.06845
-9.0991297 131.07159 -16.087564 -96.327637 -35.48011 139.79581 -30.680523 154.23053
-9.2471218 175.75809 -35.536564 139.96404 -19.796494 -53.130966 -35.910545 157.62946
-9.3250971 150.29086 -30.541479 154.47714 -35.730286 157.76489 -13.744253 -62.746475
2180000000 -17.570625 -123.50579 -9.0657167 125.95467 -9.1810198 170.37962 -9.4334221 144.94011
-9.0833511 125.91977 -16.064125 -99.303436 -35.491226 129.446 -30.637989 147.1187
-9.2374611 170.49344 -35.534565 129.56912 -19.697031 -57.068897 -35.903473 147.32915
-9.3064089 145.15494 -30.499744 147.39471 -35.722172 147.44675 -13.76145 -65.828491
2190000000 -18.494165 -128.50015 -9.0497618 120.81377 -9.1743336 165.12502 -9.417798 139.80524
-9.0674067 120.77135 -16.043505 -102.18732 -35.490673 119.23624 -30.593447 140.12799
-9.2293482 165.24028 -35.53764 119.36921 -19.590324 -60.939278 -35.893658 136.91365
-9.2897444 140.01347 -30.464642 140.34979 -35.710247 137.03136 -13.780812 -68.867775
2200000000 -19.535126 -133.7206 -9.0353813 115.66212 -9.1697044 159.87929 -9.4048386 134.67274
-9.0531292 115.60784 -16.029793 -105.0311 -35.513428 108.89903 -30.552551 133.12999
-9.2241936 159.98943 -35.550133 109.14042 -19.496712 -64.760468 -35.883049 126.59424
-9.2761879 134.86798 -30.41399 133.35979 -35.724922 126.75188 -13.800792 -71.921165
2210000000 -20.701128 -139.3833 -9.0228558 110.50743 -9.1658525 154.64198 -9.3910904 129.53612
-9.0390301 110.43843 -16.017529 -107.82967 -35.529961 98.873718 -30.503319 126.17577
-9.2222128 154.74448 -35.5741 99.067284 -19.395256 -68.583572 -35.905293 116.51926
-9.2626343 129.72664 -30.35265 126.4135 -35.729362 116.63419 -13.820406 -74.953552
2220000000 -22.038031 -145.73169 -9.0108366 105.34987 -9.1639538 149.41113 -9.380414 124.39742
-9.0285501 105.2734 -16.016085 -110.56367 -35.538216 88.828575 -30.439779 119.2635
-9.2208681 149.50243 -35.579468 89.041084 -19.297222 -72.390923 -35.917904 106.51834
-9.251688 124.57462 -30.299576 119.50975 -35.732338 106.5491 -13.841109 -77.97509
2230000000 -23.614752 -153.09122 -9.0005112 100.19719 -9.1642923 144.19249 -9.3707695 119.25032
-9.0189791 100.11441 -16.020184 -113.26723 -35.527706 78.842903 -30.375742 112.28648
-9.2206039 144.27275 -35.570271 78.998627 -19.203983 -76.117668 -35.907284 96.30146
-9.2403116 119.43118 -30.228601 112.53297 -35.711868 96.432426 -13.861097 -80.962082
2240000000 -25.504475 -161.96303 -8.9921856 95.044006 -9.1631031 138.98152 -9.3592548 114.11356
-9.0085812 94.965393 -16.025047 -115.90962 -35.526585 68.718735 -30.315882 105.38245
-9.2194967 139.0502 -35.565128 68.831665 -19.107927 -79.771103 -35.886078 86.169769
-9.2304869 114.29105 -30.179291 105.61273 -35.69194 86.259819 -13.876095 -83.896828
2250000000 -27.770052 -173.59045 -8.9839001 89.892349 -9.1651649 133.77063 -9.3539238 108.98145
-8.9995241 89.805893 -16.033033 -118.49068 -35.527126 58.498692 -30.253483 98.56012
-9.2226429 133.8364 -35.564098 58.723858 -19.011131 -83.361679 -35.889038 75.984634
-9.2212706 109.1461 -30.113008 98.815918 -35.686718 76.155113 -13.891582 -86.749451
2260000000 -30.407286 169.15239 -8.9767647 84.740509 -9.1685104 128.57718 -9.3467302 103.8493
-8.9907465 84.649551 -16.043428 -121.05129 -35.546204 48.579857 -30.189548 91.854385
-9.2270746 128.63611 -35.592587 48.733627 -18.917574 -86.874893 -35.904659 65.989113
-9.2135401 104.01141 -30.048895 92.074547 -35.711941 66.155594 -13.903106 -89.570465
2270000000 -32.795761 140.7765 -8.9686871 79.586533 -9.17171 123.38278 -9.340991 98.720032
-8.9844351 79.488297 -16.052736 -123.55505 -35.559753 38.71833 -30.099895 85.180847
-9.2306995 123.44885 -35.61985 38.836666 -18.822315 -90.324867 -35.920654 56.052994
-9.2069702 98.870407 -29.964233 85.413582 -35.732807 56.173725 -13.917929 -92.328331
2280000000 -33.057812 102.46866 -8.9624519 74.429962 -9.1768694 118.19805 -9.3335094 93.589272
-8.9784927 74.327316 -16.068638 -125.96993 -35.554256 28.823191 -30.005836 78.575813
-9.2352037 118.27739 -35.609486 29.01684 -18.736393 -93.683853 -35.937252 46.356049
-9.2015591 93.738152 -29.865536 78.746956 -35.732368 46.500767 -13.935176 -95.031158
2290000000 -30.888124 71.547554 -8.956171 69.260834 -9.1826305 113.03902 -9.3281231 88.460464
-8.9740582 69.172173 -16.082251 -128.34399 -35.558392 19.125586 -29.893915 71.78717
-9.240881 113.11597 -35.598167 19.327381 -18.663076 -96.985588 -35.9282 36.657795
-9.1947908 88.610962 -29.750788 72.079956 -35.729225 36.725468 -13.954909 -97.664009
2300000000 -28.347605 52.623863 -8.952014 64.091751 -9.189312 107.88896 -9.3258419 83.329254
-8.969533 64.018127 -16.094381 -130.62744 -35.529499 9.2582655 -29.7896 65.145798
-9.248477 107.96937 -35.584652 9.4360781 -18.592073 -100.20592 -35.91917 26.918396
-9.1927004 83.49292 -29.650179 65.337914 -35.747746 26.993189 -13.978863 -100.23073
2310000000 -26.181208 40.422897 -8.949667 58.926228 -9.195159 102.7524 -9.3232031 78.21624
-8.9659872 58.85656 -16.1038 -132.84776 -35.536385 -0.62665874 -29.691475 58.52874
-9.253252 102.82254 -35.590733 -0.5776307 -18.53256 -103.40297 -35.931873 17.222
-9.1888599 78.363777 -29.547083 58.715839 -35.758549 17.252592 -14.005905 -102.77097
2320000000 -24.376278 31.569483 -8.9509687 53.766819 -9.1997061 97.624275 -9.3209934 73.101921
-8.9657593 53.690842 -16.118908 -134.99382 -35.555687 -10.368959 -29.573391 51.883625
-9.259244 97.677513 -35.594498 -10.236023 -18.479027 -106.53551 -35.966808 7.6767459
-9.1874342 73.234612 -29.43984 52.129467 -35.773739 7.778923 -14.03968 -105.29655
2330000000 -22.862707 24.390978 -8.9515438 48.620636 -9.205493 92.504646 -9.318284 67.992294
-8.9677944 48.531342 -16.133146 -137.10091 -35.587265 -20.095797 -29.465191 45.475391
-9.2669086 92.549706 -35.624153 -19.962402 -18.431433 -109.66098 -36.006725 -1.6752806
-9.1875343 68.110313 -29.316074 45.69241 -35.801548 -1.6634209 -14.073386 -107.82775
2340000000 -21.585949 18.03203 -8.9526615 43.484303 -9.211834 87.396759 -9.3185062 62.890404
-8.9714651 43.38987 -16.152279 -139.08047 -35.579613 -29.713274 -29.324171 38.923771
-9.2736301 87.432388 -35.633701 -29.443911 -18.398043 -112.75707 -36.010315 -10.856086
-9.187665 62.99313 -29.176493 39.166302 -35.823231 -10.747748 -14.109479 -110.33837
2350000000 -20.502495 12.168783 -8.9556026 38.34729 -9.2159405 82.290062 -9.3175831 57.795387
-8.9764452 38.25156 -16.172007 -141.01898 -35.568008 -39.170319 -29.182652 32.402138
-9.2803383 82.330933 -35.61982 -39.129631 -18.365862 -115.82758 -35.983994 -19.888411
-9.1884375 57.880787 -29.035173 32.586609 -35.792835 -19.922657 -14.142151 -112.8238
2360000000 -19.595963 6.719789 -8.9601784 33.212189 -9.2217283 77.202179 -9.3190699 52.688187
-8.9778748 33.126068 -16.188896 -142.88412 -35.568596 -48.899143 -29.04421 25.85317
-9.2850819 77.238297 -35.615833 -48.742188 -18.337339 -118.83471 -35.945793 -29.212715
-9.1871319 52.769779 -28.893375 26.029909 -35.755672 -29.042635 -14.17242 -115.32437
2370000000 -18.814074 1.5683651 -8.964592 28.094231 -9.2263927 72.125702 -9.3198595 47.595356
-8.9829702 27.991434 -16.209974 -144.72835 -35.592876 -58.500324 -28.900623 19.422733
-9.2908812 72.149086 -35.642227 -58.285023 -18.308302 -121.83308 -35.930328 -38.446491
-9.1890488 47.661896 -28.747957 19.592443 -35.715637 -38.444424 -14.199719 -117.82885
2380000000 -18.129982 -3.3635993 -8.9674778 22.97192 -9.2297153 67.046288 -9.3201485 42.490894
-8.9884348 22.861233 -16.232386 -146.51465 -35.628811 -67.976921 -28.74556 12.950075
-9.2930422 67.063164 -35.678185 -67.807343 -18.288145 -124.79678 -35.894936 -47.746998
-9.1889791 42.543709 -28.604303 13.094142 -35.68922 -47.66222 -14.225392 -120.29883
2390000000 -17.524876 -8.1332588 -8.9727087 17.840944 -9.2326527 61.977184 -9.3237457 37.386108
-8.9937372 17.73546 -16.257616 -148.22499 -35.686192 -77.127655 -28.576111 6.4562058
-9.2970991 61.981659 -35.719501 -77.019447 -18.276472 -127.67178 -35.883907 -56.974552
-9.1917505 37.425205 -28.431002 6.5762458 -35.695454 -56.875484 -14.244143 -122.69692
2400000000 -16.995205 -12.821926 -8.9804296 12.719338 -9.2324438 56.909294 -9.3273191 32.280815
-9.0023308 12.612609 -16.275141 -149.86145 -35.699345 -86.157852 -28.414618 -0.11780682
-9.3009567 56.91095 -35.734413 -86.06469 -18.269968 -130.46799 -35.866516 -66.153099
-9.1975708 32.310627 -28.264521 0.0039120237 -35.673466 -66.122375 -14.255487 -125.00705
2410000000 -16.524197 -17.466919 -8.9884901 7.6009617 -9.2358952 51.843277 -9.332654 27.181414
-9.009985 7.491209 -16.282671 -151.48167 -35.66695 -95.317314 -28.256046 -6.817493
-9.3021717 51.853245 -35.730125 -95.146835 -18.264061 -133.12129 -35.836281 -75.216133
-9.2041311 27.212084 -28.111231 -6.6627598 -35.638401 -75.183121 -14.259698 -127.2461
2420000000 -16.10853 -22.082718 -8.9980021 2.5050831 -9.237668 46.782135 -9.3387051 22.087105
-9.0218134 2.3799534 -16.278667 -153.0779 -35.662655 -104.44839 -28.110836 -13.465691
-9.3042278 46.796497 -35.706486 -104.31303 -18.259806 -135.6698 -35.828014 -84.391106
-9.211298 22.122602 -27.963594 -13.292593 -35.639755 -84.402641 -14.255136 -129.39807
2430000000 -15.743962 -26.668915 -9.007061 -2.5831077 -9.2374287 41.72916 -9.3459883 16.99605
-9.0322628 -2.719475 -16.265072 -154.66563 -35.673294 -113.70036 -27.976728 -19.967884
-9.3028498 41.742321 -35.723957 -113.5964 -18.251139 -138.14029 -35.82856 -93.753876
-9.219409 17.036304 -27.824402 -19.850332 -35.646358 -93.661499 -14.250801 -131.48474
2440000000 -15.426512 -31.249075 -9.013938 -7.67976 -9.2363405 36.673084 -9.3541174 11.909193
-9.042819 -7.8126111 -16.248158 -156.23291 -35.700008 -122.87456 -27.829416 -26.476852
-9.3016586 36.686668 -35.738499 -122.68848 -18.243404 -140.5184 -35.850765 -102.87579
-9.2281542 11.94581 -27.67601 -26.316576 -35.670387 -102.77494 -14.24719 -133.48796
2450000000 -15.155416 -35.771698 -9.0246696 -12.785262 -9.2307749 31.610355 -9.3656721 6.825181
-9.0530519 -12.891847 -16.220535 -157.77213 -35.729206 -131.76054 -27.672102 -32.997402
-9.3017807 31.631538 -35.782394 -131.63084 -18.242376 -142.78839 -35.898083 -111.67414
-9.2396164 6.8759632 -27.51738 -32.806953 -35.699924 -111.71663 -14.244582 -135.42796
2460000000 -14.920652 -40.22839 -9.0375404 -17.88872 -9.2289152 26.53739 -9.3767281 1.7569116
-9.0633821 -17.989986 -16.179426 -159.28305 -35.753204 -140.41541 -27.5028 -39.569302
-9.2982931 26.564302 -35.778095 -140.2258 -18.2411 -144.95409 -35.92429 -120.284
-9.2517614 1.8097645 -27.361158 -39.402882 -35.744232 -120.27509 -14.240671 -137.27756
2470000000 -14.716787 -44.676834 -9.0522747 -22.985138 -9.2263565 21.459637 -9.3867617 -3.293318
-9.0776329 -23.083645 -16.126736 -160.79713 -35.73843 -148.99619 -27.35042 -46.231026
-9.2962017 21.494997 -35.782764 -148.77336 -18.234034 -147.02721 -35.930569 -128.78967
-9.2635937 -3.2361434 -27.208294 -46.054947 -35.746025 -128.81236 -14.234033 -139.12889
2480000000 -14.544331 -49.185146 -9.0679703 -28.068466 -9.2244253 16.393404 -9.400774 -8.3367529
-9.0934982 -28.166718 -16.063419 -162.36038 -35.703533 -157.63496 -27.216707 -52.92466
-9.2923927 16.427877 -35.738213 -157.50978 -18.215782 -149.05742 -35.907684 -137.3474
-9.2749739 -8.2756157 -27.07152 -52.788147 -35.70451 -137.34389 -14.231121 -140.98373
2490000000 -14.410906 -53.693512 -9.0838346 -33.134186 -9.2229862 11.321736 -9.4111652 -13.365622
-9.112711 -33.232941 -16.001751 -163.9418 -35.651329 -166.41292 -27.094301 -59.599747
-9.2924843 11.357727 -35.695633 -166.21001 -18.189445 -151.0553 -35.866657 -145.99646
-9.2879705 -13.31604 -26.948904 -59.458763 -35.675179 -146.00696 -14.224913 -142.89426
2500000000 -14.317851 -58.220497 -9.0998554 -38.16777 -9.2212725 6.2516613 -9.4232445 -18.380766
-9.1302652 -38.270668 -15.936726 -165.54475 -35.607014 -175.16563 -26.979229 -66.179703
-9.2919235 6.2841272 -35.649471 -175.09636 -18.151459 -153.04648 -35.836628 -154.61131
-9.3014183 -18.342442 -26.829998 -66.049026 -35.652428 -154.65649 -14.221325 -144.83633
2510000000 -14.257402 -62.729614 -9.1175985 -43.206707 -9.2186375 1.1888585 -9.4329863 -23.399136
-9.147006 -43.306885 -15.877228 -167.18626 -35.601086 176.16397 -26.860138 -72.76297
-9.2872515 1.2068242 -35.636951 176.20392 -18.104309 -155.04254 -35.849648 -163.3481
-9.3128004 -23.367643 -26.713511 -72.615341 -35.655277 -163.24373 -14.214676 -146.84996
2520000000 -14.228675 -67.268303 -9.1347532 -48.229893 -9.2172079 -3.8893898 -9.4460716 -28.426868
-9.1642056 -48.335587 -15.811624 -168.88051 -35.565628 167.50032 -26.742355 -79.34938
-9.2883415 -3.8708663 -35.609966 167.62929 -18.047606 -157.0273 -35.803936 -171.73366
-9.3279991 -28.376709 -26.60165 -79.234261 -35.632427 -171.72005 -14.205833 -148.9335
2530000000 -14.232633 -71.875145 -9.1518087 -53.242661 -9.2166748 -8.9661703 -9.4598923 -33.432369
-9.1841497 -53.335941 -15.748425 -170.62859 -35.526062 159.12305 -26.641609 -85.960182
-9.2873287 -8.940836 -35.571358 159.13193 -17.976858 -159.00504 -35.793201 179.98244
-9.3415051 -33.370602 -26.489569 -85.823715 -35.59782 179.79292 -14.191632 -151.10588
2540000000 -14.271288 -76.541054 -9.1689034 -58.236904 -9.2156076 -14.030693 -9.4740677 -38.412666
-9.2002382 -58.329468 -15.691551 -172.49036 -35.453304 150.49117 -26.541927 -92.588921
