!Agilent Technologies,N5224A,MY51441093,A.09.90.21
!Agilent N5224A: A.09.90.21
!Date: Friday, December 19, 2025 16:46:52
!Correction: S11(Full 4 Port(1,2,3,4)) 
!S12(Full 4 Port(1,2,3,4)) 
!S13(Full 4 Port(1,2,3,4)) 
!S14(Full 4 Port(1,2,3,4)) 
!S21(Full 4 Port(1,2,3,4)) 
!S22(Full 4 Port(1,2,3,4)) 
!S23(Full 4 Port(1,2,3,4)) 
!S24(Full 4 Port(1,2,3,4)) 
!S31(Full 4 Port(1,2,3,4)) 
!S32(Full 4 Port(1,2,3,4)) 
!S33(Full 4 Port(1,2,3,4)) 
!S34(Full 4 Port(1,2,3,4)) 
!S41(Full 4 Port(1,2,3,4)) 
!S42(Full 4 Port(1,2,3,4)) 
!S43(Full 4 Port(1,2,3,4)) 
!S44(Full 4 Port(1,2,3,4)) 
!S4P File: Measurements: <S11,S12,S13,S14>,
!<S21,S22,S23,S24>,
!<S31,S32,S33,S34>,
!<S41,S42,S43,S44>:
# Hz S  dB   R 50
2000000000 -14.185723 -53.330513 -9.7335196 31.332718 -9.2378054 -169.62849 -10.319499 121.28793
-9.7610617 31.287973 -18.777603 97.007759 -34.944031 53.987999 -31.991096 -31.625118
-9.2935925 -169.45294 -34.966404 54.096893 -15.279615 4.8219919 -35.514954 143.32579
-10.20375 121.52491 -31.855257 -31.397451 -35.342121 143.40976 -14.780139 158.93602
2010000000 -14.527946 -56.012547 -9.6841364 25.636841 -9.2195349 -174.69168 -10.280742 115.52932
-9.7144022 25.610104 -19.452751 90.945732 -34.999695 43.28569 -31.960443 -39.332958
-9.2695198 -174.52092 -35.027256 43.486237 -15.390973 1.7834276 -35.569046 132.6841
-10.164234 115.77306 -31.814768 -39.107178 -35.412273 132.69734 -15.140437 155.19821
2020000000 -14.903356 -58.513371 -9.640337 19.956722 -9.2039356 -179.74957 -10.24322 109.7861
-9.6703272 19.928566 -20.115816 84.453049 -35.053963 32.775082 -31.905397 -47.012505
-9.2535601 -179.5813 -35.067524 33.005966 -15.50785 -1.2485824 -35.620274 122.05816
-10.123718 110.03271 -31.762743 -46.696507 -35.431057 122.14452 -15.517298 151.416
2030000000 -15.30063 -60.872948 -9.6016922 14.2816 -9.1878214 175.19202 -10.205384 104.05558
-9.6283283 14.255508 -20.773659 77.567787 -35.073288 22.235968 -31.844204 -54.706944
-9.2414751 175.3568 -35.112057 22.424557 -15.623456 -4.2383132 -35.631229 111.45389
-10.086176 104.30902 -31.70536 -54.387131 -35.462517 111.50047 -15.920385 147.60909
2040000000 -15.723221 -63.094753 -9.5645828 8.6174965 -9.1761122 170.13483 -10.167021 98.325058
-9.5895157 8.5823088 -21.403173 70.252762 -35.10955 11.446993 -31.780849 -62.566563
-9.2273512 170.29213 -35.144306 11.610706 -15.732579 -7.1806974 -35.678722 100.59792
-10.046943 98.581902 -31.635189 -62.251938 -35.488625 100.82199 -16.35574 143.73909
2050000000 -16.171976 -65.072685 -9.5283442 2.9597387 -9.1617889 165.06218 -10.129622 92.609215
-9.5550804 2.9181588 -21.979673 62.470108 -35.161098 0.57433099 -31.739244 -70.525352
-9.2149925 165.21675 -35.184319 0.76866627 -15.831862 -10.103214 -35.697701 89.839104
-10.01078 92.856392 -31.594492 -70.22757 -35.524971 89.877342 -16.82435 139.83858
2060000000 -16.639944 -66.80629 -9.4951448 -2.6866314 -9.1501169 159.98216 -10.094504 86.905396
-9.5228052 -2.7338536 -22.487799 54.208145 -35.219337 -10.054864 -31.702543 -78.449013
-9.2031212 160.13416 -35.262177 -9.8549671 -15.923985 -13.000101 -35.755558 79.157318
-9.9748154 87.144844 -31.557167 -78.176727 -35.571636 79.264015 -17.332916 135.86703
2070000000 -17.130194 -68.301109 -9.465456 -8.3328838 -9.1409121 154.90132 -10.060764 81.20182
-9.4919109 -8.380806 -22.91334 45.418591 -35.293198 -20.6294 -31.677683 -86.268913
-9.1926632 155.05222 -35.336926 -20.406773 -16.006533 -15.899324 -35.821613 68.622185
-9.9420481 81.440872 -31.538771 -85.955544 -35.655167 68.611565 -17.874994 131.72919
2080000000 -17.647999 -69.46125 -9.4370642 -13.964231 -9.1316376 149.8175 -10.028708 75.503525
-9.4655199 -14.016536 -23.246983 36.401001 -35.338028 -31.059105 -31.630571 -93.984688
-9.1846018 149.965 -35.353111 -30.873962 -16.08296 -18.764423 -35.860023 58.191402
-9.9092607 75.752068 -31.483101 -93.784988 -35.684483 58.328369 -18.467596 127.44655
2090000000 -18.189619 -70.17733 -9.413517 -19.57654 -9.1239843 144.73779 -9.9980049 69.825569
-9.4415665 -19.634071 -23.462444 27.233524 -35.361965 -41.507538 -31.576365 -101.82358
-9.1794939 144.87489 -35.393784 -41.332546 -16.152256 -21.559523 -35.878429 47.82848
-9.877923 70.066414 -31.43659 -101.53629 -35.695808 47.846748 -19.108622 122.9156
2100000000 -18.737671 -70.379364 -9.3930035 -25.17498 -9.1195173 139.65398 -9.9689779 64.154701
-9.4192896 -25.230196 -23.555031 18.109455 -35.386955 -52.035736 -31.514608 -109.71072
-9.1737423 139.79068 -35.403053 -51.877022 -16.214861 -24.265234 -35.876663 37.31562
-9.8470297 64.390404 -31.379547 -109.39516 -35.70821 37.388317 -19.799604 118.09718
2110000000 -19.263105 -70.013847 -9.3724928 -30.765823 -9.1143503 134.57397 -9.9389095 58.496876
-9.3963575 -30.81373 -23.502058 9.1761913 -35.396023 -62.643574 -31.454996 -117.62128
-9.1689472 134.70665 -35.429581 -62.419018 -16.264887 -26.929483 -35.889263 26.880159
-9.8178396 58.720627 -31.316 -117.39194 -35.722092 26.905735 -20.542339 112.93824
2120000000 -19.763311 -69.162109 -9.3536777 -36.34837 -9.1095791 129.49246 -9.9139986 52.840633
-9.378932 -36.387775 -23.34634 0.53893083 -35.412006 -73.129776 -31.414314 -125.55898
-9.1659775 129.63206 -35.456276 -73.059082 -16.306479 -29.562681 -35.916111 16.246149
-9.7902517 53.07196 -31.263344 -125.32069 -35.724716 16.274494 -21.322369 107.3694
2130000000 -20.236113 -67.88678 -9.3375111 -41.908791 -9.1071053 124.41396 -9.8884706 47.200882
-9.3611183 -41.946014 -23.089411 -7.5860419 -35.448231 -83.761162 -31.365583 -133.43039
-9.16327 124.55356 -35.480247 -83.571205 -16.345802 -32.134815 -35.918076 5.7405186
-9.766715 47.432251 -31.217985 -133.15604 -35.74387 5.8204055 -22.144157 101.30636
2140000000 -20.663694 -66.089455 -9.3248463 -47.455845 -9.1043701 119.33652 -9.865078 41.576855
-9.3470268 -47.490292 -22.766123 -15.162787 -35.454895 -94.271324 -31.312048 -141.29002
-9.1630898 119.47549 -35.496815 -94.04612 -16.384672 -34.672424 -35.927311 -4.6213374
-9.740818 41.799152 -31.15753 -141.03375 -35.754185 -4.5787888 -22.997412 94.596016
2150000000 -21.035946 -63.830112 -9.3125343 -52.979431 -9.1058426 114.25835 -9.8433495 35.957714
-9.335125 -53.014778 -22.379982 -22.158375 -35.462234 -104.68725 -31.238169 -149.1973
-9.1619854 114.39121 -35.52243 -104.54711 -16.415607 -37.169289 -35.914165 -15.026177
-9.7185869 36.184277 -31.096363 -148.91518 -35.730869 -15.069245 -23.878349 87.243164
2160000000 -21.314661 -61.158588 -9.2992067 -58.48584 -9.1050177 109.19569 -9.822299 30.366953
-9.3212624 -58.517921 -21.964842 -28.502207 -35.465885 -115.089 -31.176291 -157.01537
-9.1629066 109.32115 -35.50901 -115.07806 -16.441902 -39.642574 -35.895157 -25.61264
-9.6963053 30.585321 -31.03146 -156.82565 -35.727779 -25.506733 -24.76071 79.087845
2170000000 -21.49321 -58.31356 -9.2911396 -63.979919 -9.1069279 104.13301 -9.801095 24.778833
-9.3105021 -64.015053 -21.523672 -34.377239 -35.466236 -125.71854 -31.111727 -164.99785
-9.1650314 104.25739 -35.500301 -125.58416 -16.46228 -42.118679 -35.891987 -36.255386
-9.6747551 24.999681 -30.981268 -164.73445 -35.709435 -36.082787 -25.63673 70.056496
2180000000 -21.572542 -55.358238 -9.281908 -69.458931 -9.1095657 99.078186 -9.7812576 19.215845
-9.3019361 -69.491325 -21.080559 -39.745411 -35.473469 -136.27922 -31.055717 -172.8008
-9.1680193 99.194374 -35.515442 -136.13501 -16.481535 -44.613071 -35.904552 -46.839851
-9.6559877 19.426153 -30.927994 -172.58331 -35.716591 -46.776657 -26.463587 60.115078
2190000000 -21.534164 -52.553879 -9.2741785 -74.908302 -9.1119862 94.023903 -9.7621174 13.658214
-9.2942152 -74.955887 -20.633928 -44.722336 -35.493607 -146.87569 -31.012115 179.37923
-9.1689997 94.138145 -35.535702 -146.67825 -16.486582 -47.140327 -35.925472 -57.394653
-9.6363754 13.86486 -30.860901 179.64113 -35.730431 -57.375332 -27.204842 48.954948
2200000000 -21.394939 -50.114922 -9.267478 -80.349594 -9.115881 88.976974 -9.7458677 8.1227417
-9.2854919 -80.400917 -20.196451 -49.330143 -35.533047 -157.2742 -30.943985 171.7012
-9.1710148 89.087738 -35.570461 -157.06384 -16.494999 -49.683208 -35.929691 -67.829323
-9.6184416 8.3218737 -30.800972 171.93446 -35.746361 -67.722481 -27.810829 36.692795
2210000000 -21.184891 -48.209515 -9.2615404 -85.780235 -9.1192074 83.937645 -9.7285671 2.5895958
-9.2771912 -85.84433 -19.781363 -53.635777 -35.542809 -167.55519 -30.882046 164.01025
-9.1741962 84.036865 -35.584312 -167.43942 -16.493845 -52.260151 -35.943447 -78.252785
-9.599453 2.788996 -30.737865 164.25333 -35.780666 -78.11293 -28.196888 23.427588
2220000000 -20.947819 -46.736465 -9.2554235 -91.199203 -9.1219778 78.899216 -9.7128353 -2.9155264
-9.2720928 -91.270828 -19.371361 -57.685963 -35.558052 -177.85846 -30.796022 156.38869
-9.1789904 78.990356 -35.591099 -177.7377 -16.486082 -54.834396 -35.973789 -88.500732
-9.5837889 -2.7364876 -30.652634 156.58714 -35.790176 -88.477051 -28.329504 9.697978
2230000000 -20.663507 -45.694859 -9.2505808 -96.612846 -9.1269188 73.871117 -9.6969738 -8.428628
-9.2670822 -96.683533 -18.982552 -61.506386 -35.560341 171.8013 -30.723934 148.67255
-9.1830025 73.94648 -35.614204 172.0701 -16.470289 -57.436871 -35.975933 -98.848114
-9.5686235 -8.2471657 -30.586874 148.96432 -35.789467 -98.720734 -28.156723 -3.8052368
2240000000 -20.349686 -45.09536 -9.2454538 -101.99789 -9.1296825 68.84996 -9.6825008 -13.912399
-9.2656345 -102.08295 -18.608252 -65.181343 -35.55896 161.58705 -30.659269 141.10315
-9.1864223 68.91423 -35.596943 161.78276 -16.441429 -60.04731 -35.978821 -109.12984
-9.5527296 -13.749526 -30.508013 141.33217 -35.788914 -109.08591 -27.723269 -16.393187
2250000000 -20.03092 -45.049629 -9.2441826 -107.37158 -9.1337729 63.816528 -9.6703901 -19.38389
-9.2606287 -107.46219 -18.249313 -68.695587 -35.558655 151.19865 -30.581406 133.58446
-9.1905451 63.883018 -35.607468 151.38219 -16.406498 -62.678551 -35.973751 -119.56331
-9.5404186 -19.224562 -30.440184 133.82733 -35.791672 -119.48819 -27.107306 -27.726364
2260000000 -19.725201 -45.386356 -9.2409973 -112.73806 -9.1358128 58.789684 -9.6572008 -24.849346
-9.2581673 -112.82175 -17.904577 -72.08461 -35.568062 141.09248 -30.50477 126.172
-9.1958752 58.852283 -35.62154 141.19792 -16.366724 -65.267647 -36.018703 -129.78189
-9.5274305 -24.691963 -30.354958 126.39475 -35.833984 -129.67644 -26.374546 -37.684994
2270000000 -19.435484 -46.019287 -9.237669 -118.0896 -9.1383533 53.760395 -9.6469059 -30.304375
-9.2521725 -118.17662 -17.573034 -75.359413 -35.606873 131.03603 -30.406225 118.8417
-9.1976957 53.822132 -35.651775 131.12225 -16.322102 -67.854645 -36.020981 -139.89774
-9.5141478 -30.142357 -30.271301 119.08084 -35.838028 -139.75391 -25.610964 -46.257545
2280000000 -19.159006 -46.919514 -9.2351446 -123.42597 -9.141715 48.726761 -9.6334305 -35.734184
-9.2497053 -123.52088 -17.247877 -78.51416 -35.635513 120.84155 -30.30978 111.57648
-9.2020197 48.805882 -35.670677 120.99176 -16.26943 -70.402008 -36.046902 -149.95445
-9.5016689 -35.584141 -30.170391 111.71914 -35.846535 -149.91299 -24.86167 -53.733791
2290000000 -18.89966 -48.113785 -9.2308588 -128.76158 -9.1464281 43.704422 -9.6217432 -41.170795
-9.2474375 -128.85826 -16.92823 -81.588547 -35.631355 110.86555 -30.206093 104.23534
-9.2065315 43.785084 -35.67868 111.18636 -16.213879 -72.951645 -36.050968 -159.92381
-9.4875011 -41.007847 -30.057819 104.44067 -35.841515 -159.9561 -24.15922 -60.294369
2300000000 -18.670914 -49.600224 -9.2266703 -134.09274 -9.1513538 38.684025 -9.6111546 -46.586926
-9.2440271 -134.17142 -16.619329 -84.584587 -35.631069 100.90402 -30.098372 96.942024
-9.2096109 38.76643 -35.670425 101.14602 -16.154594 -75.48439 -36.03249 -170.11455
-9.47754 -46.426994 -29.954531 97.190842 -35.845482 -170.03894 -23.508677 -66.056976
2310000000 -18.486673 -51.263657 -9.2241478 -139.41237 -9.1540251 33.674168 -9.6017361 -51.974159
-9.2405539 -139.48199 -16.319786 -87.504166 -35.642899 90.924385 -29.991415 89.739769
-9.2140036 33.739079 -35.690369 91.086983 -16.096439 -78.036377 -36.046459 179.71524
-9.467556 -51.833599 -29.846144 89.94899 -35.848503 179.80635 -22.910854 -71.290657
2320000000 -18.327869 -52.966267 -9.2222538 -144.72305 -9.1570835 28.661861 -9.5908766 -57.36475
-9.2367573 -144.79622 -16.023701 -90.328949 -35.667782 81.09848 -29.870886 82.617805
-9.2194109 28.711199 -35.711826 81.109322 -16.031288 -80.579445 -36.063824 169.82805
-9.4580212 -57.233879 -29.727667 82.819473 -35.863808 169.89192 -22.373156 -76.167282
2330000000 -18.19141 -54.779736 -9.2199821 -150.0206 -9.1605167 23.653244 -9.5804014 -62.736778
-9.2347527 -150.1039 -15.742991 -93.100456 -35.702568 71.206619 -29.753073 75.552063
-9.2227793 23.697672 -35.757965 71.344238 -15.971542 -83.135818 -36.098042 159.83041
-9.4502363 -62.61953 -29.618042 75.693871 -35.896633 159.85378 -21.881348 -80.732056
2340000000 -18.068018 -56.769806 -9.2168322 -155.30765 -9.1636829 18.640923 -9.5713921 -68.103035
-9.2350273 -155.39331 -15.464124 -95.791267 -35.724567 61.615685 -29.618368 68.492134
-9.2282667 18.679998 -35.766525 61.791424 -15.906688 -85.695969 -36.104282 149.97363
-9.4417229 -67.999725 -29.477119 68.623711 -35.916355 150.10397 -21.445377 -85.107529
2350000000 -17.977701 -58.933064 -9.2155943 -160.57434 -9.1669817 13.63386 -9.5633211 -73.459618
-9.2350416 -160.66956 -15.194966 -98.435432 -35.71764 52.00676 -29.487425 61.327122
-9.2316866 13.669924 -35.760117 52.191658 -15.83993 -88.326515 -36.117268 140.19507
-9.4327822 -73.368034 -29.333279 61.534897 -35.921188 140.3438 -21.03985 -89.268898
2360000000 -17.929449 -61.220436 -9.2137394 -165.8381 -9.1705894 8.6214209 -9.5567141 -78.800819
-9.2315531 -165.93321 -14.934335 -101.05255 -35.721191 42.297962 -29.351036 54.397152
-9.2336655 8.6562443 -35.756836 42.544979 -15.771344 -90.951897 -36.129234 130.42493
-9.4249058 -78.720009 -29.210716 54.531807 -35.924339 130.42467 -20.664501 -93.283195
2370000000 -17.90786 -63.559357 -9.2104969 -171.0956 -9.1724024 3.609802 -9.5501566 -84.125046
-9.2275238 -171.20154 -14.685542 -103.64043 -35.746784 32.719398 -29.218523 47.456856
-9.2362909 3.6295464 -35.793705 32.675804 -15.703764 -93.606972 -36.146297 120.54887
-9.4176016 -84.067627 -29.069004 47.58622 -35.956257 120.56553 -20.312073 -97.155602
2380000000 -17.912909 -65.921761 -9.2064419 -176.35426 -9.1751432 -1.4136571 -9.5431414 -89.458397
-9.2274132 -176.47672 -14.443912 -106.19025 -35.786777 23.019871 -29.068428 40.511578
-9.2402773 -1.400605 -35.835461 23.253239 -15.630298 -96.249016 -36.203323 110.90512
-9.4111423 -89.398476 -28.918386 40.720039 -36.017883 110.92657 -19.972979 -100.92298
2390000000 -17.94186 -68.350006 -9.203867 178.37985 -9.1779766 -6.4310865 -9.535265 -94.757309
-9.2267132 178.26939 -14.209982 -108.72776 -35.833832 13.851069 -28.905556 33.679192
-9.2435179 -6.4268851 -35.872257 13.967002 -15.551671 -98.906441 -36.257328 101.42278
-9.4049263 -94.717201 -28.755705 33.841999 -36.080894 101.50194 -19.652981 -104.52564
2400000000 -17.997011 -70.827377 -9.2036371 173.12183 -9.1827412 -11.45274 -9.5299883 -100.06486
-9.2267418 173.0206 -13.980733 -111.2799 -35.868237 4.6365519 -28.734293 26.681391
-9.2500467 -11.454193 -35.902405 4.7757249 -15.465668 -101.59077 -36.302364 92.229858
-9.4004049 -100.02869 -28.583406 26.823042 -36.093788 92.239548 -19.350281 -107.94038
2410000000 -18.072611 -73.312309 -9.204833 167.8756 -9.1886969 -16.47646 -9.524353 -105.34569
-9.2264395 167.76714 -13.758023 -113.84491 -35.838463 -4.460619 -28.567928 19.614386
-9.2567062 -16.475037 -35.903358 -4.3514404 -15.378825 -104.30434 -36.293594 83.07473
-9.3947001 -105.32312 -28.424486 19.755106 -36.089279 83.048805 -19.06234 -111.1408
2420000000 -18.161983 -75.842186 -9.2063217 162.63934 -9.195281 -21.501163 -9.5166349 -110.63706
-9.2282944 162.51714 -13.54592 -116.43363 -35.83828 -13.705811 -28.421373 12.519673
-9.2623711 -21.486778 -35.876122 -13.650943 -15.290755 -107.02454 -36.288803 73.866943
-9.3896351 -110.61015 -28.270943 12.728004 -36.0993 73.851616 -18.781162 -114.12038
2430000000 -18.280424 -78.445389 -9.2060909 157.41924 -9.199192 -26.513165 -9.510766 -115.91325
-9.2310581 157.28017 -13.340906 -119.02815 -35.837872 -23.005816 -28.279604 5.5434618
-9.268898 -26.501104 -35.88797 -22.930038 -15.203394 -109.75783 -36.290924 64.416206
-9.3841324 -115.88218 -28.138174 5.7953453 -36.089996 64.464409 -18.515163 -116.8951
2440000000 -18.429716 -81.105209 -9.2068291 152.19843 -9.2046204 -31.526371 -9.5051823 -121.18403
-9.2346191 152.06052 -13.141307 -121.61874 -35.875256 -32.241135 -28.130516 -1.3309786
-9.274951 -31.51296 -35.911034 -32.104729 -15.116817 -112.47136 -36.309475 55.196457
-9.3815041 -121.14278 -27.984583 -1.1404122 -36.121342 55.142853 -18.26902 -119.54482
2450000000 -18.621588 -83.717812 -9.2076149 146.97675 -9.209322 -36.548244 -9.5011864 -126.44505
-9.2358332 146.86182 -12.942237 -124.2159 -35.922882 -41.095699 -27.964994 -8.2140703
-9.2800808 -36.527298 -35.961597 -40.989098 -15.028821 -115.18357 -36.355167 46.23774
-9.3762474 -126.3962 -27.818037 -8.0690422 -36.154255 46.1912 -18.051373 -122.03825
2460000000 -18.851397 -86.175301 -9.2087984 141.75227 -9.2158041 -41.574261 -9.4972239 -131.70221
-9.235301 141.65358 -12.747616 -126.83485 -35.946102 -49.885693 -27.808603 -15.198061
-9.2846413 -41.547096 -35.982914 -49.671429 -14.943757 -117.94684 -36.355106 37.459766
-9.37325 -131.65018 -27.659815 -15.03056 -36.182541 37.516708 -17.854979 -124.33779
2470000000 -19.093142 -88.519081 -9.2101402 136.52382 -9.2218037 -46.585567 -9.4952021 -136.94838
-9.2380142 136.43518 -12.563342 -129.49869 -35.923317 -58.485176 -27.658287 -22.255505
-9.2915478 -46.563168 -35.982922 -58.344875 -14.860898 -120.73444 -36.338509 28.734688
-9.3708906 -136.8867 -27.509617 -22.122452 -36.138065 28.710766 -17.679279 -126.52879
2480000000 -19.348776 -90.848244 -9.2158976 131.31468 -9.2292509 -51.596909 -9.4939299 -142.16583
-9.2405405 131.21713 -12.39275 -132.15364 -35.88089 -67.159775 -27.522167 -29.327394
-9.2991285 -51.573605 -35.931587 -66.969116 -14.789058 -123.56307 -36.280277 20.030119
-9.3683357 -142.11446 -27.383396 -29.159325 -36.078243 19.973894 -17.517279 -128.61328
2490000000 -19.640736 -93.201752 -9.2189398 126.11947 -9.2356052 -56.614994 -9.4907179 -147.37633
-9.2480669 126.01272 -12.232599 -134.80222 -35.848965 -75.949554 -27.409575 -36.34494
-9.3055916 -56.5802 -35.882561 -75.751564 -14.728306 -126.38858 -36.208508 11.260732
-9.3682508 -147.32686 -27.257914 -36.164536 -36.031059 11.191516 -17.364185 -130.68036
2500000000 -19.964777 -95.531891 -9.2232533 120.9334 -9.2407732 -61.628143 -9.4881668 -152.56618
-9.2534561 120.83305 -12.084283 -137.41023 -35.820675 -84.814873 -27.290495 -43.27383
-9.3123045 -61.593281 -35.852455 -84.627663 -14.671691 -129.2281 -36.166206 2.29145
-9.3673506 -152.52605 -27.147211 -43.090855 -35.983406 2.2494612 -17.224836 -132.75159
2510000000 -20.323038 -97.877419 -9.2283077 115.75318 -9.2488441 -66.6371 -9.4838619 -157.75208
-9.2593422 115.6557 -11.94586 -139.99727 -35.802891 -93.518204 -27.179585 -50.122116
-9.3176422 -66.613289 -35.855667 -93.335358 -14.616701 -132.09087 -36.136936 -6.5207973
-9.3648987 -157.71025 -27.028049 -49.987267 -35.943192 -6.4867525 -17.089334 -134.87492
2520000000 -20.730093 -100.15649 -9.2342558 110.58601 -9.2549448 -71.652847 -9.4819717 -162.9317
-9.2638407 110.48011 -11.814475 -142.59489 -35.775711 -102.1384 -27.063313 -57.026733
-9.3258753 -71.638916 -35.820004 -101.96564 -14.569044 -134.97415 -36.093121 -15.137937
-9.3636904 -162.88286 -26.919786 -56.876152 -35.8927 -15.141418 -16.960928 -136.97234
2530000000 -21.184095 -102.4547 -9.2388821 105.42571 -9.2645149 -76.662086 -9.479928 -168.0965
-9.2710695 105.32396 -11.694906 -145.16913 -35.732555 -110.63429 -26.967245 -63.937347
-9.3356171 -76.644699 -35.776531 -110.51389 -14.52418 -137.84251 -36.022312 -23.76989
-9.361351 -168.04868 -26.81465 -63.771744 -35.839596 -23.73637 -16.832527 -139.14383
2540000000 -21.708164 -104.60716 -9.2430716 100.26054 -9.2717495 -81.67012 -9.4776411 -173.2515
-9.2771816 100.16515 -11.589889 -147.75854 -35.678638 -119.24763 -26.871811 -70.836388
