!Agilent Technologies,N5224A,MY51441093,A.09.90.21
!Agilent N5224A: A.09.90.21
!Date: Friday, December 19, 2025 16:44:06
!Correction: S11(Full 4 Port(1,2,3,4)) 
!S12(Full 4 Port(1,2,3,4)) 
!S13(Full 4 Port(1,2,3,4)) 
!S14(Full 4 Port(1,2,3,4)) 
!S21(Full 4 Port(1,2,3,4)) 
!S22(Full 4 Port(1,2,3,4)) 
!S23(Full 4 Port(1,2,3,4)) 
!S24(Full 4 Port(1,2,3,4)) 
!S31(Full 4 Port(1,2,3,4)) 
!S32(Full 4 Port(1,2,3,4)) 
!S33(Full 4 Port(1,2,3,4)) 
!S34(Full 4 Port(1,2,3,4)) 
!S41(Full 4 Port(1,2,3,4)) 
!S42(Full 4 Port(1,2,3,4)) 
!S43(Full 4 Port(1,2,3,4)) 
!S44(Full 4 Port(1,2,3,4)) 
!S4P File: Measurements: <S11,S12,S13,S14>,
!<S21,S22,S23,S24>,
!<S31,S32,S33,S34>,
!<S41,S42,S43,S44>:
# Hz S  dB   R 50
2000000000 -10.007561 -47.417328 -9.538599 -73.53315 -9.6665049 -75.03051 -9.7200022 -74.913612
-9.566205 -73.570007 -20.367664 109.42635 -35.048691 42.716591 -30.97484 25.947079
-9.7236185 -74.861763 -35.079769 42.982212 -20.224852 90.34375 -35.329632 41.875378
-9.6072245 -74.68264 -30.842077 26.137272 -35.152168 41.926609 -20.440886 100.21542
2010000000 -10.200302 -51.553871 -9.5060606 -78.695366 -9.6332293 -80.198807 -9.691247 -80.077721
-9.5363493 -78.715912 -20.521679 104.44972 -35.107178 32.461456 -30.99214 19.310747
-9.6867495 -80.027481 -35.153503 32.61396 -20.215687 85.503372 -35.414375 31.667971
-9.5771446 -79.830536 -30.848392 19.552906 -35.246414 31.664721 -20.474749 95.201897
2020000000 -10.42382 -55.656883 -9.4782667 -83.856964 -9.604928 -85.373993 -9.6636429 -85.252243
-9.5063601 -83.874748 -20.679255 99.336319 -35.186375 22.144329 -30.983858 12.721147
-9.6555834 -85.197182 -35.208591 22.323435 -20.220301 80.67411 -35.471039 21.475889
-9.5449953 -84.990746 -30.837866 12.912672 -35.303703 21.612528 -20.512587 90.174835
2030000000 -10.667458 -59.700615 -9.45049 -89.023537 -9.5750475 -90.552132 -9.6336346 -90.427505
-9.4749298 -89.038506 -20.841101 94.105042 -35.242279 11.888335 -30.959763 6.033319
-9.6257486 -90.369499 -35.260956 12.082253 -20.234039 75.836449 -35.528011 11.218328
-9.5152769 -90.164314 -30.814604 6.2222672 -35.362362 11.234499 -20.567188 85.159584
2040000000 -10.927687 -63.740318 -9.420001 -94.194038 -9.5455942 -95.719894 -9.6057863 -95.597206
-9.4430637 -94.219833 -21.009954 88.803764 -35.2873 1.4356973 -30.929819 -0.89042801
-9.5977774 -95.556267 -35.309689 1.6429268 -20.259371 70.930611 -35.54911 0.68553597
-9.484827 -95.340675 -30.78334 -0.64752978 -35.383408 0.91632658 -20.639929 80.036324
2050000000 -11.208207 -67.780609 -9.3877668 -99.375885 -9.5160275 -100.90816 -9.575078 -100.77104
-9.4134417 -99.408234 -21.185801 83.412025 -35.330357 -9.0093031 -30.915634 -7.858983
-9.567605 -100.74782 -35.377636 -9.002738 -20.296827 65.984604 -35.619068 -9.7531433
-9.4566689 -100.52467 -30.773283 -7.594028 -35.44743 -9.6874094 -20.727016 74.924377
2060000000 -11.514378 -71.827156 -9.3571758 -104.56483 -9.4850988 -106.10118 -9.5450583 -105.96425
-9.3845377 -104.60394 -21.356422 77.971321 -35.406559 -19.485981 -30.910189 -14.812051
-9.5390625 -105.95007 -35.433445 -19.320532 -20.336075 61.016716 -35.675877 -20.280241
-9.4270649 -105.71645 -30.770639 -14.56695 -35.51585 -20.204168 -20.818949 69.687378
2070000000 -11.849156 -75.852737 -9.3300285 -109.77848 -9.4577551 -111.31113 -9.5171003 -111.17322
-9.355937 -109.81181 -21.53001 72.436234 -35.467377 -29.781349 -30.907688 -21.778231
-9.5095806 -111.15443 -35.504429 -29.640753 -20.370461 56.007187 -35.767239 -30.536591
-9.3995352 -110.91463 -30.773289 -21.465654 -35.599392 -30.373074 -20.903782 64.405991
2080000000 -12.209037 -79.845581 -9.3026848 -114.98617 -9.4308834 -116.52461 -9.4900293 -116.36979
-9.3296537 -115.02379 -21.696074 66.763 -35.51651 -39.998268 -30.890627 -28.638964
-9.482378 -116.37202 -35.55143 -39.849178 -20.403484 50.920818 -35.809368 -40.736217
-9.3722792 -116.11266 -30.746857 -28.282139 -35.651882 -40.696049 -20.987398 58.917767
2090000000 -12.594963 -83.801437 -9.279912 -120.19345 -9.4035959 -121.73862 -9.4643164 -121.57893
-9.3035221 -120.23786 -21.870132 60.95715 -35.540066 -50.18745 -30.85166 -35.595375
-9.4580803 -121.59406 -35.593525 -49.997059 -20.427547 45.799454 -35.829765 -50.97702
-9.345809 -121.31906 -30.719114 -35.290836 -35.647243 -50.996632 -21.057018 53.320736
2100000000 -13.010982 -87.773384 -9.2549276 -125.39964 -9.3799343 -126.96042 -9.4398632 -126.78092
-9.2786112 -125.44202 -22.039522 55.085403 -35.572636 -60.610424 -30.82057 -42.7062
-9.4334774 -126.81455 -35.609734 -60.352112 -20.449163 40.660465 -35.847839 -61.438808
-9.3182907 -126.52931 -30.668072 -42.394417 -35.661911 -61.291626 -21.108999 47.658596
2110000000 -13.465487 -91.72673 -9.2298946 -130.61139 -9.3547983 -132.18379 -9.4143372 -131.99109
-9.2531414 -130.64485 -22.202112 49.109451 -35.603664 -70.811226 -30.773769 -49.711689
-9.4106092 -132.04666 -35.625492 -70.705254 -20.470242 35.533997 -35.860634 -71.986198
-9.2946424 -131.75432 -30.645514 -49.499611 -35.684853 -71.870041 -21.143335 41.954422
2120000000 -13.965206 -95.648094 -9.2077036 -135.83281 -9.3321638 -137.41187 -9.3902035 -137.21335
-9.2292852 -135.85931 -22.360958 43.06385 -35.609261 -81.135521 -30.751268 -56.831261
-9.3875303 -137.27577 -35.652004 -81.020782 -20.482855 30.508345 -35.893677 -82.444733
-9.2682199 -136.97174 -30.616013 -56.581158 -35.711594 -82.300522 -21.156874 36.358868
2130000000 -14.508004 -99.491432 -9.1822319 -141.05408 -9.3113031 -142.64906 -9.3682289 -142.43417
-9.2055817 -141.07138 -22.495443 36.906796 -35.63192 -91.469604 -30.717901 -63.90625
-9.3670721 -142.50258 -35.68166 -91.333801 -20.493484 25.532011 -35.902573 -92.850067
-9.2470217 -142.19566 -30.588642 -63.736839 -35.740021 -92.799728 -21.146652 30.84532
2140000000 -15.093441 -103.29254 -9.1646748 -146.27515 -9.2928381 -147.88303 -9.3484173 -147.66046
-9.1845474 -146.29916 -22.615261 30.630735 -35.654896 -101.74421 -30.678837 -71.043289
-9.349988 -147.73021 -35.69281 -101.54209 -20.495211 20.629246 -35.938854 -103.1843
-9.2260437 -147.42253 -30.545046 -70.787209 -35.750988 -103.02861 -21.123915 25.425493
2150000000 -15.720459 -107.0906 -9.1468 -151.49931 -9.2762547 -153.11086 -9.3290777 -152.88074
-9.1655474 -151.52414 -22.709654 24.265007 -35.648396 -111.98054 -30.624805 -78.205902
-9.3329449 -152.9698 -35.686142 -111.80807 -20.502384 15.773926 -35.930878 -113.54055
-9.2065248 -152.6414 -30.49678 -77.940079 -35.762325 -113.36078 -21.095366 20.109297
2160000000 -16.409044 -110.91048 -9.1277151 -156.71671 -9.2587023 -158.33057 -9.3092422 -158.09921
-9.1477957 -156.73404 -22.771166 17.910427 -35.634766 -122.18977 -30.586346 -85.384819
-9.3156195 -158.19434 -35.667702 -122.05873 -20.515118 11.032183 -35.92807 -123.92313
-9.186944 -157.86252 -30.448143 -85.114868 -35.75919 -123.83418 -21.06559 14.972516
2170000000 -17.160517 -114.72453 -9.1099825 -161.93436 -9.2441902 -163.55527 -9.2920208 -163.32471
-9.1294928 -161.94426 -22.814857 11.580378 -35.629333 -132.52986 -30.531515 -92.585938
-9.3002701 -163.42004 -35.674732 -132.39774 -20.530466 6.34235 -35.919331 -134.17148
-9.1677504 -163.0891 -30.395914 -92.261757 -35.752419 -134.25955 -21.038525 9.9409037
2180000000 -17.988663 -118.57572 -9.0960932 -167.1526 -9.2299585 -168.77696 -9.2757196 -168.54321
-9.1122408 -167.17075 -22.828722 5.3424244 -35.623928 -143.00587 -30.49157 -99.827034
-9.2853985 -168.65465 -35.686356 -142.88055 -20.55299 1.7437528 -35.911785 -144.82483
-9.1500483 -168.31584 -30.352568 -99.519318 -35.745758 -144.64053 -21.025105 5.0352783
2190000000 -18.901329 -122.47278 -9.0817747 -172.35722 -9.217824 -173.99945 -9.2582321 -173.77055
-9.0975485 -172.39354 -22.806269 -0.89371991 -35.639889 -153.29243 -30.446568 -106.96217
-9.2729473 -173.87926 -35.678532 -153.30568 -20.568077 -2.8655419 -35.920723 -155.31889
-9.1336174 -173.54454 -30.324486 -106.64581 -35.747791 -155.16408 -21.004637 0.21339889
2200000000 -19.927311 -126.35629 -9.0688009 -177.56165 -9.2062988 -179.22011 -9.2460079 -178.98557
-9.0846167 -177.5993 -22.761353 -6.9469919 -35.639282 -163.65434 -30.41255 -113.99766
-9.2618313 -179.10446 -35.703239 -163.59508 -20.584372 -7.3958244 -35.942467 -165.52336
-9.1186705 -178.77446 -30.273935 -113.70072 -35.760803 -165.47697 -20.994057 -4.6163645
2210000000 -21.079586 -130.20656 -9.0552778 177.2375 -9.1967392 175.56879 -9.2333622 175.79654
-9.0723171 177.19142 -22.687572 -12.909548 -35.658257 -173.7226 -30.35288 -120.99447
-9.252142 175.67365 -35.708893 -173.74872 -20.601067 -12.010906 -35.952419 -175.90746
-9.106596 176.00327 -30.213478 -120.72358 -35.778694 -175.79683 -20.979452 -9.454524
2220000000 -22.380226 -134.07968 -9.0451069 172.04741 -9.1882076 170.35973 -9.2239618 170.58325
-9.0595274 171.98642 -22.598228 -18.786228 -35.65799 176.12204 -30.290152 -127.95436
-9.2449446 170.45663 -35.702282 176.19684 -20.617712 -16.616451 -35.957378 173.94392
-9.0953798 170.77663 -30.154131 -127.67151 -35.763462 174.09096 -20.967331 -14.319355
2230000000 -23.874186 -138.08858 -9.0355654 166.84984 -9.1807442 165.16734 -9.2143631 165.37318
-9.0490608 166.77858 -22.500103 -24.49202 -35.648624 165.88837 -30.226526 -134.9742
-9.2385788 165.2482 -35.703369 166.10381 -20.630724 -21.194815 -35.943081 163.78113
-9.0863285 165.56131 -30.091465 -134.7205 -35.766762 163.83989 -20.946463 -19.160412
2240000000 -25.663252 -142.4386 -9.0250473 161.65324 -9.1733055 159.97192 -9.2055111 160.17981
-9.0407362 161.57857 -22.394127 -30.10136 -35.621414 155.68941 -30.164448 -141.91449
-9.2317619 160.05011 -35.680386 155.80913 -20.626886 -25.769686 -35.932674 153.56825
-9.0770531 160.35786 -30.022703 -141.6416 -35.760036 153.62827 -20.913944 -23.956373
2250000000 -27.889381 -147.14616 -9.0169392 156.46466 -9.1684122 154.78638 -9.1983442 154.97839
-9.0319805 156.38913 -22.271967 -35.541428 -35.618332 145.57588 -30.104507 -148.85573
-9.2266026 154.85768 -35.674324 145.78644 -20.624287 -30.289867 -35.956966 143.19299
-9.0687666 155.16362 -29.953173 -148.53308 -35.756008 143.41016 -20.866518 -28.718842
2260000000 -30.849871 -152.53406 -9.0099773 151.27805 -9.1633186 149.59689 -9.191885 149.79167
-9.0247135 151.20161 -22.142061 -40.891376 -35.639912 135.51178 -30.021225 -155.60794
-9.2225647 149.66797 -35.690193 135.59285 -20.600662 -34.801086 -35.956341 133.15994
-9.060791 149.96632 -29.878742 -155.40184 -35.770893 133.33792 -20.806389 -33.418854
2270000000 -35.180145 -159.99678 -9.0033178 146.09908 -9.1579056 144.42131 -9.1861305 144.61081
-9.0164919 146.02606 -22.003359 -46.152309 -35.643959 125.51955 -29.93191 -162.362
-9.2176313 144.48718 -35.696014 125.68443 -20.571842 -39.256008 -35.96693 123.15561
-9.0545626 144.77878 -29.79748 -162.1436 -35.784241 123.4896 -20.732019 -38.002403
2280000000 -43.137505 179.09811 -8.9965219 140.93073 -9.1559038 139.24942 -9.1794338 139.43434
-9.0104828 140.85263 -21.855801 -51.270813 -35.648884 115.64996 -29.826349 -169.10774
-9.2154531 139.32179 -35.707325 115.77668 -20.538679 -43.618973 -35.983234 113.45536
-9.0486937 139.60043 -29.693081 -168.85097 -35.789764 113.67214 -20.651344 -42.466202
2290000000 -44.44754 60.124012 -8.9899397 135.763 -9.1533737 134.07866 -9.174015 134.25774
-9.0050077 135.67192 -21.707636 -56.287064 -35.636868 105.74889 -29.721338 -175.89207
-9.2124252 134.15154 -35.686623 105.84493 -20.505899 -47.900143 -35.964828 103.76855
-9.0416584 134.42455 -29.565636 -175.64487 -35.758865 103.84648 -20.575134 -46.8204
2300000000 -35.84515 33.778172 -8.9862976 130.5834 -9.1521072 128.92189 -9.1705265 129.08867
-9.0011177 130.51108 -21.550039 -61.114513 -35.604195 95.781029 -29.616884 177.42601
-9.2075987 129.00002 -35.66399 95.983665 -20.47397 -52.081604 -35.947346 93.924019
-9.0349941 129.26314 -29.473814 177.63499 -35.757446 94.045723 -20.497477 -50.965988
2310000000 -31.510895 25.157328 -8.9807472 125.42319 -9.1487589 123.77283 -9.1645308 123.9314
-8.9944763 125.35503 -21.376776 -65.802429 -35.60714 85.919434 -29.506393 170.73172
-9.2065277 123.84424 -35.667809 85.976639 -20.436878 -56.187057 -35.934589 84.13485
-9.0303411 124.08572 -29.363266 170.92012 -35.754219 84.351387 -20.421015 -55.025166
2320000000 -28.726692 19.439003 -8.9761391 120.26391 -9.146286 118.63115 -9.1615477 118.78107
-8.9902563 120.19878 -21.200239 -70.360542 -35.610199 76.071785 -29.385065 164.15845
-9.2072029 118.69498 -35.675114 76.179153 -20.403801 -60.240356 -35.938404 74.566681
-9.0302477 118.9202 -29.24461 164.32249 -35.75565 74.657356 -20.357317 -59.040367
2330000000 -26.704435 15.153667 -8.9725161 115.11053 -9.1448183 113.4976 -9.1605749 113.63712
-8.9869471 115.04034 -21.021875 -74.80246 -35.649666 66.340721 -29.260115 157.58836
-9.2044401 113.54178 -35.692211 66.460037 -20.374393 -64.214096 -35.95911 65.014931
-9.0272427 113.76173 -29.12019 157.81909 -35.757408 65.192223 -20.299541 -63.000977
2340000000 -25.093691 11.385113 -8.9696999 109.97141 -9.1431618 108.36371 -9.1557121 108.50155
-8.9855289 109.8885 -20.855766 -79.068008 -35.64053 56.829193 -29.113283 151.01128
-9.2044029 108.39033 -35.699364 56.939247 -20.35449 -68.124756 -35.926376 55.844227
-9.0240936 108.60926 -28.96739 151.22038 -35.744144 55.966141 -20.261379 -66.919655
2350000000 -23.737455 7.7208538 -8.9682741 104.84083 -9.143877 103.23038 -9.1524973 103.36777
-8.9851532 104.7542 -20.697628 -83.156868 -35.634235 47.305416 -28.965572 144.35266
-9.2044907 103.26257 -35.679996 47.427971 -20.340439 -72.019707 -35.871773 46.45076
-9.0228338 103.46995 -28.817253 144.56764 -35.69006 46.573174 -20.219444 -70.821053
2360000000 -22.610163 4.0737696 -8.9664183 99.714119 -9.1421194 98.104645 -9.1492176 98.244843
-8.983448 99.626556 -20.541338 -87.076851 -35.607811 37.598698 -28.817598 137.73769
-9.2048635 98.134087 -35.659378 37.734177 -20.321709 -75.810509 -35.817856 37.055923
-9.0188932 98.33033 -28.676466 137.90541 -35.62442 37.198444 -20.187502 -74.729698
2370000000 -21.663464 0.34098446 -8.9638233 94.60273 -9.1430311 92.992622 -9.1462221 93.108231
-8.9806032 94.500153 -20.390818 -90.851891 -35.633205 28.05035 -28.671957 131.20313
-9.2051287 93.010468 -35.702316 28.09304 -20.303495 -79.651466 -35.77494 27.231808
-9.0147181 93.185806 -28.528843 131.39384 -35.575977 27.496956 -20.152596 -78.644432
2380000000 -20.849644 -3.3019164 -8.9611311 89.47773 -9.1428661 87.878235 -9.1443586 87.977402
-8.9788322 89.372139 -20.252054 -94.560234 -35.671589 18.607946 -28.521116 124.66959
-9.2071819 87.894691 -35.726448 18.632843 -20.288919 -83.397133 -35.748295 17.845123
-9.0126238 88.041298 -28.375202 124.83266 -35.550476 17.990904 -20.119209 -82.555046
2390000000 -20.132204 -6.8486886 -8.9579535 84.355469 -9.1423512 82.777687 -9.1405554 82.84478
-8.977005 84.248566 -20.129963 -98.13546 -35.708527 9.4644299 -28.350485 118.11774
-9.2056093 82.777504 -35.766735 9.455904 -20.280363 -87.096779 -35.744137 8.2677145
-9.0109434 82.895752 -28.202467 118.25938 -35.557178 8.4114895 -20.073936 -86.418221
2400000000 -19.501722 -10.435302 -8.9573278 79.231407 -9.1421976 77.673203 -9.1411076 77.71244
-8.9766407 79.12397 -20.024914 -101.57782 -35.709675 0.34626395 -28.188948 111.50856
-9.2074718 77.669724 -35.766769 0.34190232 -20.272509 -90.684708 -35.749958 -0.93798059
-9.0109968 77.755943 -28.037516 111.65148 -35.550396 -0.85461771 -20.028656 -90.139259
2410000000 -18.935472 -14.079692 -8.9564371 74.119156 -9.1438274 72.578461 -9.1428919 72.593452
-8.9765778 74.009529 -19.932781 -104.87684 -35.667957 -8.6495552 -28.02861 104.81017
-9.2083683 72.571396 -35.745026 -8.5577002 -20.266924 -94.102547 -35.732697 -10.122991
-9.0131607 72.634354 -27.880508 104.94016 -35.537292 -9.9969225 -19.974566 -93.676895
2420000000 -18.43605 -17.689949 -8.9565115 69.011108 -9.1408157 67.478752 -9.1419544 67.477806
-8.97754 68.894516 -19.83445 -108.04947 -35.664448 -17.831505 -27.877405 98.171219
-9.2081451 67.478264 -35.714848 -17.846088 -20.245615 -97.384567 -35.725517 -19.284126
-9.0138254 67.51503 -27.735744 98.306389 -35.523674 -19.164127 -19.902487 -97.058273
2430000000 -17.992941 -21.277372 -8.9556875 63.911831 -9.141036 62.380699 -9.1405373 62.363636
-8.97752 63.789883 -19.731775 -111.1272 -35.660828 -27.164894 -27.742195 91.633026
-9.2086201 62.384804 -35.701195 -27.000149 -20.222507 -100.57034 -35.719471 -28.651985
-9.015049 62.400589 -27.590542 91.779808 -35.51923 -28.505367 -19.819443 -100.21672
2440000000 -17.580961 -24.866968 -8.9556952 58.815308 -9.1410265 57.293453 -9.1418295 57.243141
-8.9781609 58.687103 -19.639797 -114.11082 -35.66544 -36.260975 -27.58749 85.117569
-9.2081823 57.292221 -35.726032 -36.153702 -20.200798 -103.65052 -35.753265 -37.722404
-9.0157337 57.291893 -27.438745 85.303795 -35.557308 -37.546463 -19.745167 -103.21851
2450000000 -17.206261 -28.551575 -8.9526396 53.712296 -9.139431 52.187141 -9.142765 52.126923
-8.9790468 53.599773 -19.548943 -117.01031 -35.693687 -45.257019 -27.419022 78.633423
-9.208415 52.206013 -35.757851 -45.05846 -20.178122 -106.57768 -35.780033 -46.662659
-9.0173903 52.182419 -27.26425 78.786438 -35.594105 -46.459297 -19.678196 -105.99179
2460000000 -16.874598 -32.256298 -8.9537592 48.59354 -9.1409359 47.087009 -9.146493 47.016243
-8.9786777 48.497192 -19.457924 -119.74337 -35.695705 -53.819496 -27.242846 72.002823
-9.2092009 47.112988 -35.757011 -53.734535 -20.159266 -109.34144 -35.795773 -55.105473
-9.0208921 47.071739 -27.09498 72.162025 -35.616894 -54.962917 -19.618195 -108.5338
2470000000 -16.586906 -35.952301 -8.9545488 43.480099 -9.1405268 41.988991 -9.1499376 41.910812
-8.9798641 43.390739 -19.367373 -122.31705 -35.685085 -62.329594 -27.07716 65.328339
-9.2086592 42.017521 -35.719448 -62.252659 -20.129402 -111.98027 -35.796085 -63.646278
-9.0249319 41.9762 -26.933392 65.453918 -35.586876 -63.561169 -19.561695 -110.87179
2480000000 -16.330347 -39.657257 -8.9582682 38.375717 -9.1423101 36.893009 -9.154253 36.827049
-8.9812708 38.28577 -19.262836 -124.70152 -35.605919 -71.092461 -26.931919 58.526581
-9.2097998 36.924683 -35.672768 -71.106018 -20.089798 -114.50999 -35.755646 -72.066299
-9.0276299 36.888397 -26.787645 58.70269 -35.530235 -71.920334 -19.508492 -113.08198
2490000000 -16.112165 -43.329132 -8.9630299 33.287807 -9.1435881 31.802834 -9.155694 31.74534
-8.987668 33.1838 -19.147898 -126.97355 -35.560211 -79.822212 -26.795389 51.847279
-9.2128201 31.824522 -35.624561 -79.78434 -20.042486 -116.97015 -35.697418 -80.721825
-9.0324621 31.798094 -26.647587 52.009773 -35.48835 -80.680908 -19.447912 -115.25462
2500000000 -15.919588 -47.054565 -8.965744 28.202486 -9.1451635 26.717905 -9.1579103 26.667799
-8.9940796 28.105925 -19.020794 -129.16359 -35.516487 -88.647049 -26.661457 45.185062
-9.2174749 26.734522 -35.566807 -88.519028 -19.977758 -119.41699 -35.635033 -89.410828
-9.038022 26.711794 -26.51495 45.34285 -35.429192 -89.301651 -19.402849 -117.38571
2510000000 -15.757119 -50.817307 -8.9704456 23.125154 -9.1511383 21.632648 -9.1605568 21.576145
-8.9989853 23.026806 -18.897717 -131.25215 -35.482922 -97.412979 -26.534462 38.576759
-9.2209024 21.644432 -35.538643 -97.310242 -19.909821 -121.85081 -35.606392 -97.948418
-9.0417089 21.625116 -26.388062 38.707134 -35.41489 -97.946449 -19.351997 -119.5733
2520000000 -15.619835 -54.597359 -8.9748459 18.049206 -9.153985 16.547518 -9.1639404 16.491711
-9.0029631 17.953667 -18.767488 -133.28122 -35.428345 -106.03839 -26.397409 31.886509
-9.228075 16.559135 -35.494686 -105.92371 -19.824499 -124.2375 -35.555161 -106.4865
-9.0468874 16.539131 -26.256824 32.030956 -35.365685 -106.46605 -19.293596 -121.7508
2530000000 -15.507668 -58.454323 -8.9802732 12.984781 -9.1608505 11.467167 -9.1689224 11.408182
-9.0085983 12.892416 -18.628531 -135.26883 -35.399036 -114.51951 -26.279541 25.193865
-9.2321529 11.481661 -35.436852 -114.42035 -19.728594 -126.64285 -35.524231 -115.01663
-9.0518885 11.469325 -26.130329 25.339987 -35.311913 -114.93958 -19.2332 -124.00979
2540000000 -15.422292 -62.463753 -8.9852057 7.9342475 -9.1682701 6.4014807 -9.1764822 6.3403244
-9.0151539 7.8344584 -18.48126 -137.23888 -35.330807 -123.00021 -26.170834 18.446398
-9.2389193 6.4199128 -35.3853 -123.1237 -19.609179 -129.05185 -35.447212 -123.40506
