!Agilent Technologies,N5224A,MY51441093,A.09.90.21
!Agilent N5224A: A.09.90.21
!Date: Friday, December 19, 2025 16:47:08
!Correction: S11(Full 4 Port(1,2,3,4)) 
!S12(Full 4 Port(1,2,3,4)) 
!S13(Full 4 Port(1,2,3,4)) 
!S14(Full 4 Port(1,2,3,4)) 
!S21(Full 4 Port(1,2,3,4)) 
!S22(Full 4 Port(1,2,3,4)) 
!S23(Full 4 Port(1,2,3,4)) 
!S24(Full 4 Port(1,2,3,4)) 
!S31(Full 4 Port(1,2,3,4)) 
!S32(Full 4 Port(1,2,3,4)) 
!S33(Full 4 Port(1,2,3,4)) 
!S34(Full 4 Port(1,2,3,4)) 
!S41(Full 4 Port(1,2,3,4)) 
!S42(Full 4 Port(1,2,3,4)) 
!S43(Full 4 Port(1,2,3,4)) 
!S44(Full 4 Port(1,2,3,4)) 
!S4P File: Measurements: <S11,S12,S13,S14>,
!<S21,S22,S23,S24>,
!<S31,S32,S33,S34>,
!<S41,S42,S43,S44>:
# Hz S  dB   R 50
2000000000 -12.507778 -57.90786 -9.3945456 -38.536419 -9.3390722 169.13382 -10.280485 75.568207
-9.422121 -38.573051 -15.506108 -125.87962 -34.674004 -37.56551 -31.631533 -147.69559
-9.3962812 169.30829 -34.695347 -37.383923 -14.092044 -48.892193 -35.528172 76.530594
-10.16738 75.799263 -31.490431 -147.43211 -35.363499 76.638931 -19.183388 74.351845
2010000000 -12.879325 -61.498634 -9.3687553 -44.00322 -9.3169947 164.11732 -10.234662 69.789459
-9.3989305 -44.031742 -15.5187 -127.09235 -34.745609 -48.069939 -31.621473 -155.18875
-9.369215 164.2886 -34.768822 -47.833195 -14.177437 -51.772423 -35.579651 65.843941
-10.120317 70.034637 -31.482113 -154.93787 -35.407841 66.041382 -19.514336 65.530243
2020000000 -13.291722 -64.985207 -9.3491516 -49.450249 -9.2970409 159.09908 -10.191793 64.022141
-9.378726 -49.485477 -15.544245 -128.28392 -34.83054 -58.2743 -31.589561 -162.64737
-9.3489199 159.26668 -34.846004 -58.061192 -14.266854 -54.608772 -35.631615 55.452553
-10.075081 64.275185 -31.462036 -162.37689 -35.463833 55.540234 -19.763298 56.433182
2030000000 -13.742127 -68.344543 -9.3304214 -54.886627 -9.2781963 154.07457 -10.152535 58.264828
-9.3583145 -54.925854 -15.576146 -129.44878 -34.872856 -68.597694 -31.577015 -170.1823
-9.3295107 154.23979 -34.899574 -68.45385 -14.354606 -57.414722 -35.663921 44.83807
-10.03272 58.518337 -31.430365 -169.9184 -35.479099 44.948181 -19.949621 47.188572
2040000000 -14.229327 -71.557793 -9.3098593 -60.317059 -9.2593708 149.0314 -10.114801 52.515804
-9.3367796 -60.352993 -15.612645 -130.5276 -34.930836 -79.206985 -31.549179 -177.79132
-9.3128948 149.19937 -34.94355 -78.917465 -14.438949 -60.157192 -35.695023 34.044899
-9.9944725 52.765961 -31.387915 -177.47731 -35.528774 34.166183 -20.049549 37.842026
2050000000 -14.750323 -74.578148 -9.2905273 -65.745743 -9.2433634 143.98174 -10.078352 46.784374
-9.3163309 -65.786186 -15.650007 -131.53876 -34.991116 -89.768242 -31.523941 174.45749
-9.2959185 144.14134 -35.010361 -89.567596 -14.514523 -62.825748 -35.73819 23.221087
-9.9594812 47.02232 -31.383905 174.83461 -35.564323 23.278126 -20.060341 28.580019
2060000000 -15.307599 -77.429955 -9.2684574 -71.17968 -9.2291536 138.9245 -10.046231 41.055977
-9.2982283 -71.226761 -15.680465 -132.5157 -35.053905 -100.17942 -31.507233 166.7935
-9.2820864 139.07846 -35.090473 -100.05403 -14.583547 -65.451797 -35.829334 12.476423
-9.9267387 41.296417 -31.365044 167.11876 -35.646591 12.587209 -19.976679 19.475317
2070000000 -15.911075 -80.060616 -9.2534456 -76.614609 -9.216835 133.86534 -10.015331 35.337704
-9.2799482 -76.660736 -15.711499 -133.45638 -35.148827 -110.49854 -31.511904 159.20915
-9.269865 134.00702 -35.184586 -110.22343 -14.646194 -68.023537 -35.90218 1.9142206
-9.8970909 35.584038 -31.368111 159.53827 -35.719284 2.0235283 -19.800814 10.714687
2080000000 -16.561558 -82.393806 -9.2360039 -82.034531 -9.2065668 128.79828 -9.989831 29.623951
-9.263485 -82.084145 -15.739944 -134.35966 -35.203598 -120.6789 -31.484056 151.67482
-9.2595625 128.93637 -35.223042 -120.53309 -14.707451 -70.566513 -35.94788 -8.3980198
-9.8708982 29.880575 -31.349739 151.93449 -35.775711 -8.3962059 -19.557285 2.3149214
2090000000 -17.25305 -84.314766 -9.2217913 -87.462624 -9.1970673 123.73744 -9.9659758 23.937359
-9.2485189 -87.515038 -15.763765 -135.20557 -35.227352 -130.85112 -31.444475 144.05927
-9.2510443 123.85965 -35.27013 -130.70563 -14.762283 -73.000076 -35.976479 -18.869614
-9.8460655 24.174038 -31.308655 144.347 -35.810493 -18.68519 -19.253468 -5.6085892
2100000000 -17.987965 -85.865967 -9.2092524 -92.877777 -9.1877794 118.66483 -9.9454441 18.259501
-9.2331228 -92.933113 -15.780531 -135.9906 -35.264072 -141.29898 -31.418367 136.33435
-9.2437916 118.80264 -35.29351 -141.15103 -14.81923 -75.368347 -36.020344 -29.51333
-9.8250351 18.502676 -31.281849 136.62259 -35.837856 -29.29624 -18.913889 -12.992309
2110000000 -18.771225 -86.934502 -9.1954336 -98.298126 -9.1816483 113.59586 -9.9265919 12.606359
-9.2190104 -98.356995 -15.788342 -136.70744 -35.295364 -151.67693 -31.383423 128.57726
-9.2359858 113.73292 -35.32523 -151.51027 -14.868238 -77.67437 -36.039265 -39.953457
-9.8056116 12.83812 -31.238794 128.90289 -35.877167 -39.901535 -18.554762 -19.80518
2120000000 -19.607332 -87.380157 -9.1868782 -103.71479 -9.1745863 108.51978 -9.9102411 6.962358
-9.2105503 -103.76757 -15.782887 -137.40715 -35.326378 -162.09421 -31.362194 120.93401
-9.2299614 108.65913 -35.35696 -161.94011 -14.90923 -79.943726 -36.087284 -50.46891
-9.7873926 7.1961951 -31.217777 121.17995 -35.913055 -50.412464 -18.192192 -26.096928
2130000000 -20.493517 -87.002007 -9.1778021 -109.12275 -9.1700525 103.44363 -9.8958149 1.3328975
-9.2015028 -109.15813 -15.770769 -138.08662 -35.359554 -172.38683 -31.330193 113.23699
-9.2258091 103.58567 -35.388237 -172.10025 -14.951115 -82.180458 -36.12883 -61.040916
-9.7735786 1.5627422 -31.193417 113.48171 -35.949505 -60.946442 -17.834688 -31.945536
2140000000 -21.400915 -85.685776 -9.1718512 -114.50983 -9.1665401 98.370445 -9.8836737 -4.26653
-9.1958399 -114.54205 -15.752083 -138.74727 -35.38736 177.34491 -31.30394 105.55435
-9.226284 98.501045 -35.420135 177.6291 -14.995979 -84.403801 -36.175827 -71.503609
-9.7620029 -4.0473924 -31.154688 105.81995 -35.967491 -71.335487 -17.491837 -37.387527
2150000000 -22.301014 -83.215866 -9.1664829 -119.88126 -9.1669712 93.297226 -9.8749247 -9.8592386
-9.1880007 -119.91071 -15.723381 -139.36449 -35.400253 167.0121 -31.255075 97.875877
-9.2240171 93.423943 -35.42865 167.29346 -15.036655 -86.590492 -36.166355 -81.89917
-9.7516308 -9.6320791 -31.116549 98.152771 -35.976681 -81.807335 -17.17111 -42.525093
2160000000 -23.168808 -79.453835 -9.16224 -125.24268 -9.1665573 88.234619 -9.8681011 -15.419226
-9.1826611 -125.27272 -15.685188 -139.99983 -35.379284 156.73819 -31.210506 90.153809
-9.2242107 88.352455 -35.436424 156.98395 -15.07035 -88.757835 -36.169346 -92.461777
-9.7444639 -15.195875 -31.073214 90.376938 -35.987354 -92.256332 -16.874733 -47.357132
2170000000 -23.900959 -74.248802 -9.157012 -130.59193 -9.1671934 83.169281 -9.8613291 -20.967625
-9.17626 -130.62909 -15.635025 -140.63721 -35.396088 146.51591 -31.170315 82.449364
-9.2254257 83.294922 -35.434933 146.60277 -15.097478 -90.942421 -36.198185 -102.87045
-9.7361746 -20.738165 -31.034584 82.68486 -35.990364 -102.87416 -16.599403 -51.97007
2180000000 -24.418716 -67.83828 -9.1533842 -135.93221 -9.1693773 78.111237 -9.8584995 -26.482166
-9.1728992 -135.97525 -15.578197 -141.32884 -35.416088 136.07014 -31.143566 74.871925
-9.2266712 78.231804 -35.451401 136.2581 -15.120189 -93.140694 -36.190914 -113.55196
-9.7306385 -26.264536 -30.996527 75.063683 -36.010571 -113.46285 -16.34589 -56.393227
2190000000 -24.642879 -61.002033 -9.1475229 -141.26166 -9.1715221 73.056808 -9.8514986 -31.974199
-9.169241 -141.31042 -15.515575 -142.03963 -35.431572 125.6804 -31.11397 67.291008
-9.2284765 73.17366 -35.483131 125.82809 -15.133331 -95.340889 -36.23167 -124.03775
-9.7260351 -31.769758 -30.963179 67.459106 -36.049824 -124.07375 -16.103851 -60.638542
2200000000 -24.606081 -54.326408 -9.1459465 -146.58531 -9.1752119 68.010757 -9.8483095 -37.44603
-9.165123 -146.642 -15.444748 -142.82654 -35.443825 115.39191 -31.066145 59.764954
-9.2314701 68.124016 -35.485291 115.61875 -15.140691 -97.557678 -36.279835 -134.59872
-9.7222624 -37.251225 -30.919992 59.979977 -36.081043 -134.43825 -15.874676 -64.792442
2210000000 -24.313232 -48.274582 -9.1417933 -151.9041 -9.1782751 62.96162 -9.8446693 -42.903084
-9.161725 -151.96695 -15.373997 -143.65891 -35.480934 105.31683 -31.006184 52.287998
-9.2353764 63.065643 -35.523666 105.43353 -15.139963 -99.777824 -36.318687 -144.74504
-9.7179708 -42.712303 -30.856804 52.587124 -36.124493 -144.83278 -15.659115 -68.806618
2220000000 -23.821568 -43.314579 -9.1421661 -157.21123 -9.1840715 57.927048 -9.843051 -48.341637
-9.1614494 -157.28612 -15.294607 -144.53111 -35.489277 95.163536 -30.925632 44.873241
-9.2410812 58.013489 -35.534641 95.269524 -15.135591 -101.98846 -36.323612 -155.18327
-9.7158728 -48.163605 -30.788685 45.08799 -36.136219 -155.02274 -15.452524 -72.723045
2230000000 -23.204515 -39.751915 -9.1421442 -162.50317 -9.1881008 52.889435 -9.8417549 -53.761833
-9.1612177 -162.58272 -15.210063 -145.47658 -35.498672 85.102219 -30.866068 37.410164
-9.2452517 52.973335 -35.541504 85.175278 -15.11806 -104.19696 -36.347347 -165.48094
-9.7122564 -53.589825 -30.721317 37.681477 -36.158321 -165.33687 -15.256151 -76.502174
2240000000 -22.564268 -37.562553 -9.1411486 -167.79088 -9.1922874 47.866547 -9.8383875 -59.159637
-9.1587009 -167.86751 -15.120197 -146.49112 -35.507084 74.871696 -30.796429 29.996193
-9.2503529 47.932606 -35.543301 75.003761 -15.095829 -106.38843 -36.361275 -175.67708
-9.709033 -58.988525 -30.653191 30.198595 -36.155525 -175.67352 -15.067801 -80.147301
2250000000 -21.944674 -36.417118 -9.1410723 -173.05804 -9.1981516 42.836727 -9.8379583 -64.533043
-9.1556959 -173.1467 -15.025748 -147.55464 -35.497177 64.628372 -30.738838 22.593615
-9.2550039 42.900467 -35.546513 64.82029 -15.066649 -108.6022 -36.371071 174.06396
-9.7055645 -64.372498 -30.585428 22.820019 -36.171574 174.09941 -14.887506 -83.647896
2260000000 -21.354256 -35.909622 -9.1400013 -178.33133 -9.2028227 37.803043 -9.8357668 -69.893036
-9.1562347 -178.42389 -14.931966 -148.67799 -35.515194 54.571953 -30.656576 15.350947
-9.2625771 37.861618 -35.559544 54.700638 -15.036997 -110.77921 -36.39674 163.81528
-9.7037525 -69.739357 -30.523546 15.616644 -36.203247 163.91211 -14.713218 -87.050766
2270000000 -20.784472 -36.040508 -9.1402035 176.41658 -9.2092209 32.77018 -9.8312492 -75.237938
-9.1553717 176.30736 -14.830712 -149.83936 -35.554714 44.576256 -30.576674 8.1398239
-9.2669306 32.835899 -35.59314 44.760826 -15.006012 -112.94197 -36.447948 153.81836
-9.7004671 -75.083534 -30.433678 8.4373121 -36.245255 153.85608 -14.554516 -90.314301
2280000000 -20.26026 -36.823818 -9.1385202 171.15163 -9.2153196 27.742348 -9.8286295 -80.565758
-9.1571817 171.05737 -14.72618 -151.05896 -35.563377 34.749557 -30.488632 0.98129958
-9.274415 27.818737 -35.621716 34.918022 -14.970458 -115.05988 -36.450195 143.84666
-9.6967735 -80.415344 -30.340309 1.275148 -36.253902 143.86113 -14.40637 -93.483421
2290000000 -19.800915 -38.024334 -9.1365271 165.88637 -9.221488 22.718889 -9.8249054 -85.885323
-9.1553679 165.80594 -14.621547 -152.34312 -35.579578 24.798079 -30.379173 -6.1491547
-9.2804155 22.797729 -35.631557 25.001514 -14.932469 -117.19193 -36.45631 133.82562
-9.6912336 -85.726692 -30.23724 -5.8458881 -36.256386 134.02304 -14.271132 -96.529594
2300000000 -19.395901 -39.440197 -9.1367826 160.62677 -9.2281284 17.696711 -9.8193779 -91.189308
-9.1532488 160.55873 -14.518305 -153.67783 -35.581802 14.948421 -30.284863 -13.268817
-9.2866945 17.780556 -35.626175 15.063232 -14.891592 -119.32969 -36.449036 123.92354
-9.6865902 -91.033371 -30.130177 -13.052379 -36.249676 124.06775 -14.150215 -99.48185
2310000000 -19.023853 -41.099976 -9.1371346 155.3763 -9.2341652 12.688004 -9.815279 -96.473129
-9.1515656 155.30467 -14.417014 -155.04189 -35.60041 5.0118704 -30.167004 -20.31654
-9.2931004 12.751405 -35.646927 5.1373124 -14.850574 -121.48143 -36.445015 114.03415
-9.6814642 -96.329926 -30.033607 -20.079134 -36.266335 114.01633 -14.038836 -102.36347
2320000000 -18.687271 -43.029762 -9.1387606 150.13907 -9.2408152 7.6806974 -9.8086634 -101.74901
-9.1552477 150.05788 -14.318803 -156.42134 -35.624634 -4.8020344 -30.05517 -27.326262
-9.3026218 7.7301931 -35.672737 -4.6599765 -14.8075 -123.6445 -36.473255 104.15474
-9.6785612 -101.61688 -29.917137 -27.053242 -36.2673 104.14431 -13.941159 -105.19331
2330000000 -18.395416 -45.229057 -9.139143 144.91733 -9.247509 2.6768911 -9.8024559 -107.00359
-9.1561642 144.82629 -14.221561 -157.83153 -35.670383 -14.467931 -29.934025 -34.204323
-9.3100042 2.7193196 -35.721004 -14.339712 -14.766655 -125.81945 -36.499779 94.364861
-9.672411 -106.89587 -29.792555 -34.037003 -36.287209 94.417557 -13.851185 -107.98768
2340000000 -18.158056 -47.613678 -9.1389637 139.69765 -9.2531853 -2.3250356 -9.7948198 -112.25402
-9.1585255 139.61139 -14.12807 -159.32085 -35.687576 -24.002966 -29.805828 -41.161301
-9.3181429 -2.2815154 -35.719566 -23.887217 -14.719029 -128.02591 -36.459251 84.739067
-9.6656895 -112.15486 -29.656672 -40.941307 -36.287155 84.778854 -13.772254 -110.73614
2350000000 -17.972151 -50.098133 -9.1393871 134.49084 -9.2611799 -7.3319325 -9.7860308 -117.49493
-9.1586113 134.39983 -14.038529 -160.84439 -35.692482 -33.558384 -29.675583 -48.168552
-9.3210888 -7.2895083 -35.731609 -33.463799 -14.669019 -130.28874 -36.466236 74.99192
-9.6569681 -117.4097 -29.530975 -47.918076 -36.272366 75.065346 -13.693836 -113.44893
2360000000 -17.827166 -52.602299 -9.1395693 129.27614 -9.2656393 -12.32993 -9.776865 -122.73831
-9.157794 129.18736 -13.957372 -162.42819 -35.689964 -43.171661 -29.541086 -55.012012
-9.3274097 -12.293622 -35.728569 -43.096779 -14.617825 -132.56451 -36.439835 65.31768
-9.6480989 -122.66095 -29.39864 -54.845394 -36.265171 65.346817 -13.621525 -116.11635
2370000000 -17.707785 -55.204872 -9.1390276 124.06655 -9.2719765 -17.328281 -9.7694654 -127.98018
-9.1585379 123.96233 -13.882638 -164.0466 -35.716244 -52.834675 -29.410866 -61.788105
-9.3361416 -17.309879 -35.769756 -52.745132 -14.566307 -134.84503 -36.464725 55.482567
-9.6387672 -127.91972 -29.261707 -61.633129 -36.266197 55.486408 -13.548732 -118.76981
2380000000 -17.623398 -57.899147 -9.138855 118.85452 -9.2770166 -22.337242 -9.7604332 -133.21579
-9.1604691 118.7444 -13.813183 -165.72324 -35.758366 -62.353153 -29.267645 -68.519531
-9.3409681 -22.323154 -35.815479 -62.249176 -14.510896 -137.12817 -36.485245 45.802036
-9.6303053 -133.15837 -29.115871 -68.368729 -36.308449 45.835636 -13.476596 -121.35754
2390000000 -17.56917 -60.636623 -9.1389704 113.63738 -9.2826729 -27.345682 -9.751895 -138.43703
-9.1612978 113.52974 -13.74775 -167.43492 -35.815235 -71.622063 -29.106329 -75.264969
-9.34972 -27.345888 -35.866455 -71.508598 -14.451517 -139.41446 -36.544113 36.424515
-9.6220322 -138.39934 -28.954966 -75.129387 -36.334183 36.443611 -13.404966 -123.88264
2400000000 -17.537533 -63.403023 -9.1420078 108.42813 -9.290391 -32.356613 -9.7417107 -143.65689
-9.1637211 108.32098 -13.689354 -169.22685 -35.855778 -80.682831 -28.942776 -82.071785
-9.3586683 -32.348984 -35.88879 -80.647858 -14.384018 -141.72508 -36.563137 27.244696
-9.6130733 -143.62125 -28.786911 -81.933151 -36.367336 27.227627 -13.331806 -126.29528
2410000000 -17.528303 -66.251274 -9.1458874 103.23203 -9.2997913 -37.355366 -9.7317543 -148.87518
-9.1679678 103.1075 -13.640493 -171.07889 -35.856052 -89.843384 -28.77833 -88.971802
-9.3662109 -37.345577 -35.911232 -89.731331 -14.320035 -144.07794 -36.550495 18.130999
-9.6041451 -148.83521 -28.62595 -88.838249 -36.361343 18.093542 -13.253439 -128.62222
2420000000 -17.553543 -69.191116 -9.1492023 98.040016 -9.3087711 -42.350349 -9.7214031 -154.08513
-9.1740437 97.900558 -13.600013 -172.93649 -35.852764 -98.996933 -28.614096 -95.810608
-9.3743 -42.342808 -35.912724 -98.795433 -14.258228 -146.42923 -36.532715 8.7831211
-9.5931139 -154.05139 -28.474957 -95.656258 -36.338245 8.8054781 -13.17446 -130.87477
2430000000 -17.619713 -72.154922 -9.1515284 92.852242 -9.3163433 -47.347618 -9.7083826 -159.2963
-9.1786776 92.714195 -13.562623 -174.78632 -35.875576 -108.15414 -28.465212 -102.65751
-9.3818512 -47.33989 -35.931011 -108.14517 -14.197045 -148.78523 -36.546055 -0.48457536
-9.5834913 -159.263 -28.310692 -102.46071 -36.349823 -0.42785525 -13.096871 -133.04388
2440000000 -17.712849 -75.027382 -9.1549931 87.655556 -9.3234825 -52.338112 -9.6987677 -164.504
-9.1835127 87.53344 -13.534492 -176.68692 -35.906406 -117.3481 -28.30402 -109.48407
-9.3907633 -52.335079 -35.957119 -117.24785 -14.135777 -151.15315 -36.547405 -9.5892162
-9.5745192 -164.46532 -28.153591 -109.26934 -36.375153 -9.5608425 -13.026056 -135.13518
2450000000 -17.82469 -77.847481 -9.1582022 82.446602 -9.3299503 -57.333839 -9.6880407 -169.72037
-9.187952 82.343422 -13.508935 -178.60696 -35.959248 -126.22382 -28.129288 -116.23354
-9.398283 -57.320751 -35.993958 -126.03946 -14.079061 -153.51799 -36.58633 -18.45211
-9.5643749 -169.67229 -27.979179 -116.07864 -36.399452 -18.475967 -12.962816 -137.16777
2460000000 -17.953554 -80.711876 -9.166667 77.245735 -9.3367033 -62.337383 -9.678937 -174.94136
-9.192009 77.144478 -13.496224 179.46892 -35.984097 -134.80148 -27.956066 -123.1133
-9.4062176 -62.310944 -36.028076 -134.83281 -14.022784 -155.9606 -36.582611 -27.051434
-9.5568295 -174.88786 -27.805779 -122.99995 -36.399933 -27.016331 -12.900572 -139.12506
2470000000 -18.115856 -83.662422 -9.1731119 72.049248 -9.3435802 -67.328102 -9.6716413 179.86218
-9.2023735 71.94838 -13.497068 177.55142 -35.981102 -143.49489 -27.801565 -130.08939
-9.4128551 -67.299294 -36.037067 -143.36574 -13.973867 -158.42302 -36.564941 -35.73539
-9.5494957 179.92279 -27.653902 -129.95784 -36.380714 -35.664528 -12.840384 -141.04623
2480000000 -18.314857 -86.59819 -9.1861935 66.869652 -9.3507929 -72.317635 -9.6651573 174.6727
-9.2123213 66.761047 -13.515022 175.66624 -35.949364 -152.19606 -27.667738 -137.10458
-9.4196424 -72.278404 -35.995785 -152.01573 -13.931461 -160.93481 -36.504185 -44.265072
-9.5394945 174.73106 -27.517675 -136.91199 -36.301979 -44.241325 -12.785451 -142.97557
2490000000 -18.56909 -89.444244 -9.1952152 61.705372 -9.35847 -77.305023 -9.6560993 169.49644
-9.2252436 61.602146 -13.539032 173.8385 -35.925007 -160.83665 -27.541368 -144.0004
-9.4278212 -77.272339 -35.959629 -160.81593 -13.900885 -163.47638 -36.427616 -52.941345
-9.5338078 169.54576 -27.389778 -143.86171 -36.24086 -53.066082 -12.730486 -144.94197
2500000000 -18.839006 -92.214439 -9.2049952 56.55732 -9.3643475 -82.288315 -9.6474028 164.32582
-9.2351961 56.460293 -13.5768 172.05405 -35.898514 -169.63841 -27.419083 -150.80072
-9.434104 -82.264442 -35.943256 -169.58907 -13.87336 -166.0085 -36.395226 -61.698677
-9.5247841 164.35942 -27.270739 -150.7079 -36.175323 -61.879677 -12.681096 -146.93323
2510000000 -19.141077 -94.97364 -9.2154465 51.4137 -9.3722477 -87.269096 -9.6365938 159.14589
-9.2455616 51.315861 -13.621187 170.31926 -35.89621 -178.35225 -27.294899 -157.69791
-9.4416962 -87.262405 -35.936928 -178.2128 -13.84815 -168.56293 -36.352253 -70.474045
-9.5189791 159.18575 -27.152954 -157.53365 -36.148026 -70.408859 -12.627666 -148.97285
2520000000 -19.487761 -97.786636 -9.2236567 46.277386 -9.3788223 -92.256493 -9.6298428 153.96555
-9.2550898 46.17738 -13.672419 168.59235 -35.871906 173.23232 -27.173805 -164.54034
-9.4516754 -92.248505 -35.907284 173.2291 -13.827451 -171.11758 -36.285423 -79.009712
-9.5129757 154.01326 -27.026913 -164.37025 -36.098988 -79.026306 -12.579838 -151.06012
2530000000 -19.879435 -100.51766 -9.234314 41.136208 -9.3876324 -97.237488 -9.6235189 148.79985
-9.2679186 41.040482 -13.734415 166.93054 -35.848904 164.73328 -27.068369 -171.39914
-9.4581137 -97.234138 -35.876972 164.83488 -13.810153 -173.68748 -36.210705 -87.468971
-9.5060596 148.85233 -26.925196 -171.24982 -36.040211 -87.551666 -12.529778 -153.19931
2540000000 -20.304556 -103.14668 -9.2463856 36.008457 -9.3929129 -102.22176 -9.6171694 143.62976
-9.2771587 35.917591 -13.805108 165.28354 -35.790581 156.23161 -26.975302 -178.23
