!Agilent Technologies,N5224A,MY51441093,A.09.90.21
!Agilent N5224A: A.09.90.21
!Date: Friday, December 19, 2025 16:46:26
!Correction: S11(Full 4 Port(1,2,3,4)) 
!S12(Full 4 Port(1,2,3,4)) 
!S13(Full 4 Port(1,2,3,4)) 
!S14(Full 4 Port(1,2,3,4)) 
!S21(Full 4 Port(1,2,3,4)) 
!S22(Full 4 Port(1,2,3,4)) 
!S23(Full 4 Port(1,2,3,4)) 
!S24(Full 4 Port(1,2,3,4)) 
!S31(Full 4 Port(1,2,3,4)) 
!S32(Full 4 Port(1,2,3,4)) 
!S33(Full 4 Port(1,2,3,4)) 
!S34(Full 4 Port(1,2,3,4)) 
!S41(Full 4 Port(1,2,3,4)) 
!S42(Full 4 Port(1,2,3,4)) 
!S43(Full 4 Port(1,2,3,4)) 
!S44(Full 4 Port(1,2,3,4)) 
!S4P File: Measurements: <S11,S12,S13,S14>,
!<S21,S22,S23,S24>,
!<S31,S32,S33,S34>,
!<S41,S42,S43,S44>:
# Hz S  dB   R 50
2000000000 -12.551809 -49.519382 -9.9821377 103.02331 -9.4784288 -143.85011 -9.2975483 143.58795
-10.010502 102.98349 -18.000153 154.60767 -35.334953 151.56296 -31.157898 62.224342
-9.5336895 -143.6788 -35.370308 151.68398 -16.94169 -29.922735 -34.678795 -168.87476
-9.1834583 143.82237 -31.019793 62.454784 -34.511608 -168.9174 -13.166655 -65.322975
2010000000 -12.821551 -52.671371 -9.9338894 97.23584 -9.458642 -148.99847 -9.2828856 138.66252
-9.9670038 97.200508 -18.732853 151.30748 -35.404007 140.70154 -31.152273 55.170925
-9.5131083 -148.83438 -35.430721 140.87296 -16.916945 -33.997093 -34.749561 -179.02844
-9.1661844 138.9095 -31.009684 55.465961 -34.587246 -178.99245 -13.252842 -67.683777
2020000000 -13.122229 -55.691971 -9.8925037 91.456223 -9.4465923 -154.14813 -9.2683144 133.73763
-9.9238901 91.431618 -19.539005 147.93738 -35.450745 129.97374 -31.132111 48.130386
-9.4981556 -153.97943 -35.473583 130.22852 -16.894712 -38.032539 -34.82515 171.08313
-9.1473932 133.98318 -30.984526 48.430565 -34.650024 171.15034 -13.332062 -70.017731
2030000000 -13.444774 -58.566257 -9.853919 85.68528 -9.4335394 -159.286 -9.2526045 128.80081
-9.8819323 85.658058 -20.43512 144.54375 -35.470764 119.22393 -31.092148 41.090885
-9.4868526 -159.12212 -35.500931 119.42616 -16.88055 -42.036545 -34.875175 161.03453
-9.1320868 129.05333 -30.950256 41.341766 -34.710228 161.08501 -13.40679 -72.308968
2040000000 -13.780807 -61.294159 -9.8145142 79.924881 -9.4221058 -164.43124 -9.2362347 123.86775
-9.8396339 79.893761 -21.439486 141.16632 -35.505219 108.36632 -31.060118 33.857662
-9.4748392 -164.26108 -35.534752 108.60551 -16.868378 -45.995144 -34.925659 151.0472
-9.1160564 124.12004 -30.917503 34.10788 -34.746826 150.9946 -13.470738 -74.55117
2050000000 -14.12346 -63.904945 -9.7742414 74.163246 -9.4118176 -169.57086 -9.2211552 118.91557
-9.8021078 74.126564 -22.568111 137.82297 -35.553349 97.320366 -31.041536 26.499865
-9.4649925 -169.40784 -35.579273 97.475891 -16.858618 -49.893448 -34.997498 140.89713
-9.1013498 119.16288 -30.889843 26.726007 -34.802094 140.87996 -13.524275 -76.730247
2060000000 -14.484063 -66.398476 -9.7372503 68.402702 -9.4018087 -174.70616 -9.205308 113.95079
-9.7665405 68.360245 -23.850075 134.40063 -35.60297 86.396141 -31.030697 19.138947
-9.4561558 -174.55321 -35.629833 86.593552 -16.84824 -53.705009 -35.057194 130.76753
-9.086318 114.2 -30.879683 19.472525 -34.897285 130.8822 -13.566749 -78.872795
2070000000 -14.857382 -68.757088 -9.7035532 62.645451 -9.3938541 -179.8381 -9.1918249 108.97066
-9.7314882 62.599838 -25.347641 130.93912 -35.674122 75.750359 -31.013798 11.889745
-9.4470367 -179.69276 -35.711449 75.836906 -16.83423 -57.41843 -35.153416 120.93462
-9.0735559 109.21865 -30.880816 12.172417 -34.972317 120.97591 -13.601917 -80.986885
2080000000 -15.240561 -70.983032 -9.6716938 56.899536 -9.3851271 175.03253 -9.1810493 103.98479
-9.6989145 56.852242 -27.141228 127.42097 -35.698208 65.072815 -30.989355 4.6400003
-9.4404287 175.17239 -35.734203 65.318916 -16.818844 -61.109264 -35.187523 111.23592
-9.0627518 104.23412 -30.84498 4.9839287 -35.032856 111.23608 -13.634679 -83.031876
2090000000 -15.643435 -73.078903 -9.6405544 51.166157 -9.377943 169.91196 -9.1721134 99.002747
-9.6685705 51.109745 -29.400276 123.82946 -35.728977 54.479481 -30.952438 -2.6192651
-9.4345417 170.04245 -35.750351 54.591766 -16.811316 -64.705086 -35.222225 101.44189
-9.0524969 99.239433 -30.809145 -2.3690739 -35.050529 101.51723 -13.659837 -84.990952
2100000000 -16.066303 -75.003571 -9.6141148 45.439106 -9.3721008 164.78798 -9.1639433 94.006958
-9.6392288 45.380814 -32.41325 120.1623 -35.744419 43.747524 -30.913109 -10.068884
-9.42871 164.92906 -35.78006 43.89785 -16.813969 -68.215141 -35.250099 91.474541
-9.0418377 94.253189 -30.759933 -9.7439947 -35.063396 91.615318 -13.681603 -86.872139
2110000000 -16.510321 -76.683174 -9.5878792 39.721554 -9.365756 159.67838 -9.154294 89.019707
-9.6131973 39.673817 -36.97192 115.61182 -35.758625 32.950848 -30.876318 -17.57465
-9.4209862 159.81554 -35.784985 33.128201 -16.820841 -71.626221 -35.250813 81.662086
-9.0337534 89.253326 -30.741369 -17.227554 -35.080402 81.739815 -13.694704 -88.704781
2120000000 -16.965424 -78.07238 -9.5640326 34.014011 -9.3581543 154.5632 -9.1499777 84.01368
-9.5900917 33.96711 -46.813251 106.62164 -35.764851 22.143505 -30.851089 -24.954643
-9.4146843 154.70056 -35.815918 22.340004 -16.83379 -74.948715 -35.277531 71.779129
-9.0279474 84.248169 -30.711414 -24.696751 -35.106255 71.732986 -13.706361 -90.505714
2130000000 -17.423435 -79.209167 -9.5432854 28.32131 -9.3516045 149.45219 -9.1439867 79.006531
-9.5672207 28.287178 -46.053196 -59.097927 -35.803055 11.417092 -30.829378 -32.364651
-9.4103365 149.5936 -35.838966 11.614424 -16.85183 -78.219009 -35.310692 61.84444
-9.0229549 79.239891 -30.687225 -32.143627 -35.121746 61.865955 -13.716063 -92.311607
2140000000 -17.882835 -80.172676 -9.5244036 22.640985 -9.3479919 144.34389 -9.1427708 74.009361
-9.5477667 22.606617 -36.933842 -67.550697 -35.821083 0.79006332 -30.784622 -39.719666
-9.4059515 144.48409 -35.845448 0.88323241 -16.889101 -81.446724 -35.318054 51.922493
-9.0196743 74.233772 -30.654457 -39.475521 -35.1217 51.920822 -13.724264 -94.106979
2150000000 -18.355165 -80.961906 -9.5063972 16.977097 -9.3426199 139.25198 -9.1390743 69.006821
-9.5296059 16.949896 -32.621986 -71.718941 -35.834583 -9.912734 -30.748547 -47.168671
-9.4024611 139.38457 -35.871872 -9.7025223 -16.926615 -84.612122 -35.297436 41.971737
-9.0177927 69.232048 -30.606329 -46.8447 -35.125465 42.097282 -13.730758 -95.931473
2160000000 -18.839937 -81.470169 -9.4899826 11.333133 -9.3383923 134.17407 -9.1381454 64.002968
-9.5131512 11.30428 -29.840948 -75.161438 -35.820728 -20.455593 -30.703577 -54.602539
-9.3967228 134.30138 -35.872948 -20.455736 -16.974045 -87.728325 -35.298035 31.981251
-9.0133305 64.236115 -30.557713 -54.29546 -35.122856 32.127895 -13.736398 -97.765709
2170000000 -19.320581 -81.730797 -9.4767895 5.701694 -9.3330841 129.08408 -9.1379614 58.998039
-9.497551 5.6675296 -27.783737 -78.382172 -35.831383 -31.202896 -30.660673 -62.021317
-9.3911142 129.21567 -35.876293 -31.056332 -17.027769 -90.792038 -35.306816 22.037138
-9.0118065 59.224216 -30.516317 -61.75383 -35.127075 22.073484 -13.73842 -99.651627
2180000000 -19.809839 -81.743782 -9.4655762 0.083620973 -9.3286486 124.00793 -9.13659 54.002472
-9.4853811 0.056342524 -26.187933 -81.319351 -35.838211 -41.842243 -30.623713 -69.448448
-9.3853254 124.13042 -35.889507 -41.786983 -17.081427 -93.822708 -35.329418 12.002344
-9.0115652 54.216301 -30.489975 -69.24044 -35.139683 12.06203 -13.73517 -101.5922
2190000000 -20.29698 -81.547928 -9.4544373 -5.5046635 -9.3242664 118.93185 -9.1371698 48.995239
-9.4744349 -5.5466795 -24.868374 -84.237144 -35.871101 -52.641899 -30.600481 -76.858559
-9.3799915 119.04364 -35.907967 -52.443596 -17.129335 -96.780609 -35.353954 1.9241973
-9.0104399 49.198128 -30.447289 -76.606522 -35.167553 2.0532105 -13.730792 -103.55188
2200000000 -20.788219 -80.970406 -9.4443598 -11.088417 -9.3172674 113.86707 -9.1405869 43.994198
-9.4644899 -11.134803 -23.7698 -87.076042 -35.878567 -63.179119 -30.561237 -84.133415
-9.3732042 113.97146 -35.940655 -62.993717 -17.180578 -99.743004 -35.368858 -7.9324827
-9.0138817 44.188934 -30.417437 -83.837746 -35.185253 -7.8322687 -13.7216 -105.564
2210000000 -21.245872 -80.012856 -9.4367132 -16.649416 -9.3110571 108.78983 -9.1422024 38.980576
-9.4558916 -16.711857 -22.820255 -89.856346 -35.922348 -73.6129 -30.51103 -91.36235
-9.3675289 108.88998 -35.954964 -73.484344 -17.224758 -102.66138 -35.40226 -17.721117
-9.0159731 39.180023 -30.372206 -91.134239 -35.209064 -17.645927 -13.704039 -107.5703
2220000000 -21.673124 -78.762962 -9.4321451 -22.199194 -9.3025379 103.72428 -9.1489964 33.982143
-9.4490891 -22.274889 -21.993708 -92.634811 -35.915085 -84.014656 -30.456047 -98.555603
-9.3611794 103.80921 -35.964451 -83.925774 -17.271946 -105.52782 -35.411636 -27.472431
-9.0195055 34.166611 -30.329599 -98.274879 -35.226154 -27.4098 -13.68082 -109.59225
2230000000 -22.068872 -77.324181 -9.4277306 -27.730389 -9.296874 98.656433 -9.1532221 28.982227
-9.4458799 -27.807487 -21.271833 -95.444359 -35.917229 -94.45237 -30.408367 -105.74864
-9.3531275 98.73494 -35.971493 -94.218803 -17.316408 -108.32378 -35.422337 -37.273491
-9.0236883 29.161472 -30.266199 -105.47976 -35.229671 -37.191898 -13.652122 -111.62595
2240000000 -22.442482 -75.621063 -9.4238453 -33.233715 -9.2878227 93.588127 -9.158884 23.987333
-9.4434338 -33.314941 -20.6285 -98.247833 -35.911293 -104.88116 -30.361317 -112.86964
-9.3445415 93.661873 -35.94923 -104.73463 -17.353304 -111.04299 -35.431774 -47.126797
-9.0274286 24.162405 -30.205788 -112.59451 -35.240303 -47.034851 -13.616788 -113.66039
2250000000 -22.774221 -73.53273 -9.4232578 -38.72364 -9.2803698 88.51458 -9.1657162 18.996887
-9.4399548 -38.804939 -20.052563 -100.96722 -35.914524 -115.40903 -30.302599 -120.00193
-9.3367929 88.576836 -35.980343 -115.23869 -17.389772 -113.7072 -35.432083 -56.946144
-9.0346117 19.15946 -30.154591 -119.74004 -35.244286 -56.8778 -13.580107 -115.67604
2260000000 -23.046209 -71.145844 -9.4218693 -44.183182 -9.2708359 83.435081 -9.1732473 14.004269
-9.4384279 -44.275517 -19.528545 -103.68378 -35.932243 -125.6328 -30.243969 -126.98012
-9.3313608 83.491554 -35.982166 -125.67533 -17.432053 -116.29832 -35.45076 -66.770012
-9.0418863 14.16927 -30.096172 -126.77145 -35.266045 -66.711647 -13.539238 -117.68144
2270000000 -23.243401 -68.528397 -9.421154 -49.642159 -9.2637405 78.352402 -9.1811666 9.0188351
-9.4365406 -49.734879 -19.045782 -106.42162 -35.957893 -135.99547 -30.171717 -133.85135
-9.3223429 78.424576 -36.004673 -135.83206 -17.47014 -118.82887 -35.478821 -76.430023
-9.0500097 9.1793718 -30.030714 -133.59615 -35.301319 -76.397842 -13.501227 -119.66531
2280000000 -23.374754 -65.824516 -9.4197245 -55.081032 -9.255476 73.27066 -9.1894016 4.044241
-9.4358654 -55.165108 -18.604858 -109.14066 -35.98888 -146.01056 -30.089108 -140.70486
-9.3142233 73.343613 -36.030537 -145.97534 -17.516575 -121.25647 -35.516247 -86.059143
-9.0570183 4.1956058 -29.954008 -140.47421 -35.320801 -85.927536 -13.462036 -121.6485
2290000000 -23.441032 -63.070713 -9.4176388 -60.502041 -9.247509 68.18354 -9.1978426 -0.93948615
-9.4348936 -60.588066 -18.204063 -111.87105 -35.973904 -156.15941 -29.998238 -147.59122
-9.3066397 68.263977 -36.028217 -156.05998 -17.562855 -123.62969 -35.516151 -95.56385
-9.0643282 -0.78272039 -29.851419 -147.34576 -35.3269 -95.63311 -13.4197 -123.64098
2300000000 -23.421959 -60.291466 -9.4182673 -65.903481 -9.2399149 63.101517 -9.2060432 -5.9197769
-9.4346333 -65.984093 -17.838696 -114.5023 -35.994507 -166.20271 -29.906475 -154.33386
-9.2993641 63.179771 -36.028889 -166.02319 -17.614428 -125.94267 -35.521214 -105.25263
-9.0721188 -5.7546787 -29.761627 -154.13812 -35.326271 -105.31555 -13.383737 -125.65827
2310000000 -23.322847 -57.811932 -9.4182844 -71.301331 -9.2325706 58.020073 -9.2165108 -10.87611
-9.4356251 -71.366524 -17.499891 -117.0964 -35.996498 -176.36874 -29.80464 -161.14177
-9.293539 58.086544 -36.057281 -176.16348 -17.664808 -128.20229 -35.566158 -115.14445
-9.0831909 -10.726016 -29.670572 -160.96201 -35.360855 -114.9603 -13.350063 -127.6991
2320000000 -23.17469 -55.59164 -9.4202585 -76.666298 -9.2244244 52.931717 -9.2239285 -15.836762
-9.4350224 -76.740173 -17.188892 -119.64078 -36.015995 173.77332 -29.70192 -167.80913
-9.2865124 52.993958 -36.045761 173.87898 -17.717669 -130.44469 -35.582695 -124.64877
-9.0924053 -15.705688 -29.557344 -167.64059 -35.384754 -124.61597 -13.316293 -129.78711
2330000000 -22.999546 -53.706886 -9.4196892 -82.011635 -9.2169676 47.854153 -9.232914 -20.791428
-9.4381466 -82.094894 -16.900558 -122.16451 -36.025623 163.82703 -29.586983 -174.40729
-9.2788353 47.903423 -36.085171 164.04134 -17.770733 -132.66078 -35.625053 -134.21675
-9.1025515 -20.675606 -29.444836 -174.22777 -35.444794 -134.11858 -13.279649 -131.8997
2340000000 -22.781998 -52.051514 -9.4227238 -87.33503 -9.2101851 42.769386 -9.2429485 -25.733475
-9.440506 -87.424728 -16.644703 -124.62383 -36.02964 154.2518 -29.462994 178.86563
-9.2719393 42.810822 -36.091591 154.23611 -17.829294 -134.82146 -35.669376 -143.57108
-9.1116009 -25.631203 -29.316504 179.08778 -35.477013 -143.49165 -13.241616 -134.08583
2350000000 -22.528605 -50.700882 -9.4232273 -92.63546 -9.2040625 37.672623 -9.252738 -30.677563
-9.4433622 -92.73185 -16.412685 -127.03321 -36.016876 144.40898 -29.340206 172.20518
-9.2653122 37.71447 -36.055904 144.57559 -17.876492 -136.93593 -35.712917 -152.91679
-9.1220207 -30.587896 -29.188143 172.40089 -35.510086 -152.80467 -13.199744 -136.31651
2360000000 -22.257927 -49.777863 -9.4232454 -97.920761 -9.1959286 32.579197 -9.2612543 -35.622372
-9.4425812 -98.019402 -16.196222 -129.39272 -36.008213 134.68275 -29.202425 165.58586
-9.2592068 32.614227 -36.054855 134.85364 -17.92375 -139.06454 -35.734619 -162.2317
-9.1301022 -35.539028 -29.05863 165.76205 -35.548717 -162.22836 -13.159303 -138.59645
2370000000 -21.97961 -49.270832 -9.42208 -103.19701 -9.1887541 27.476969 -9.2708168 -40.565121
-9.4422092 -103.30254 -16.001488 -131.72313 -36.018902 124.85138 -29.073599 159.06091
-9.2548494 27.506771 -36.062576 124.87436 -17.963154 -141.13934 -35.79044 -171.62082
-9.1394167 -40.499123 -28.930622 159.19841 -35.590084 -171.60982 -13.114892 -140.90746
2380000000 -21.701538 -49.053772 -9.4202061 -108.46268 -9.1832314 22.372065 -9.2776051 -45.500046
-9.4429779 -108.57187 -15.824701 -134.03117 -36.05204 115.20437 -28.930433 152.46771
-9.2500563 22.39056 -36.084011 115.30225 -18.004208 -143.16034 -35.850605 179.19881
-9.1468105 -45.448124 -28.776865 152.64923 -35.651791 179.27298 -13.06539 -143.22205
2390000000 -21.416206 -49.092411 -9.4173975 -113.71172 -9.1785946 17.267031 -9.2840672 -50.440857
-9.4409103 -113.81383 -15.667217 -136.33044 -36.084633 105.84293 -28.767946 145.95216
-9.2465181 17.275814 -36.128021 105.89703 -18.047375 -145.08353 -35.897724 170.34624
-9.1550379 -50.400166 -28.623413 146.12022 -35.703602 170.411 -13.013185 -145.53047
2400000000 -21.128401 -49.481171 -9.4139004 -118.96062 -9.1760616 12.15146 -9.2908916 -55.38863
-9.4377842 -119.06267 -15.527943 -138.55464 -36.080212 96.633911 -28.609016 139.32922
-9.2437487 12.160881 -36.125751 96.674919 -18.076893 -146.94646 -35.922203 161.47546
-9.1611452 -55.353867 -28.455982 139.50098 -35.701897 161.53659 -12.959492 -147.84819
2410000000 -20.86058 -50.192898 -9.4137459 -124.18071 -9.1767178 7.0480371 -9.2978401 -60.331226
-9.435565 -124.2942 -15.400903 -140.7415 -36.050339 87.321243 -28.439814 132.64784
-9.2426577 7.0532212 -36.115902 87.500328 -18.1015 -148.70679 -35.920174 152.63554
-9.1700382 -60.3009 -28.295904 132.70532 -35.708607 152.64992 -12.908776 -150.17325
2420000000 -20.602777 -51.111595 -9.4084911 -129.3942 -9.1745739 1.9394888 -9.3037024 -65.276901
-9.4337816 -129.52046 -15.279811 -142.86652 -36.043697 78.029259 -28.301744 125.87297
-9.2417784 1.9442569 -36.076653 78.042183 -18.113482 -150.45178 -35.910824 143.74384
-9.1770678 -65.2444 -28.150505 126.0451 -35.718739 143.62628 -12.863196 -152.47475
2430000000 -20.351433 -52.186516 -9.4027796 -134.58583 -9.1726618 -3.1698852 -9.3098583 -70.22525
-9.4301558 -134.72675 -15.160768 -144.96587 -36.034 68.544189 -28.160706 119.29877
-9.2418766 -3.1615813 -36.089104 68.704948 -18.121349 -152.16035 -35.907333 134.43245
-9.1834679 -70.198441 -28.011906 119.47293 -35.712612 134.47603 -12.826839 -154.73401
2440000000 -20.108805 -53.519653 -9.3977013 -139.78679 -9.1743679 -8.2723293 -9.3158312 -75.185814
-9.4271879 -139.91348 -15.054798 -147.02962 -36.058517 59.289471 -28.016304 112.68923
-9.2423229 -8.2566643 -36.091667 59.384331 -18.127844 -153.81323 -35.943321 125.44196
-9.1909323 -75.144279 -27.868343 112.87098 -35.74329 125.50986 -12.799762 -157.00352
2450000000 -19.883606 -55.122074 -9.39048 -144.98198 -9.1732855 -13.376307 -9.3227215 -80.147453
-9.4197598 -145.0827 -14.955938 -149.05037 -36.080471 50.303741 -27.856035 106.12289
-9.2433081 -13.355993 -36.122337 50.558624 -18.125187 -155.39113 -35.976654 116.67098
-9.1994848 -80.099518 -27.704136 106.30499 -35.788773 116.70187 -12.782063 -159.27605
2460000000 -19.704899 -56.901363 -9.3827829 -150.16362 -9.1743612 -18.489008 -9.3317184 -85.10276
-9.4115191 -150.26614 -14.857834 -150.96574 -36.083736 41.525875 -27.694454 99.453133
-9.2462063 -18.458147 -36.136871 41.710888 -18.1129 -156.98366 -35.994144 108.121
-9.2090864 -85.046463 -27.547005 99.589767 -35.804363 108.16175 -12.775986 -161.56268
2470000000 -19.556522 -58.683735 -9.3758945 -155.34981 -9.1765356 -23.596222 -9.3405943 -90.043106
-9.4043694 -155.44576 -14.764451 -152.83345 -36.044434 32.781666 -27.543598 92.671677
-9.2476835 -23.558191 -36.091545 32.898983 -18.090004 -158.59988 -35.984127 99.592278
-9.2163067 -89.986862 -27.393143 92.805695 -35.786934 99.60498 -12.783698 -163.88573
2480000000 -19.423182 -60.470959 -9.367939 -160.52124 -9.1812077 -28.706718 -9.3482685 -94.979881
-9.396492 -160.62135 -14.66905 -154.61603 -35.984863 23.947628 -27.408552 85.91291
-9.2519541 -28.668049 -36.035515 24.123249 -18.059086 -160.28589 -35.93998 90.856522
-9.2235661 -94.924591 -27.264818 86.070221 -35.754013 91.013313 -12.80749 -166.22765
2490000000 -19.297297 -62.301762 -9.3590651 -165.68724 -9.1880512 -33.804516 -9.3523808 -99.919464
-9.3895931 -165.78876 -14.574413 -156.35378 -35.930531 15.111645 -27.290554 79.16806
-9.2570086 -33.767239 -35.974785 15.281614 -18.027653 -162.04517 -35.900311 82.178055
-9.2306271 -99.87896 -27.143005 79.350357 -35.717251 82.117302 -12.840297 -168.58636
2500000000 -19.180086 -64.305191 -9.3489618 -170.83533 -9.1921816 -38.89698 -9.3565435 -104.86529
-9.380084 -170.92906 -14.481503 -158.06693 -35.885723 6.2217317 -27.17124 72.478661
-9.2614975 -38.871349 -35.927254 6.3508539 -17.995893 -163.84203 -35.882027 73.350906
-9.2345619 -104.81957 -27.027882 72.672394 -35.672771 73.389603 -12.881795 -170.97488
2510000000 -19.084152 -66.500137 -9.339839 -175.9816 -9.2001219 -43.987484 -9.3610229 -109.82066
-9.3696699 -176.07492 -14.392519 -159.72505 -35.856606 -2.50506 -27.053253 65.873215
-9.2684755 -43.964031 -35.900944 -2.3905351 -17.954077 -165.68323 -35.858414 64.609856
-9.2419348 -109.77547 -26.908344 66.048569 -35.664177 64.546303 -12.925658 -173.40596
2520000000 -19.023853 -68.808723 -9.3275719 178.87773 -9.2072754 -49.072201 -9.3664188 -114.77422
-9.3587656 178.78046 -14.298647 -161.3644 -35.797489 -11.135472 -26.940138 59.17564
-9.278307 -49.057915 -35.863693 -11.076424 -17.904552 -167.57945 -35.821533 55.961983
-9.2479992 -114.72089 -26.796881 59.337208 -35.641411 56.099571 -12.980393 -175.85352
2530000000 -18.993118 -71.294785 -9.3134613 173.73831 -9.214551 -54.155479 -9.3713636 -119.73595
-9.3481045 173.64268 -14.207138 -162.99426 -35.731396 -19.778399 -26.832674 52.506954
-9.2873554 -54.132984 -35.784851 -19.746496 -17.854828 -169.52808 -35.788338 47.473045
-9.2529707 -119.67653 -26.683634 52.655117 -35.596043 47.510471 -13.033794 -178.34076
2540000000 -18.997799 -73.874138 -9.3002491 168.59488 -9.2255335 -59.227741 -9.3788137 -124.69672
-9.3352261 168.50189 -14.107318 -164.63391 -35.665688 -28.444363 -26.737839 45.795536
