!Agilent Technologies,N5224A,MY51441093,A.09.90.21
!Agilent N5224A: A.09.90.21
!Date: Friday, December 19, 2025 16:47:27
!Correction: S11(Full 4 Port(1,2,3,4)) 
!S12(Full 4 Port(1,2,3,4)) 
!S13(Full 4 Port(1,2,3,4)) 
!S14(Full 4 Port(1,2,3,4)) 
!S21(Full 4 Port(1,2,3,4)) 
!S22(Full 4 Port(1,2,3,4)) 
!S23(Full 4 Port(1,2,3,4)) 
!S24(Full 4 Port(1,2,3,4)) 
!S31(Full 4 Port(1,2,3,4)) 
!S32(Full 4 Port(1,2,3,4)) 
!S33(Full 4 Port(1,2,3,4)) 
!S34(Full 4 Port(1,2,3,4)) 
!S41(Full 4 Port(1,2,3,4)) 
!S42(Full 4 Port(1,2,3,4)) 
!S43(Full 4 Port(1,2,3,4)) 
!S44(Full 4 Port(1,2,3,4)) 
!S4P File: Measurements: <S11,S12,S13,S14>,
!<S21,S22,S23,S24>,
!<S31,S32,S33,S34>,
!<S41,S42,S43,S44>:
# Hz S  dB   R 50
2000000000 -10.060815 -46.290024 -9.5472717 -73.572418 -9.7500725 -123.41361 -9.5968781 -95.198402
-9.5760708 -73.622833 -20.352415 109.47209 -35.088718 -5.1000285 -30.837645 5.9914713
-9.8086691 -123.24324 -35.120476 -4.926681 -14.176758 -5.1952891 -35.318295 -26.678789
-9.4843493 -94.963257 -30.689814 6.3368959 -35.143822 -26.705221 -24.516516 34.950596
2010000000 -10.211482 -50.380684 -9.514369 -78.723389 -9.7283983 -128.46521 -9.5727234 -100.38606
-9.5480366 -78.751755 -20.509369 104.47555 -35.176311 -15.416188 -30.840487 -0.59529769
-9.7816525 -128.29338 -35.200916 -15.174533 -14.141928 -8.8663158 -35.411926 -37.029385
-9.4566803 -100.14799 -30.701542 -0.36716852 -35.239529 -36.990513 -24.189754 28.796156
2020000000 -10.388515 -54.45792 -9.4863129 -83.86657 -9.708539 -133.50969 -9.547307 -105.58411
-9.5178499 -83.892731 -20.659946 99.364349 -35.230782 -25.527193 -30.837978 -7.2301192
-9.7591419 -133.34787 -35.268963 -25.251827 -14.118683 -12.517085 -35.507687 -47.178848
-9.4274015 -105.33169 -30.682753 -6.9541917 -35.323662 -47.074245 -23.870047 22.757393
2030000000 -10.584206 -58.521103 -9.4599152 -89.009636 -9.6865215 -138.56223 -9.5214481 -110.78252
-9.4875755 -89.036827 -20.820419 94.131203 -35.27692 -35.678009 -30.800747 -13.954395
-9.7402287 -138.3983 -35.328392 -35.459614 -14.097812 -16.169374 -35.546261 -57.443367
-9.4011469 -110.52216 -30.66514 -13.672084 -35.37693 -57.372574 -23.573696 16.790508
2040000000 -10.799172 -62.622528 -9.4304476 -94.157608 -9.6673212 -143.61447 -9.4937763 -115.97664
-9.4562845 -94.200401 -20.991322 88.789742 -35.322784 -46.071838 -30.774847 -20.834545
-9.7190523 -143.45471 -35.358326 -45.840984 -14.083454 -19.81241 -35.600536 -67.79641
-9.3737593 -115.72314 -30.626171 -20.563364 -35.420418 -67.718323 -23.281384 10.837106
2050000000 -11.029287 -66.744492 -9.3997631 -99.32254 -9.6433544 -148.68051 -9.4666004 -121.17168
-9.4264383 -99.36599 -21.166807 83.373619 -35.399067 -56.442352 -30.763203 -27.875166
-9.6956129 -148.52635 -35.431049 -56.380737 -14.067941 -23.453983 -35.649532 -78.375427
-9.3465528 -120.93346 -30.618759 -27.62298 -35.478088 -78.247368 -23.000826 4.9838996
2060000000 -11.288582 -70.910217 -9.3655214 -104.49625 -9.6193476 -153.75847 -9.4398327 -126.38884
-9.3976622 -104.54373 -21.338842 77.938004 -35.468174 -66.789703 -30.753922 -34.912014
-9.6738834 -153.60094 -35.489174 -66.558693 -14.055961 -27.053585 -35.712009 -88.616913
-9.3195038 -126.14171 -30.602726 -34.592823 -35.545883 -88.561752 -22.714035 -0.77291781
2070000000 -11.572177 -75.085892 -9.3401127 -109.68798 -9.5996628 -158.84032 -9.4121437 -131.61761
-9.3685646 -109.73746 -21.511015 72.383217 -35.541756 -76.989449 -30.749517 -41.8381
-9.6530933 -158.69469 -35.575546 -76.829201 -14.043298 -30.597759 -35.792068 -98.90593
-9.2939234 -131.36058 -30.618052 -41.517338 -35.62867 -98.856773 -22.415142 -6.2856998
2080000000 -11.881075 -79.282463 -9.3116093 -114.87827 -9.5777864 -163.92288 -9.3877115 -136.84154
-9.3403301 -114.9271 -21.678831 66.69603 -35.588993 -87.078629 -30.726204 -48.779064
-9.6308546 -163.78828 -35.628811 -86.782257 -14.028664 -34.154106 -35.828815 -109.02525
-9.269392 -136.59038 -30.581516 -48.487827 -35.646149 -108.94279 -22.110275 -11.740768
2090000000 -12.214222 -83.507866 -9.2855501 -120.06751 -9.5571823 -169.01122 -9.3642654 -142.07304
-9.3126688 -120.1207 -21.852503 60.892727 -35.634491 -97.17691 -30.689659 -55.785389
-9.6121721 -168.88182 -35.644478 -97.034248 -14.015311 -37.647255 -35.85088 -119.17661
-9.243351 -141.82335 -30.552895 -55.50832 -35.665668 -119.16388 -21.796383 -17.042732
2100000000 -12.580278 -87.816223 -9.2590675 -125.26349 -9.5360031 -174.10802 -9.3419714 -147.31097
-9.2864799 -125.32159 -22.023516 54.989941 -35.644573 -107.34675 -30.65811 -62.821774
-9.593256 -173.97235 -35.669533 -107.24411 -14.012034 -41.080406 -35.847664 -129.48248
-9.2189837 -147.06342 -30.514914 -62.5662 -35.681244 -129.48206 -21.488583 -22.115423
2110000000 -12.988665 -92.162636 -9.2329617 -130.46722 -9.5157871 -179.20697 -9.3177443 -152.5466
-9.2585592 -130.51582 -22.188347 49.010735 -35.660423 -117.69871 -30.623463 -70.02478
-9.5726595 -179.06474 -35.691772 -117.40089 -14.010147 -44.47847 -35.839916 -139.94019
-9.1971474 -152.31355 -30.482939 -69.790413 -35.678959 -139.78096 -21.188204 -26.943567
2120000000 -13.443648 -96.507935 -9.2072353 -135.68044 -9.4956083 175.68436 -9.2976007 -157.80257
-9.2327738 -135.72554 -22.34688 42.918041 -35.692379 -127.69615 -30.597139 -77.266151
-9.5517845 175.82346 -35.718033 -127.72231 -14.011307 -47.808983 -35.863991 -150.35896
-9.1736317 -157.56633 -30.451897 -76.891502 -35.682297 -150.35112 -20.908117 -31.493317
2130000000 -13.939323 -100.85929 -9.1834927 -140.8985 -9.4757862 170.56764 -9.2782507 -163.06123
-9.2076483 -140.93742 -22.487553 36.744114 -35.698483 -138.10463 -30.571484 -84.377632
-9.531867 170.7029 -35.755547 -137.80978 -14.0171 -51.094067 -35.886936 -160.69046
-9.1558037 -162.82826 -30.426052 -84.102692 -35.702156 -160.64795 -20.643667 -35.8671
2140000000 -14.476892 -105.29005 -9.1602278 -146.11894 -9.4569998 165.44174 -9.2606802 -168.31476
-9.1844397 -146.16745 -22.603268 30.468292 -35.711159 -148.2495 -30.529804 -91.500694
-9.5147104 165.58141 -35.769791 -148.07904 -14.034202 -54.325554 -35.890804 -171.01692
-9.1373177 -168.08748 -30.392334 -91.264931 -35.710239 -170.9942 -20.396545 -40.060787
2150000000 -15.066422 -109.8389 -9.139679 -151.34554 -9.4406385 160.32355 -9.2445068 -173.57201
-9.1641502 -151.38675 -22.702538 24.11598 -35.727795 -158.26326 -30.479736 -98.732521
-9.4965086 160.45351 -35.764 -158.24623 -14.05474 -57.529987 -35.872242 178.63521
-9.1202459 -173.34436 -30.345272 -98.464378 -35.693336 178.67221 -20.177643 -44.194023
2160000000 -15.72017 -114.54259 -9.118144 -156.5665 -9.4242325 155.20743 -9.2294102 -178.82236
-9.1432343 -156.59872 -22.77508 17.751238 -35.720558 -168.48297 -30.432449 -105.97986
-9.4814739 155.3331 -35.747917 -168.36047 -14.084199 -60.697018 -35.876087 168.39996
-9.1051712 -178.59753 -30.291956 -105.73089 -35.690453 168.38861 -19.983173 -48.177483
2170000000 -16.447014 -119.36888 -9.0992765 -161.78845 -9.4064655 150.08182 -9.2152338 175.91702
-9.1212702 -161.82109 -22.816631 11.387729 -35.69268 -178.69432 -30.39352 -113.24803
-9.4642839 150.20625 -35.742065 -178.57976 -14.114895 -63.822506 -35.862877 158.00861
-9.0887499 176.13832 -30.248936 -112.96231 -35.688026 158.11858 -19.813049 -52.104744
2180000000 -17.259169 -124.39245 -9.0827217 -167.02495 -9.3918848 144.94997 -9.2035351 170.65923
-9.1046314 -167.05664 -22.829884 5.1451745 -35.695366 171.03107 -30.346781 -120.4808
-9.4486256 145.06444 -35.750614 171.15793 -14.151293 -66.9282 -35.851131 147.63667
-9.0763311 170.87527 -30.212837 -120.22722 -35.663471 147.75618 -19.66025 -55.990345
2190000000 -18.154539 -129.65746 -9.0684347 -172.24309 -9.3772926 139.806 -9.1928587 165.39735
-9.0892582 -172.28648 -22.811916 -1.0571926 -35.703892 160.71684 -30.319427 -127.73073
-9.433321 139.92041 -35.750481 160.84499 -14.184055 -69.995796 -35.845913 137.36349
-9.0643139 165.60649 -30.174072 -127.46101 -35.672894 137.39954 -19.524164 -59.794312
2200000000 -19.169529 -135.29875 -9.0559587 -177.45801 -9.3635826 134.66954 -9.184041 160.14368
-9.075551 -177.51019 -22.768526 -7.1067619 -35.715836 150.53093 -30.285847 -134.81389
-9.4203148 134.77792 -35.750393 150.70917 -14.218581 -73.03981 -35.852829 127.04955
-9.0557175 160.33775 -30.134771 -134.57144 -35.655922 127.07813 -19.393993 -63.618439
2210000000 -20.31959 -141.37819 -9.0450268 177.32718 -9.3525352 129.52731 -9.1775494 154.88188
-9.0622864 177.26413 -22.698877 -13.086821 -35.72076 140.56798 -30.243567 -141.95406
-9.4093666 129.62617 -35.756252 140.68042 -14.249337 -76.091721 -35.853287 116.8611
-9.0485001 155.07214 -30.099064 -141.67548 -35.68293 116.88516 -19.265163 -67.392738
2220000000 -21.644218 -148.12686 -9.0340166 172.11908 -9.3431921 124.39207 -9.1751137 149.62869
-9.0519905 172.04404 -22.609167 -18.932484 -35.710373 130.39052 -30.192766 -148.90639
-9.4007683 124.48003 -35.75563 130.60513 -14.284662 -79.100876 -35.849434 106.77258
-9.0455351 149.81795 -30.049408 -148.68388 -35.67078 106.84841 -19.136868 -71.179947
2230000000 -23.167036 -155.87044 -9.0237083 166.90227 -9.3350773 119.25991 -9.1727943 144.3911
-9.0411987 166.82401 -22.510431 -24.601292 -35.679764 120.36521 -30.130981 -156.0118
-9.3910599 119.33442 -35.745712 120.55309 -14.314553 -82.079849 -35.838554 96.5886
-9.042923 144.57155 -29.988367 -155.73825 -35.646973 96.726448 -19.014997 -74.884102
2240000000 -24.949732 -165.33159 -9.0152559 161.69876 -9.3241606 114.12848 -9.1723089 139.16225
-9.0348434 161.60924 -22.404528 -30.230961 -35.671959 110.34163 -30.074791 -162.95332
-9.3822994 114.19292 -35.720524 110.40452 -14.342276 -85.016205 -35.82114 86.488174
-9.0408363 139.33879 -29.926701 -162.73882 -35.639805 86.627899 -18.890381 -78.511887
2250000000 -27.037117 -177.91261 -9.0105448 156.50107 -9.3179216 108.98248 -9.1741953 133.95045
-9.0277843 156.41362 -22.285105 -35.660213 -35.680363 100.17635 -30.025249 -169.86705
-9.3755779 109.04899 -35.701828 100.35358 -14.367222 -87.918762 -35.818336 76.381645
-9.0411415 134.11298 -29.877834 -169.67149 -35.633659 76.476608 -18.766872 -82.011314
2260000000 -29.370901 163.93494 -9.0060606 151.31403 -9.3110018 103.84323 -9.1749887 128.73915
-9.0249615 151.22519 -22.15448 -40.968956 -35.673759 90.249542 -29.952187 -176.69774
-9.3717661 103.9019 -35.725109 90.311134 -14.391084 -90.780861 -35.838505 66.347916
-9.0426054 128.89839 -29.811619 -176.50652 -35.643105 66.397964 -18.643122 -85.449883
2270000000 -31.336197 136.67522 -9.0044994 146.13533 -9.306057 98.697586 -9.1798048 123.5388
-9.0191336 146.04662 -22.017973 -46.232094 -35.670658 80.265816 -29.875208 176.54562
-9.3662691 98.762299 -35.731312 80.323502 -14.415263 -93.602249 -35.856487 56.401978
-9.0460958 123.70451 -29.730043 176.77156 -35.666775 56.53035 -18.526766 -88.765038
2280000000 -31.475029 102.87362 -9.0014076 140.95842 -9.3031206 93.565277 -9.1829033 118.35365
-9.0155048 140.86801 -21.86735 -51.328732 -35.680672 70.489304 -29.779346 169.81406
-9.3643589 93.634476 -35.713631 70.690704 -14.443755 -96.35154 -35.877987 46.685555
-9.0491419 118.51276 -29.633905 170.0368 -35.680756 46.689953 -18.418221 -92.026794
2290000000 -29.715355 74.555107 -8.9972219 135.78857 -9.300396 88.426682 -9.1873112 113.18181
-9.0147552 135.70267 -21.71883 -56.351398 -35.676823 60.60125 -29.680508 162.99818
-9.3606911 88.503632 -35.703648 60.819141 -14.476187 -99.048729 -35.86359 36.882874
-9.0525112 113.33916 -29.53689 163.24594 -35.672981 37.117466 -18.322767 -95.200401
2300000000 -27.452467 55.664852 -8.9942656 130.62782 -9.2998953 83.295815 -9.1930285 108.01253
-9.0132971 130.54707 -21.5597 -61.180363 -35.637817 50.902546 -29.578196 156.28174
-9.3584909 83.377609 -35.678108 51.078518 -14.505306 -101.71061 -35.8601 27.301304
-9.0566826 108.18039 -29.428747 156.53607 -35.662262 27.223143 -18.241329 -98.264969
2310000000 -25.436211 42.583008 -8.9941177 125.48 -9.2998037 78.173569 -9.1977396 102.86912
-9.0119505 125.40699 -21.389338 -65.865845 -35.625443 40.925014 -29.48102 149.58073
-9.359333 78.247353 -35.686996 41.126595 -14.539967 -104.34343 -35.877388 17.548468
-9.0626192 103.01385 -29.336857 149.79884 -35.673016 17.504091 -18.166027 -101.2721
2320000000 -23.750132 32.82259 -8.9923944 120.33631 -9.3000393 73.064247 -9.2031956 97.736679
-9.0104332 120.26363 -21.214916 -70.414139 -35.634941 31.241035 -29.364063 143.0032
-9.3607483 73.120628 -35.681835 31.361088 -14.575386 -106.93707 -35.895275 7.9978261
-9.0701218 97.87043 -29.22394 143.21175 -35.709328 7.9673562 -18.103603 -104.33385
2330000000 -22.33568 24.999983 -8.993104 115.20442 -9.3012962 67.956345 -9.2093878 92.620987
-9.0102892 115.123 -21.037815 -74.872086 -35.663311 21.641815 -29.238382 136.47357
-9.3611097 67.993027 -35.718731 21.707529 -14.614285 -109.51675 -35.928482 -1.4926145
-9.0766811 92.733528 -29.1049 136.67549 -35.731594 -1.359292 -18.049059 -107.35136
2340000000 -21.130161 18.313505 -8.9925394 110.09255 -9.3037052 62.836414 -9.2143679 87.515854
-9.0115967 110.00046 -20.873777 -79.109657 -35.639267 12.108989 -29.09996 129.86365
-9.3653631 62.872643 -35.702549 12.164764 -14.65599 -112.07665 -35.941284 -10.659558
-9.0826073 87.618752 -28.952303 130.03874 -35.740768 -10.535623 -18.011578 -110.38366
2350000000 -20.095055 12.202679 -8.9930086 104.9894 -9.3066216 57.732899 -9.2190971 82.422295
-9.0122366 104.89642 -20.710833 -83.209404 -35.63324 2.542511 -28.958363 123.23843
-9.3692446 57.766361 -35.680836 2.6131279 -14.695707 -114.61043 -35.90686 -19.798019
-9.0868187 82.513145 -28.810778 123.44836 -35.714378 -19.759726 -17.973028 -113.39523
2360000000 -19.201815 6.5169215 -8.9922094 99.895302 -9.3104572 52.631062 -9.2207966 77.3386
-9.0122776 99.797943 -20.553173 -87.114349 -35.615856 -7.0891004 -28.815357 116.59772
-9.3735666 52.66013 -35.659698 -6.9990616 -14.733567 -117.10533 -35.884674 -29.082809
-9.0895424 77.416031 -28.665075 116.7719 -35.671307 -29.059767 -17.931929 -116.41268
2370000000 -18.441195 1.1064498 -8.9909391 94.81472 -9.3159628 47.536816 -9.2234974 72.251831
-9.0110064 94.712433 -20.402582 -90.892639 -35.633007 -16.741409 -28.679482 110.08381
-9.3780775 47.56131 -35.667645 -16.63619 -14.770714 -119.58798 -35.852192 -38.397373
-9.0911312 72.316399 -28.528015 110.25167 -35.650185 -38.39793 -17.892839 -119.41945
2380000000 -17.777386 -4.069984 -8.9880276 89.735809 -9.3208094 42.451717 -9.2252054 67.15683
-9.00947 89.622101 -20.264582 -94.557198 -35.6698 -26.086319 -28.523344 103.51297
-9.3852291 42.4655 -35.70467 -26.065554 -14.808751 -122.03808 -35.831982 -47.785717
-9.093256 67.21524 -28.37311 103.68638 -35.623524 -47.655777 -17.852592 -122.3843
2390000000 -17.193071 -9.0316896 -8.982873 84.64344 -9.3257408 37.363674 -9.2253408 62.072506
-9.0066891 84.539429 -20.144754 -98.159737 -35.70536 -35.383862 -28.356142 96.959641
-9.3908815 37.366737 -35.74905 -35.204723 -14.849439 -124.42351 -35.819035 -56.996593
-9.0950336 62.111263 -28.209442 97.109482 -35.641617 -56.894283 -17.80928 -125.27514
2400000000 -16.674578 -13.94923 -8.9796801 79.569862 -9.3316908 32.285378 -9.2267036 56.987911
-9.004631 79.455482 -20.041626 -101.57265 -35.705124 -44.396503 -28.192726 90.26889
-9.3990898 32.285488 -35.75914 -44.363228 -14.88262 -126.7548 -35.817116 -66.030769
-9.0968542 57.022259 -28.048309 90.432487 -35.633694 -66.115768 -17.767441 -128.03145
2410000000 -16.229324 -18.829042 -8.9759579 74.492729 -9.3390741 27.204882 -9.2281389 51.908062
-9.0026836 74.376244 -19.944145 -104.83568 -35.688663 -53.344341 -28.035694 83.577614
-9.4074469 27.214685 -35.740215 -53.313251 -14.915409 -129.00269 -35.781559 -75.194153
-9.0996456 51.939114 -27.895292 83.719681 -35.60014 -75.257736 -17.726593 -130.63258
2420000000 -15.845413 -23.61006 -8.9732561 69.420319 -9.3484955 22.139029 -9.2296848 46.8367
-8.9982357 69.297935 -19.850431 -107.97379 -35.669437 -62.571754 -27.894478 76.859085
-9.4157619 22.151194 -35.731548 -62.414139 -14.939354 -131.20114 -35.77494 -84.389565
-9.1008778 46.861889 -27.751362 77.060562 -35.579113 -84.384758 -17.681286 -133.08504
2430000000 -15.510679 -28.261986 -8.9697027 64.353279 -9.3548803 17.084192 -9.2275858 41.766926
-8.9944372 64.223579 -19.747505 -111.05378 -35.663982 -71.905579 -27.756413 70.300301
-9.4231348 17.084379 -35.721096 -71.719353 -14.959062 -133.37433 -35.778114 -93.738907
-9.100275 41.798561 -27.608486 70.441689 -35.58316 -93.641693 -17.634888 -135.39001
2440000000 -15.211233 -32.860142 -8.9645014 59.288227 -9.3643913 12.020362 -9.22752 36.701588
-8.9901142 59.151646 -19.656832 -114.01581 -35.683403 -80.989296 -27.607126 63.789337
-9.4321299 12.03212 -35.740368 -80.81797 -14.978529 -135.4915 -35.794697 -102.75044
-9.1011877 36.729248 -27.467136 63.957272 -35.619621 -102.79764 -17.603901 -137.59007
2450000000 -14.946214 -37.487247 -8.9558382 54.204876 -9.3726044 6.9599266 -9.2253647 31.621704
-8.9852333 54.083485 -19.565781 -116.90257 -35.73008 -89.802948 -27.451086 57.238255
-9.4428988 6.9778008 -35.762703 -89.714531 -14.991772 -137.52661 -35.854664 -111.66953
-9.1014309 31.668812 -27.300758 57.376976 -35.65662 -111.68835 -17.580893 -139.64996
2460000000 -14.722188 -42.124451 -8.9516554 49.111599 -9.3811569 1.9065725 -9.2251158 26.541195
-8.9789782 49.006512 -19.476542 -119.59493 -35.730686 -98.520256 -27.273897 50.573635
-9.4518547 1.9242139 -35.756729 -98.400757 -14.999885 -139.55315 -35.8801 -120.26887
-9.1004915 26.594332 -27.132736 50.745495 -35.686661 -120.30158 -17.563902 -141.5751
2470000000 -14.54987 -46.761524 -8.9451447 44.008465 -9.3924484 -3.1473823 -9.2242002 21.478064
-8.9751472 43.91703 -19.38271 -122.13493 -35.723751 -106.99902 -27.12118 43.856232
-9.4624929 -3.1208274 -35.760029 -107.02209 -14.999384 -141.55092 -35.900665 -128.80806
-9.1000166 21.539812 -26.975674 44.006008 -35.686054 -128.72993 -17.55265 -143.40494
2480000000 -14.415345 -51.342609 -8.942934 38.922321 -9.4051714 -8.185998 -9.2229614 16.419981
-8.969367 38.818111 -19.267839 -124.47449 -35.666096 -115.69122 -26.985126 37.078209
-9.4741001 -8.1590681 -35.717316 -115.64961 -14.992404 -143.58971 -35.852081 -137.40515
-9.0975924 16.474258 -26.835878 37.267246 -35.660038 -137.39963 -17.543186 -145.19989
2490000000 -14.318118 -55.839687 -8.9408121 33.829487 -9.4170876 -13.214393 -9.21873 11.364348
-8.9676609 33.726624 -19.150747 -126.75308 -35.606232 -124.54037 -26.855787 30.37682
-9.4860134 -13.181177 -35.658176 -124.37099 -14.983996 -145.63924 -35.806065 -145.9485
-9.096529 11.408776 -26.708609 30.526749 -35.631767 -145.96619 -17.526606 -146.9973
2500000000 -14.245536 -60.361366 -8.9344978 28.75354 -9.4289427 -18.236279 -9.2125559 6.3035207
-8.9653797 28.650089 -19.022568 -128.91701 -35.578804 -133.30598 -26.730869 23.729387
-9.4986181 -18.20826 -35.622089 -133.22581 -14.969893 -147.72504 -35.796539 -154.64268
-9.0908566 6.3425303 -26.584869 23.861277 -35.604195 -154.65607 -17.511606 -148.83046
2510000000 -14.207591 -64.866257 -8.9320393 23.669115 -9.4425049 -23.240261 -9.2099524 1.2286078
-8.9653473 23.567408 -18.892504 -131.00177 -35.561493 -142.00293 -26.614288 17.065334
-9.514081 -23.223621 -35.608009 -141.85596 -14.95373 -149.80826 -35.788479 -163.29053
-9.0905447 1.2663792 -26.467941 17.244839 -35.602493 -163.31654 -17.49007 -150.72552
2520000000 -14.198934 -69.408852 -8.9304457 18.583176 -9.4568386 -28.237186 -9.2057295 -3.8610718
-8.961751 18.487762 -18.753759 -133.02997 -35.509338 -150.66556 -26.490726 10.381204
-9.5276814 -28.226683 -35.567375 -150.58023 -14.92894 -151.92688 -35.78709 -171.85451
-9.0884104 -3.8062851 -26.346588 10.542028 -35.588562 -171.76595 -17.456526 -152.66551
2530000000 -14.22416 -74.011658 -8.9286671 13.508187 -9.4713984 -33.231659 -9.2038927 -8.9445362
-8.9608965 13.411079 -18.608633 -135.00439 -35.464474 -159.14027 -26.374023 3.6975811
-9.543087 -33.211544 -35.508968 -158.98088 -14.899668 -154.08571 -35.737926 179.82416
-9.0854959 -8.8910055 -26.232481 3.8379059 -35.558079 179.75322 -17.414509 -154.68886
2540000000 -14.28194 -78.684235 -8.9273367 8.4338064 -9.4839067 -38.202545 -9.2041264 -14.023178
-8.9600868 8.3374882 -18.456068 -137.00243 -35.407131 -167.6256 -26.280132 -3.0254416
