!Agilent Technologies,N5224A,MY51441093,A.09.90.21
!Agilent N5224A: A.09.90.21
!Date: Friday, December 19, 2025 16:47:49
!Correction: S11(Full 4 Port(1,2,3,4)) 
!S12(Full 4 Port(1,2,3,4)) 
!S13(Full 4 Port(1,2,3,4)) 
!S14(Full 4 Port(1,2,3,4)) 
!S21(Full 4 Port(1,2,3,4)) 
!S22(Full 4 Port(1,2,3,4)) 
!S23(Full 4 Port(1,2,3,4)) 
!S24(Full 4 Port(1,2,3,4)) 
!S31(Full 4 Port(1,2,3,4)) 
!S32(Full 4 Port(1,2,3,4)) 
!S33(Full 4 Port(1,2,3,4)) 
!S34(Full 4 Port(1,2,3,4)) 
!S41(Full 4 Port(1,2,3,4)) 
!S42(Full 4 Port(1,2,3,4)) 
!S43(Full 4 Port(1,2,3,4)) 
!S44(Full 4 Port(1,2,3,4)) 
!S4P File: Measurements: <S11,S12,S13,S14>,
!<S21,S22,S23,S24>,
!<S31,S32,S33,S34>,
!<S41,S42,S43,S44>:
# Hz S  dB   R 50
2000000000 -14.141255 -52.019268 -9.3844757 -73.863876 -9.2251711 -170.14136 -9.6377945 -123.86796
-9.4130917 -73.903503 -20.338871 109.25905 -34.541969 -51.65675 -30.92444 -21.930115
-9.2829256 -169.97043 -34.590172 -51.423782 -15.292777 4.9458203 -34.915356 -102.411
-9.5232115 -123.63421 -30.769888 -21.672827 -34.743664 -102.31771 -14.203835 -3.6750627
2010000000 -14.457724 -54.729763 -9.3637648 -79.126564 -9.2046022 -175.16856 -9.630249 -129.03496
-9.394639 -79.154213 -20.49826 104.26008 -34.633293 -61.920155 -30.941723 -28.597206
-9.2585144 -174.99945 -34.649303 -61.725574 -15.401134 1.8999484 -34.996723 -112.5502
-9.5133743 -128.79109 -30.791847 -28.279686 -34.8456 -112.51163 -14.162939 -7.3930163
2020000000 -14.813145 -57.29768 -9.3492422 -84.371582 -9.1907492 179.80661 -9.6239309 -134.19716
-9.3792543 -84.398972 -20.658972 99.160667 -34.698296 -72.11393 -30.95612 -35.159428
-9.242281 179.96297 -34.732754 -71.808479 -15.516268 -1.1116735 -35.083107 -122.62972
-9.5042191 -133.94702 -30.803581 -34.914139 -34.907482 -122.5387 -14.122683 -11.090897
2030000000 -15.191587 -59.692707 -9.3364096 -89.615227 -9.1737146 174.76065 -9.6174145 -139.34042
-9.3628292 -89.640526 -20.829966 93.924919 -34.745621 -82.310448 -30.93833 -41.892464
-9.2273207 174.92239 -34.783989 -82.054733 -15.63089 -4.1046276 -35.128201 -132.67696
-9.4985266 -139.08937 -30.80084 -41.602329 -34.964649 -132.65967 -14.089547 -14.816425
2040000000 -15.592405 -61.904621 -9.3221893 -94.842598 -9.1591873 169.71342 -9.6129913 -144.46645
-9.3479404 -94.881363 -21.003654 88.622337 -34.78883 -92.522896 -30.932343 -48.699036
-9.2121897 169.87799 -34.823689 -92.356308 -15.739933 -7.0469279 -35.197777 -142.83147
-9.4935379 -144.21875 -30.781971 -48.402794 -35.024483 -142.83676 -14.060956 -18.542761
2050000000 -16.006443 -63.935879 -9.3089323 -100.06878 -9.1433964 164.65726 -9.6076756 -149.58202
-9.334754 -100.10984 -21.183695 83.236191 -34.853184 -102.97492 -30.927662 -55.583595
-9.1969547 164.81238 -34.893456 -102.7823 -15.8385 -9.9669876 -35.250362 -153.13678
-9.4882641 -149.34132 -30.783388 -55.258427 -35.07848 -153.19281 -14.03224 -22.231161
2060000000 -16.451527 -65.762718 -9.2949066 -105.29378 -9.1290388 159.57835 -9.6022949 -154.69791
-9.3239546 -105.33789 -21.360445 77.805519 -34.939022 -113.3222 -30.941362 -62.547398
-9.1847181 159.7366 -34.958199 -113.12602 -15.929281 -12.875623 -35.316315 -163.28662
-9.483202 -154.4565 -30.802172 -62.18071 -35.137981 -163.34383 -13.998859 -25.90473
2070000000 -16.915838 -67.334732 -9.284112 -110.5197 -9.119132 154.49812 -9.597476 -159.81451
-9.311141 -110.56324 -21.528616 72.312027 -35.021881 -123.51025 -30.953615 -69.391762
-9.1723623 154.64664 -35.05661 -123.28646 -16.011793 -15.757094 -35.420349 -173.41594
-9.4786901 -159.57143 -30.813007 -69.036583 -35.23587 -173.35602 -13.96496 -29.524937
2080000000 -17.395947 -68.599754 -9.2730255 -115.72684 -9.108901 149.40991 -9.5918274 -164.92715
-9.3009272 -115.77637 -21.698553 66.652817 -35.072742 -133.50566 -30.961 -76.111404
-9.1625729 149.55 -35.105412 -133.30247 -16.08552 -18.618525 -35.463425 176.65587
-9.4743357 -164.67836 -30.812963 -75.800194 -35.294323 176.77278 -13.926273 -33.139957
2090000000 -17.889463 -69.564095 -9.2648783 -120.92932 -9.1009865 144.31723 -9.5899696 -170.0256
-9.2918377 -120.98895 -21.86949 60.894176 -35.111588 -143.60597 -30.937359 -82.960022
-9.1544027 144.45358 -35.139622 -143.37897 -16.150856 -21.415821 -35.483269 166.84802
-9.4699993 -169.78253 -30.791899 -82.690125 -35.312653 166.82025 -13.886798 -36.700424
2100000000 -18.40346 -70.152245 -9.2545414 -126.11509 -9.0942211 139.2198 -9.5880909 -175.11742
-9.2828226 -126.17682 -22.037657 55.038166 -35.135975 -153.79512 -30.914865 -89.926582
-9.1488066 139.35899 -35.163651 -153.65161 -16.212395 -24.110773 -35.486027 156.70261
-9.4667969 -174.87682 -30.769527 -89.596107 -35.31477 156.82767 -13.848853 -40.185379
2110000000 -18.927605 -70.27108 -9.2465906 -131.30115 -9.087429 134.12299 -9.5847025 179.79996
-9.2730541 -131.34488 -22.193592 49.052994 -35.164314 -164.00658 -30.894558 -96.892082
-9.1448917 134.25374 -35.205753 -163.9015 -16.259842 -26.77346 -35.508305 146.69699
-9.464467 -179.97028 -30.760139 -96.647324 -35.329636 146.75757 -13.814022 -43.566185
2120000000 -19.445383 -69.796844 -9.2391872 -136.47458 -9.0827579 129.01666 -9.5839281 174.71916
-9.2655687 -136.51413 -22.356459 43.007549 -35.211063 -174.23222 -30.886614 -103.90971
-9.1416683 129.15405 -35.252628 -174.07791 -16.298323 -29.393091 -35.536564 136.53787
-9.4620714 174.95274 -30.740786 -103.55925 -35.344589 136.57246 -13.784637 -46.879227
2130000000 -19.932423 -68.769424 -9.2303696 -141.64514 -9.0809155 123.9052 -9.5830669 169.64401
-9.2542086 -141.6776 -22.489069 36.850014 -35.251308 175.63704 -30.862135 -110.81181
-9.1383934 124.04894 -35.273701 175.74084 -16.33073 -31.968821 -35.559822 126.52306
-9.4609804 169.87587 -30.725065 -110.52701 -35.372776 126.55952 -13.759903 -50.11797
2140000000 -20.375463 -67.338745 -9.2221727 -146.79842 -9.0814009 118.79794 -9.5823202 164.59532
-9.2443361 -146.8407 -22.604542 30.583149 -35.275864 165.4724 -30.835066 -117.73375
-9.1403389 118.93798 -35.307156 165.6324 -16.368578 -34.51228 -35.563084 116.52071
-9.4583979 164.81573 -30.693375 -117.46215 -35.397243 116.48389 -13.740621 -53.318378
2150000000 -20.773064 -65.474068 -9.2148733 -151.9492 -9.0829306 113.69598 -9.5803547 159.55042
-9.2362843 -151.9873 -22.69381 24.210289 -35.279572 155.33835 -30.779001 -124.68863
-9.1400547 113.82559 -35.326328 155.5119 -16.39518 -37.026054 -35.555824 106.44225
-9.456562 159.7699 -30.644962 -124.45551 -35.382545 106.46539 -13.730994 -56.483997
2160000000 -21.118937 -63.145981 -9.2044277 -157.09213 -9.086483 108.59507 -9.576025 154.51105
-9.2266741 -157.12567 -22.762005 17.816614 -35.288784 145.21075 -30.738895 -131.7252
-9.1436472 108.72435 -35.332817 145.35432 -16.416758 -39.4953 -35.575298 96.349434
-9.45158 154.73509 -30.590654 -131.44711 -35.393051 96.454796 -13.73241 -59.598717
2170000000 -21.357512 -60.462257 -9.1957645 -162.22675 -9.0919361 103.49132 -9.5719585 149.47609
-9.2154007 -162.25761 -22.799562 11.463002 -35.29364 135.01906 -30.690168 -138.7748
-9.1499271 103.62022 -35.338158 135.22707 -16.434649 -42.0056 -35.561859 86.331879
-9.4457064 149.7 -30.541254 -138.52779 -35.392994 86.355461 -13.74053 -62.703083
2180000000 -21.494192 -57.64875 -9.1847115 -167.35536 -9.098485 98.401596 -9.5661488 144.45006
-9.2058792 -167.38719 -22.809328 5.1867886 -35.308498 124.76026 -30.64324 -145.81627
-9.1552858 98.520882 -35.354206 124.92545 -16.449511 -44.507027 -35.576328 76.151962
-9.4398575 144.66748 -30.495321 -145.56683 -35.397049 76.16671 -13.754298 -65.785606
2190000000 -21.52673 -54.995533 -9.1762981 -172.46803 -9.1059895 93.30938 -9.5581675 139.42487
-9.1960201 -172.51213 -22.784756 -1.0355713 -35.345184 114.53301 -30.596407 -152.83829
-9.1621151 93.426292 -35.381729 114.82269 -16.452795 -47.087196 -35.598888 66.101563
-9.4330053 139.63051 -30.462564 -152.58878 -35.417927 66.167366 -13.771818 -68.848366
2200000000 -21.484209 -52.43734 -9.1658421 -177.57664 -9.1141787 88.228622 -9.5515614 134.40924
-9.1853199 -177.62788 -22.737801 -7.1571007 -35.357544 104.42638 -30.553946 -159.76949
-9.1712494 88.336731 -35.398071 104.64925 -16.457582 -49.650814 -35.615616 56.094147
-9.4248695 134.59952 -30.402973 -159.56389 -35.431881 56.182556 -13.790361 -71.912872
2210000000 -21.350618 -50.169636 -9.1535206 177.31851 -9.1266041 83.148056 -9.5424585 129.37698
-9.1732893 177.25465 -22.664814 -13.16218 -35.393913 94.442177 -30.486311 -166.74458
-9.183898 83.251221 -35.42379 94.594048 -16.45533 -52.26939 -35.650108 46.12022
-9.4174585 129.56599 -30.348906 -166.44336 -35.463657 46.207363 -13.809897 -74.964195
2220000000 -21.141022 -48.270184 -9.1424942 172.21626 -9.1374884 78.087051 -9.536231 124.35518
-9.1607676 172.14294 -22.576065 -19.076546 -35.400242 84.526947 -30.418686 -173.65538
-9.1970921 78.170967 -35.452179 84.726654 -16.445852 -54.887661 -35.65276 36.369278
-9.4094944 124.5348 -30.275316 -173.37932 -35.463875 36.284832 -13.831788 -78.01265
2230000000 -20.870983 -46.939388 -9.1284924 167.10606 -9.150897 73.029526 -9.528348 119.33691
-9.1466722 167.02951 -22.482704 -24.792025 -35.397049 74.466133 -30.350359 179.43037
-9.2099934 73.106903 -35.440659 74.816658 -16.430874 -57.52483 -35.639477 26.430914
-9.3995485 119.51283 -30.20606 179.68254 -35.459789 26.572702 -13.851024 -80.994698
2240000000 -20.580812 -46.11647 -9.1152143 162.00867 -9.1647911 67.985695 -9.5170412 114.31911
-9.1324329 161.91292 -22.378534 -30.433752 -35.414131 64.581383 -30.2735 172.4718
-9.2216206 68.050301 -35.457779 64.691444 -16.40518 -60.178402 -35.659534 16.543142
-9.3886948 114.48948 -30.13114 172.82524 -35.471134 16.611292 -13.868499 -83.949272
2250000000 -20.290865 -45.711555 -9.1016493 156.90565 -9.1791697 62.93716 -9.5082207 109.30559
-9.1177721 156.81464 -22.265472 -35.9249 -35.42329 54.455856 -30.205854 165.66849
-9.2368832 63.004158 -35.462524 54.631672 -16.374514 -62.847595 -35.655258 6.5992422
-9.3774767 109.47946 -30.058685 165.9296 -35.482399 6.6882753 -13.884471 -86.826752
2260000000 -19.986902 -45.63184 -9.0860538 151.80367 -9.1923208 57.896576 -9.4962521 104.29353
-9.1041842 151.71497 -22.142069 -41.273468 -35.430416 44.576424 -30.121355 158.90199
-9.2526913 57.956684 -35.472828 44.653316 -16.339914 -65.480392 -35.686962 -3.0778871
-9.3660889 104.44557 -29.970097 159.15042 -35.502815 -3.1201046 -13.898058 -89.644707
2270000000 -19.678936 -45.933247 -9.0695992 146.69102 -9.2096395 52.856709 -9.4852171 99.27021
-9.0871315 146.60834 -22.011124 -46.541088 -35.458485 34.759441 -30.028244 152.22426
-9.2694597 52.924313 -35.521858 34.870403 -16.299566 -68.09742 -35.738129 -12.93473
-9.3544664 99.42482 -29.878876 152.47534 -35.533482 -12.928432 -13.915458 -92.406685
2280000000 -19.385345 -46.594952 -9.0552425 141.58527 -9.2248583 47.830963 -9.4699907 94.253365
-9.0694218 141.49356 -21.871735 -51.654221 -35.476196 25.010246 -29.909052 145.48204
-9.2848682 47.913406 -35.531403 25.154465 -16.251263 -70.665085 -35.750347 -22.592684
-9.3396769 94.406128 -29.777391 145.75488 -35.555397 -22.519766 -13.933764 -95.108879
2290000000 -19.119171 -47.503647 -9.0363283 136.46407 -9.2436724 42.8139 -9.4566441 89.22567
-9.0533638 136.37161 -21.733303 -56.688427 -35.481743 15.234532 -29.794275 138.65306
-9.3026953 42.898663 -35.53516 15.481201 -16.202299 -73.23629 -35.766331 -32.064323
-9.3234491 89.383553 -29.654165 138.94881 -35.573345 -32.064968 -13.958775 -97.731705
2300000000 -18.870602 -48.614811 -9.0195456 131.34126 -9.260601 37.814865 -9.4413128 84.197433
-9.0376444 131.25224 -21.581188 -61.488743 -35.490952 5.5376048 -29.678259 131.91399
-9.3200636 37.894852 -35.526955 5.709507 -16.148226 -75.782234 -35.785736 -41.714413
-9.3090992 84.35511 -29.535545 132.17278 -35.603836 -41.670265 -13.984359 -100.29188
2310000000 -18.631599 -49.955185 -9.0021687 126.2075 -9.2780704 32.829357 -9.4276152 79.171677
-9.0197039 126.13046 -21.421217 -66.159164 -35.496189 -4.2661958 -29.579817 125.27634
-9.3393211 32.898254 -35.547546 -4.0946574 -16.096695 -78.337494 -35.837208 -51.345802
-9.2939444 79.314667 -29.431112 125.44659 -35.624245 -51.377785 -14.014846 -102.82195
2320000000 -18.4132 -51.578773 -8.9844732 121.0779 -9.296093 27.854994 -9.4109154 74.132767
-9.0021315 120.99978 -21.248316 -70.656715 -35.521355 -13.857987 -29.451176 118.62118
-9.3571854 27.91226 -35.560364 -13.772911 -16.04089 -80.890793 -35.861107 -60.915493
-9.2795115 74.263481 -29.318144 118.84137 -35.657261 -60.809586 -14.047639 -105.34416
2330000000 -18.230152 -53.394066 -8.9674187 115.9381 -9.3124762 22.887833 -9.3932562 69.096352
-8.9855404 115.85771 -21.082224 -75.07737 -35.560154 -23.393061 -29.332684 112.05065
-9.3746862 22.933859 -35.60738 -23.343302 -15.988505 -83.417885 -35.929523 -70.236679
-9.2659864 69.212868 -29.184853 112.19491 -35.729473 -70.253044 -14.082991 -107.8633
2340000000 -18.082199 -55.388844 -8.9501171 110.79418 -9.33004 17.929817 -9.3783913 64.062164
-8.9700642 110.71484 -20.921879 -79.276733 -35.565639 -32.740391 -29.193075 105.41011
-9.3938036 17.965361 -35.62455 -32.641071 -15.930202 -85.977402 -35.956463 -79.360252
-9.2487631 64.162132 -29.045124 105.56422 -35.763756 -79.446686 -14.120734 -110.34683
2350000000 -17.962542 -57.452152 -8.935482 105.66019 -9.3460503 12.981057 -9.3602142 59.019699
-8.9544964 105.56671 -20.765551 -83.289986 -35.562519 -42.16431 -29.04911 98.755722
-9.4111433 13.017926 -35.614628 -42.076893 -15.867479 -88.582336 -35.97916 -88.525101
-9.2311888 59.106335 -28.902256 98.931076 -35.781796 -88.467155 -14.152836 -112.83626
2360000000 -17.864759 -59.657032 -8.9205132 100.516 -9.3626738 8.0455027 -9.3430719 53.958797
-8.9401245 100.41693 -20.612148 -87.140732 -35.567894 -51.74086 -28.905352 92.12149
-9.4278393 8.0755444 -35.622089 -51.5835 -15.80856 -91.182281 -35.990528 -97.702362
-9.2131405 54.036484 -28.759909 92.274269 -35.800301 -97.680473 -14.184834 -115.31824
2370000000 -17.793274 -62.010067 -8.9055786 95.364601 -9.3784704 3.1160302 -9.326335 48.88279
-8.9243288 95.255394 -20.463137 -90.848091 -35.592861 -61.219582 -28.776489 85.540932
-9.4434443 3.1377277 -35.643784 -61.037384 -15.743907 -93.798759 -36.018597 -106.94608
-9.1933365 48.948082 -28.623516 85.697693 -35.82037 -106.85668 -14.213513 -117.80582
2380000000 -17.748995 -64.49411 -8.8893805 90.208221 -9.3930807 -1.80084 -9.3078327 43.790852
-8.9114456 90.092377 -20.325546 -94.471977 -35.629059 -70.633583 -28.62257 78.930962
-9.4578629 -1.7890575 -35.688301 -70.531937 -15.674606 -96.421013 -36.043243 -115.94239
-9.1764593 43.84264 -28.47299 79.136246 -35.840435 -116.00188 -14.234385 -120.25413
2390000000 -17.734938 -67.009789 -8.8749828 85.033768 -9.4060545 -6.7190189 -9.2902908 38.683636
-8.8978319 84.927635 -20.198614 -97.970108 -35.688164 -79.742928 -28.460405 72.36779
-9.4729424 -6.7104917 -35.726845 -79.655891 -15.602633 -99.017914 -36.082375 -124.92275
-9.1612453 38.72752 -28.315107 72.517349 -35.881699 -124.94553 -14.250778 -122.6366
2400000000 -17.737989 -69.624619 -8.864521 79.8601 -9.4174967 -11.627321 -9.2776594 33.568718
-8.8859835 79.748741 -20.091381 -101.33096 -35.712452 -88.774811 -28.306114 65.696762
-9.4857168 -11.625128 -35.770691 -88.551826 -15.516811 -101.66623 -36.087116 -133.79633
-9.1467533 33.600498 -28.157938 65.796135 -35.869724 -133.73425 -14.260677 -124.95534
2410000000 -17.766443 -72.396843 -8.8543758 74.680717 -9.4318571 -16.524921 -9.2636919 28.452524
-8.8776455 74.568619 -19.994442 -104.54611 -35.694405 -97.540237 -28.157124 58.938538
-9.4990883 -16.522974 -35.749897 -97.36702 -15.431337 -104.32648 -36.068314 -142.71558
-9.1360044 28.484795 -28.009869 59.115616 -35.875084 -142.65805 -14.263623 -127.17508
2420000000 -17.833416 -75.228226 -8.8448477 69.514214 -9.4412994 -21.423147 -9.2525444 23.330561
-8.8694849 69.382584 -19.889196 -107.62395 -35.69833 -106.69429 -28.023502 52.266853
-9.5100393 -21.413496 -35.745384 -106.50951 -15.343437 -106.99531 -36.058922 -151.64635
-9.1271648 23.360523 -27.880209 52.45158 -35.883209 -151.58937 -14.256421 -129.33237
2430000000 -17.936533 -78.043854 -8.8354025 64.329247 -9.4488115 -26.313778 -9.2429199 18.202005
-8.8621311 64.197777 -19.774986 -110.64527 -35.707417 -115.80011 -27.903116 45.690521
-9.5177917 -26.302889 -35.756874 -115.70075 -15.255926 -109.68414 -36.076092 -160.6006
-9.1163769 18.237646 -27.748756 45.882889 -35.8736 -160.72203 -14.248969 -131.41107
2440000000 -18.055 -80.804642 -8.8303909 59.150593 -9.4585781 -31.201923 -9.2338238 13.068357
-8.8582106 59.015697 -19.670603 -113.59043 -35.740807 -124.79097 -27.758282 39.164085
-9.5272446 -31.187407 -35.795715 -124.52774 -15.167015 -112.36617 -36.106075 -169.63721
-9.10993 13.105718 -27.614847 39.365532 -35.911301 -169.72227 -14.243223 -133.42329
2450000000 -18.189384 -83.64402 -8.8260984 53.954597 -9.4645634 -36.089825 -9.228569 7.9277887
-8.8535414 53.835178 -19.571251 -116.43826 -35.771103 -133.46199 -27.613708 32.685192
-9.5333004 -36.074924 -35.828758 -133.39198 -15.078347 -115.03003 -36.159435 -178.45992
-9.1028471 7.9709477 -27.461639 32.848778 -35.960011 -178.49219 -14.239878 -135.36153
2460000000 -18.352673 -86.57785 -8.8238459 48.759865 -9.468997 -40.984409 -9.2248421 2.7857728
-8.852561 48.646164 -19.46829 -119.15472 -35.790428 -142.00288 -27.459436 26.067387
-9.5401354 -40.956341 -35.854561 -141.89017 -14.987673 -117.75256 -36.178902 173.07341
-9.1010628 2.8394258 -27.313251 26.238096 -35.97942 173.04222 -14.234349 -137.23134
2470000000 -18.564137 -89.65741 -8.8247461 43.556751 -9.4723101 -45.858276 -9.2220421 -2.3345602
-8.8533764 43.459137 -19.362177 -121.67857 -35.773369 -150.56303 -27.317379 19.450823
-9.5427418 -45.836082 -35.829563 -150.40845 -14.903378 -120.50103 -36.177414 164.61708
-9.0986004 -2.2811544 -27.172632 19.565872 -35.983913 164.601 -14.229766 -139.08289
2480000000 -18.826889 -92.669319 -8.8287039 38.373421 -9.4747562 -50.740055 -9.2215042 -7.4523621
-8.8551407 38.272602 -19.239014 -124.066 -35.745636 -158.99854 -27.183868 12.685735
-9.5451202 -50.712551 -35.791527 -158.93582 -14.826969 -123.29607 -36.14035 156.02855
-9.0962467 -7.393434 -27.035667 12.870152 -35.940746 156.11908 -14.22477 -140.95189
2490000000 -19.141914 -95.599602 -8.8319778 33.195061 -9.4761038 -55.629482 -9.2179909 -12.56673
-8.8619909 33.086449 -19.107485 -126.377 -35.691662 -167.53865 -27.065987 6.0846696
-9.5464277 -55.595097 -35.747143 -167.47404 -14.760016 -126.10167 -36.102329 147.45586
-9.096859 -12.524267 -26.918255 6.2267346 -35.919838 147.47131 -14.218033 -142.8732
2500000000 -19.483673 -98.46965 -8.8377323 28.027563 -9.4751949 -60.509781 -9.2146101 -17.68535
-8.8681154 27.929317 -18.971134 -128.60434 -35.653217 -176.27005 -26.957163 -0.45985493
-9.5454235 -60.482986 -35.709126 -176.16798 -14.699674 -128.9052 -36.081783 138.92352
-9.0930786 -17.651779 -26.813416 -0.34210879 -35.886562 138.80998 -14.216211 -144.82384
2510000000 -19.86669 -101.33889 -8.8456888 22.869049 -9.4737139 -65.392891 -9.2159996 -22.820116
-8.8787165 22.766485 -18.831274 -130.73878 -35.641739 175.02219 -26.839994 -7.0077548
-9.543108 -65.375443 -35.683327 175.32436 -14.638575 -131.74402 -36.09103 130.33202
-9.0967903 -22.778429 -26.696838 -6.8969345 -35.882076 130.29373 -14.209384 -146.84959
2520000000 -20.298458 -104.29807 -8.8572712 17.712465 -9.4697809 -70.282623 -9.2182312 -27.952026
-8.8879137 17.615051 -18.68721 -132.86073 -35.605217 166.61105 -26.72584 -13.585994
-9.542284 -70.26825 -35.648682 166.71324 -14.58309 -134.61542 -36.071262 121.85615
-9.1005831 -27.915751 -26.586334 -13.445931 -35.859715 121.8775 -14.201541 -148.93385
2530000000 -20.797421 -107.26492 -8.8673296 12.57198 -9.4670944 -75.17363 -9.2217798 -33.086514
-8.9006548 12.467674 -18.537119 -134.8989 -35.566319 158.34488 -26.620171 -20.184052
-9.5375137 -75.15728 -35.606197 158.35202 -14.533527 -137.47598 -36.021244 113.46555
-9.1056232 -33.039806 -26.473825 -20.026787 -35.829609 113.42785 -14.18686 -151.11612
2540000000 -21.356527 -110.16133 -8.879776 7.4440994 -9.4613972 -80.061356 -9.2300491 -38.215591
-8.9142332 7.3402038 -18.38233 -136.99493 -35.502743 149.90744 -26.530081 -26.78064
-9.5323896 -80.053551 -35.537682 150.02893 -14.487473 -140.34872 -35.963169 104.91332
