!Agilent Technologies,N5224A,MY51441093,A.09.90.21
!Agilent N5224A: A.09.90.21
!Date: Friday, December 19, 2025 16:48:02
!Correction: S11(Full 4 Port(1,2,3,4)) 
!S12(Full 4 Port(1,2,3,4)) 
!S13(Full 4 Port(1,2,3,4)) 
!S14(Full 4 Port(1,2,3,4)) 
!S21(Full 4 Port(1,2,3,4)) 
!S22(Full 4 Port(1,2,3,4)) 
!S23(Full 4 Port(1,2,3,4)) 
!S24(Full 4 Port(1,2,3,4)) 
!S31(Full 4 Port(1,2,3,4)) 
!S32(Full 4 Port(1,2,3,4)) 
!S33(Full 4 Port(1,2,3,4)) 
!S34(Full 4 Port(1,2,3,4)) 
!S41(Full 4 Port(1,2,3,4)) 
!S42(Full 4 Port(1,2,3,4)) 
!S43(Full 4 Port(1,2,3,4)) 
!S44(Full 4 Port(1,2,3,4)) 
!S4P File: Measurements: <S11,S12,S13,S14>,
!<S21,S22,S23,S24>,
!<S31,S32,S33,S34>,
!<S41,S42,S43,S44>:
# Hz S  dB   R 50
2000000000 -12.608147 -49.250454 -9.4323196 -73.839592 -9.2970743 143.33289 -9.508791 -143.8564
-9.4615059 -73.886284 -20.34729 109.29992 -34.625698 -98.47509 -30.771542 -42.016399
-9.353548 143.49794 -34.661358 -98.162056 -13.808608 -63.278362 -34.724369 -169.19203
-9.3966026 -143.62097 -30.641134 -41.77264 -34.545612 -169.16756 -16.672356 -28.890133
2010000000 -12.876425 -52.338818 -9.4081373 -79.083954 -9.2769136 138.40735 -9.4969931 -149.01367
-9.4414148 -79.10157 -20.507473 104.3056 -34.70295 -108.51063 -30.800072 -48.67094
-9.3297501 138.57033 -34.728607 -108.23025 -13.88825 -65.590584 -34.801548 -179.26442
-9.3817081 -148.76939 -30.658684 -48.43647 -34.629082 -179.13766 -16.625309 -32.975769
2020000000 -13.174123 -55.290565 -9.3891802 -84.292694 -9.2602816 133.47604 -9.4852333 -154.16493
-9.4213209 -84.316292 -20.665709 99.19632 -34.760925 -118.47028 -30.798119 -55.268349
-9.3124123 133.63934 -34.797012 -118.2644 -13.967759 -67.860512 -34.855274 170.84154
-9.3682795 -153.91483 -30.65659 -54.936211 -34.700836 170.93681 -16.57699 -37.011723
2030000000 -13.489532 -58.105751 -9.3733273 -89.505035 -9.2433214 128.53398 -9.4762154 -159.30792
-9.4010525 -89.540321 -20.832741 93.962433 -34.810688 -128.50978 -30.793192 -61.894142
-9.2986526 128.70439 -34.838577 -128.37953 -14.043807 -70.082138 -34.903458 160.85437
-9.3572588 -159.0593 -30.648705 -61.615547 -34.738556 160.95526 -16.538759 -41.064537
2040000000 -13.816927 -60.806107 -9.3549004 -94.720306 -9.2292213 123.58563 -9.4658566 -164.44409
-9.3808603 -94.755745 -21.005928 88.656853 -34.847397 -138.72194 -30.777792 -68.744812
-9.2824154 123.75269 -34.883114 -138.52577 -14.110341 -72.256569 -34.959076 150.81976
-9.3450937 -164.1886 -30.63946 -68.510162 -34.785885 150.84143 -16.49893 -45.083431
2050000000 -14.154617 -63.395267 -9.3378906 -99.928658 -9.2138357 118.6261 -9.454792 -169.569
-9.3640757 -99.972733 -21.186537 83.272072 -34.91658 -149.06671 -30.77235 -75.658302
-9.2654762 118.78329 -34.945038 -148.85863 -14.166474 -74.378044 -35.017643 140.64322
-9.3347082 -169.32381 -30.635851 -75.429985 -34.848984 140.66148 -16.459187 -49.026638
2060000000 -14.509838 -65.875237 -9.3188372 -105.13511 -9.2015944 113.65384 -9.4444551 -174.69649
-9.3496799 -105.18621 -21.359703 77.838516 -34.989197 -159.21408 -30.786644 -82.559563
-9.2529039 113.80947 -35.015728 -159.04857 -14.214456 -76.4767 -35.092289 130.59131
-9.3261614 -174.44856 -30.634335 -82.264191 -34.935036 130.66364 -16.414848 -52.889561
2070000000 -14.882277 -68.19648 -9.303874 -110.3532 -9.1903458 108.67192 -9.4354744 -179.82945
-9.3339024 -110.3983 -21.5305 72.322746 -35.063488 -169.23663 -30.797148 -89.428925
-9.2430458 108.81579 -35.096489 -169.09352 -14.253694 -78.53672 -35.180923 120.67991
-9.3160114 -179.57629 -30.657635 -89.145981 -35.006409 120.72784 -16.367973 -56.640316
2080000000 -15.264108 -70.367256 -9.2900295 -115.54935 -9.1811514 103.68961 -9.428791 175.04417
-9.3206425 -115.60004 -21.700716 66.67424 -35.113586 -179.14299 -30.79056 -96.242439
-9.2338963 103.82877 -35.140648 -179.08232 -14.290093 -80.55999 -35.225044 110.85257
-9.3093214 175.29802 -30.641497 -95.921768 -35.070858 110.9698 -16.316912 -60.3549
2090000000 -15.652969 -72.373024 -9.2787952 -120.73832 -9.1722527 98.708191 -9.4207134 169.92639
-9.3063984 -120.79839 -21.868235 60.904457 -35.139965 170.7719 -30.771023 -103.064
-9.2258244 98.839088 -35.189838 171.03893 -14.318572 -82.524643 -35.270119 101.19196
-9.3017025 170.16678 -30.617701 -102.81924 -35.093571 101.21568 -16.272173 -63.962788
2100000000 -16.057119 -74.239418 -9.2660007 -125.92257 -9.1627808 93.711769 -9.4160347 164.81381
-9.2938585 -125.97923 -22.037764 55.035103 -35.177208 160.75116 -30.743671 -110.06815
-9.2175026 93.848724 -35.218796 160.90602 -14.345091 -84.445747 -35.297729 91.156616
-9.2939367 165.05768 -30.600719 -109.78715 -35.125072 91.379837 -16.234039 -67.441956
2110000000 -16.476532 -75.933563 -9.2525358 -131.09787 -9.1570902 88.706711 -9.4088793 159.71504
-9.2789154 -131.14 -22.199667 49.059177 -35.194115 150.56079 -30.722874 -117.04436
-9.2110348 88.851151 -35.229755 150.69667 -14.362177 -86.338676 -35.319164 81.346275
-9.288763 159.94829 -30.577978 -116.82452 -35.146931 81.385956 -16.204044 -70.773392
2120000000 -16.908806 -77.414635 -9.2404709 -136.27434 -9.1504307 83.702919 -9.4042892 154.61226
-9.2659569 -136.31696 -22.360064 42.959244 -35.239719 140.46758 -30.706924 -124.08978
-9.2043943 83.83857 -35.270695 140.6333 -14.372366 -88.236267 -35.336288 71.33857
-9.2818785 154.84398 -30.558594 -123.79039 -35.165661 71.382263 -16.184505 -74.003624
2130000000 -17.34745 -78.634315 -9.2283697 -141.44063 -9.1465149 78.689331 -9.3990259 149.51927
-9.2513218 -141.47231 -22.492861 36.830059 -35.262348 130.34496 -30.6908 -131.09293
-9.2017822 78.837601 -35.311066 130.63268 -14.381097 -90.143486 -35.373451 61.424732
-9.2777166 149.75139 -30.538311 -130.75143 -35.20071 61.453575 -16.17164 -77.153076
2140000000 -17.79858 -79.733612 -9.2151442 -146.60088 -9.1431246 73.681541 -9.3945436 144.43979
-9.2379885 -146.64265 -22.611166 30.562464 -35.289898 120.35828 -30.65036 -138.03363
-9.2004642 73.81826 -35.328396 120.57432 -14.391812 -92.051277 -35.393894 51.56847
-9.2715321 144.66069 -30.506594 -137.77197 -35.218925 51.619835 -16.1712 -80.262939
2150000000 -18.259485 -80.641228 -9.2018738 -151.76611 -9.1417284 68.672997 -9.3876762 139.35878
-9.2248449 -151.79582 -22.701014 24.180943 -35.311527 110.34934 -30.605185 -145.05301
-9.2000904 68.801064 -35.323158 110.52882 -14.394986 -93.960327 -35.385601 41.702408
-9.2636528 139.58963 -30.459455 -144.8643 -35.208679 41.890263 -16.180981 -83.326027
2160000000 -18.739855 -81.288467 -9.1878901 -156.91844 -9.1411676 63.665012 -9.3818035 134.28957
-9.2126312 -156.9454 -22.767902 17.810471 -35.313644 100.26716 -30.558357 -152.11304
-9.2003555 63.793434 -35.35162 100.45211 -14.39447 -95.899361 -35.39262 31.732277
-9.2572279 134.51749 -30.414181 -151.91425 -35.217007 31.870113 -16.208321 -86.331467
2170000000 -19.214542 -81.699097 -9.1759663 -162.06561 -9.1425409 58.653049 -9.3747797 129.22372
-9.1968737 -162.09558 -22.806782 11.437596 -35.316639 90.206688 -30.50876 -159.23763
-9.2005939 58.781464 -35.356705 90.371559 -14.388349 -97.882965 -35.416801 21.82629
-9.2480164 129.44528 -30.365072 -158.96295 -35.219124 21.774609 -16.239286 -89.317657
2180000000 -19.691315 -81.88253 -9.1622267 -167.20372 -9.145236 53.64851 -9.3650389 124.15652
-9.1832476 -167.23674 -22.822306 5.1664691 -35.327343 79.998116 -30.470984 -166.32852
-9.2021837 53.767391 -35.371162 80.198929 -14.378882 -99.915108 -35.417961 11.737764
-9.2369986 124.36978 -30.331184 -166.07634 -35.240223 11.884755 -16.275711 -92.293175
2190000000 -20.167498 -81.964417 -9.1483145 -172.3416 -9.1488047 48.642342 -9.3533888 119.08528
-9.1693707 -172.38681 -22.79463 -1.0714844 -35.354439 69.882217 -30.416853 -173.38446
-9.203784 48.753593 -35.39925 70.055397 -14.361291 -101.96129 -35.437904 1.8313828
-9.2277584 119.28886 -30.282501 -173.13 -35.266422 1.8267583 -16.316189 -95.238693
2200000000 -20.669416 -81.6922 -9.1362238 -177.47736 -9.1528111 43.642693 -9.3441267 114.01848
-9.1549711 -177.52264 -22.751478 -7.1656709 -35.370838 59.860863 -30.374578 179.60683
-9.2079525 43.75293 -35.424809 60.050144 -14.344806 -104.05096 -35.464603 -8.2021523
-9.2175083 114.21222 -30.231714 179.83005 -35.274902 -8.0310917 -16.355089 -98.172813
2210000000 -21.164404 -81.078568 -9.1203527 177.39465 -9.1579704 38.638489 -9.3335896 108.93295
-9.1390867 177.33066 -22.680727 -13.171054 -35.405647 49.945423 -30.323771 172.60539
-9.2144451 38.740215 -35.439461 50.157024 -14.320184 -106.1469 -35.486507 -17.89399
-9.2072773 109.12578 -30.176601 172.91318 -35.308224 -17.911356 -16.392958 -101.06804
2220000000 -21.634712 -80.073204 -9.1048965 172.25896 -9.1655922 33.654312 -9.3260221 103.85795
-9.1237574 172.18918 -22.596256 -19.032761 -35.415146 40.157841 -30.250467 165.6358
-9.2208939 33.734997 -35.460999 40.284084 -14.293501 -108.26356 -35.526375 -27.619148
-9.1965752 104.03885 -30.116306 165.86925 -35.329849 -27.567644 -16.4317 -103.90742
2230000000 -22.073057 -78.847931 -9.0900717 167.12459 -9.1729431 28.666531 -9.316864 98.774315
-9.1077547 167.04123 -22.501337 -24.746584 -35.419167 30.129505 -30.187576 158.67786
-9.2289591 28.737362 -35.456844 30.333895 -14.260517 -110.39216 -35.519653 -37.445896
-9.185586 98.956039 -30.04562 158.92934 -35.336559 -37.335651 -16.466213 -106.68501
2240000000 -22.508053 -77.360092 -9.0750608 161.98611 -9.1781549 23.682842 -9.3061352 93.705605
-9.0940666 161.89832 -22.394764 -30.402033 -35.41349 20.300644 -30.122948 151.6781
-9.2354889 23.750502 -35.455978 20.434528 -14.222589 -112.52872 -35.506866 -47.305119
-9.1768017 93.876053 -29.969868 151.96431 -35.327885 -47.222599 -16.496111 -109.36591
2250000000 -22.922623 -75.417389 -9.0607138 156.84064 -9.1848402 18.691404 -9.2972431 88.630135
-9.0784025 156.76167 -22.279299 -35.849716 -35.413021 10.373927 -30.0609 144.79909
-9.2426233 18.758841 -35.457966 10.513996 -14.184808 -114.68486 -35.541245 -57.110828
-9.1664839 88.79055 -29.909821 145.08516 -35.35284 -57.207706 -16.529263 -111.9505
2260000000 -23.286049 -72.903343 -9.0465975 151.70174 -9.1929073 13.704789 -9.2869654 83.550591
-9.06355 151.61339 -22.159582 -41.181458 -35.422226 0.53353417 -29.980886 138.07025
-9.2528906 13.764821 -35.469933 0.56709206 -14.150222 -116.81261 -35.560204 -66.935532
-9.1557178 83.701996 -29.838764 138.24065 -35.367275 -66.898041 -16.559824 -114.46016
2270000000 -23.566753 -70.043823 -9.0321522 146.54816 -9.2022676 8.7168875 -9.2775631 78.46759
-9.0477943 146.46951 -22.022123 -46.435005 -35.444683 -9.3608255 -29.904568 131.31781
-9.2631006 8.7886171 -35.516541 -9.2436094 -14.111321 -118.93382 -35.587963 -76.576782
-9.1465015 78.616508 -29.753576 131.55174 -35.40144 -76.514565 -16.596121 -116.88763
2280000000 -23.768208 -67.039627 -9.0162163 141.40295 -9.2118416 3.7376304 -9.2669544 73.387192
-9.0319681 141.31483 -21.882437 -51.54924 -35.465515 -19.088997 -29.788595 124.57506
-9.2703924 3.8162529 -35.521286 -18.869925 -14.071596 -121.04691 -35.610432 -86.174889
-9.1350212 73.537376 -29.660048 124.77334 -35.428173 -86.078758 -16.635078 -119.23774
2290000000 -23.910646 -63.813107 -9.0010872 136.24181 -9.2207279 -1.236809 -9.2569895 68.293587
-9.0190945 136.14621 -21.742027 -56.523037 -35.479462 -28.812922 -29.687328 117.71898
-9.280385 -1.1555171 -35.518478 -28.466761 -14.034686 -123.17995 -35.617859 -95.788338
-9.1226845 68.448761 -29.541136 118.03656 -35.437439 -95.738686 -16.682186 -121.48908
2300000000 -23.956289 -60.286434 -8.9848833 131.07512 -9.2312946 -6.2040176 -9.2457066 63.198982
-9.0049009 130.99631 -21.585846 -61.329628 -35.474323 -38.345581 -29.587448 111.03046
-9.289753 -6.1267691 -35.528778 -38.236191 -13.997019 -125.31605 -35.628796 -105.38187
-9.1120491 63.363079 -29.43548 111.23054 -35.436047 -105.32763 -16.729883 -123.67951
2310000000 -23.865574 -56.891544 -8.9725113 125.90876 -9.240983 -11.163069 -9.2365608 58.115559
-8.9922628 125.83606 -21.421463 -65.993233 -35.487965 -48.11908 -29.487017 104.33814
-9.301384 -11.096832 -35.537067 -48.006054 -13.961925 -127.48925 -35.668701 -115.10071
-9.1028948 58.260155 -29.336805 104.50047 -35.464916 -115.07031 -16.779734 -125.84098
2320000000 -23.681158 -53.928802 -8.9602146 120.73785 -9.2508249 -16.124456 -9.2253428 53.020184
-8.9799614 120.66814 -21.24876 -70.498108 -35.505619 -57.662937 -29.36252 97.672256
-9.3121128 -16.063011 -35.557457 -57.604191 -13.924015 -129.6776 -35.68626 -124.65445
-9.0951052 53.156715 -29.22233 97.871536 -35.510128 -124.59668 -16.833839 -128.01009
2330000000 -23.444111 -51.505547 -8.9511566 115.56767 -9.2621918 -21.070745 -9.2176762 47.931705
-8.9676313 115.49065 -21.075308 -74.930389 -35.53336 -67.215424 -29.252014 91.111649
-9.3241091 -21.025421 -35.592945 -67.073357 -13.890849 -131.88689 -35.748348 -134.18781
-9.0860462 48.047878 -29.105715 91.28875 -35.554108 -134.13396 -16.888346 -130.15535
2340000000 -23.178425 -49.435947 -8.9395456 110.40519 -9.2713442 -26.022514 -9.208415 42.837776
-8.9584846 110.31496 -20.907394 -79.137085 -35.543419 -76.541046 -29.111498 84.493492
-9.3349657 -25.976213 -35.594379 -76.504631 -13.854662 -134.14841 -35.764198 -143.40628
-9.078536 42.939983 -28.96179 84.671631 -35.571888 -143.47218 -16.939522 -132.27782
2350000000 -22.863405 -47.675381 -8.9321241 105.24149 -9.2817593 -30.962809 -9.1991682 37.746563
-8.9490786 105.14792 -20.753975 -83.14637 -35.534027 -86.043121 -28.977678 77.843948
-9.3423948 -30.915329 -35.581543 -85.813103 -13.821985 -136.43335 -35.781586 -152.78282
-9.0685282 37.836128 -28.821608 78.013367 -35.612568 -152.65387 -16.982754 -134.35735
2360000000 -22.511621 -46.404846 -8.9246397 100.08155 -9.2919331 -35.898655 -9.191556 32.649452
-8.9424963 99.984657 -20.594473 -87.007393 -35.528988 -95.485764 -28.844574 71.235825
-9.3502302 -35.867729 -35.582134 -95.380325 -13.789729 -138.75563 -35.806328 -162.2551
-9.0598812 32.725964 -28.6894 71.409645 -35.61948 -162.09192 -17.019215 -136.45801
2370000000 -22.143047 -45.67767 -8.9169407 94.925804 -9.300169 -40.831497 -9.1855373 27.540674
-8.9358349 94.815727 -20.439684 -90.742271 -35.563377 -104.88439 -28.704535 64.73156
-9.36164 -40.814941 -35.611237 -104.86234 -13.755917 -141.0719 -35.851418 -171.47067
-9.0515356 27.598488 -28.558147 64.892502 -35.658325 -171.49904 -17.047197 -138.54633
2380000000 -21.77722 -45.453114 -8.9092493 89.764114 -9.30655 -45.762413 -9.1774788 22.41934
-8.9312935 89.649803 -20.299028 -94.373047 -35.590168 -114.40439 -28.561773 58.155659
-9.3711338 -45.753963 -35.618713 -114.15695 -13.720583 -143.39839 -35.885918 179.16832
-9.0454931 22.480446 -28.406271 58.331402 -35.70525 179.23047 -17.068121 -140.56847
2390000000 -21.420755 -45.588585 -8.903985 84.594864 -9.3140135 -50.701897 -9.1699314 17.292833
-8.9279318 84.484818 -20.172178 -97.911064 -35.635311 -123.4432 -28.393709 51.647839
-9.3798723 -50.69614 -35.677513 -123.26299 -13.685936 -145.73949 -35.946732 170.18835
-9.0401802 17.335558 -28.243204 51.772533 -35.753513 170.20424 -17.077732 -142.49336
2400000000 -21.070801 -46.090721 -8.900013 79.425232 -9.3207893 -55.642891 -9.1670008 12.165346
-8.924428 79.315926 -20.062593 -101.3117 -35.642094 -132.53047 -28.238979 44.9636
-9.3883591 -55.635204 -35.711666 -132.3611 -13.648819 -148.11009 -35.959385 161.30083
-9.0372334 12.197892 -28.082142 45.11607 -35.791607 161.30077 -17.078089 -144.3037
2410000000 -20.737234 -47.005196 -8.8989496 74.264137 -9.3290081 -60.58268 -9.1649866 7.0371895
-8.9233131 74.148247 -19.96394 -104.53639 -35.650757 -141.48045 -28.085236 38.249565
-9.3972511 -60.568069 -35.684586 -141.34677 -13.617646 -150.51453 -35.978001 152.37473
-9.0353565 7.0676184 -27.938293 38.411964 -35.771351 152.37263 -17.066498 -146.02356
2420000000 -20.432055 -48.179821 -8.8988705 69.11338 -9.3364267 -65.521034 -9.1632967 1.9106535
-8.9231224 68.988129 -19.859457 -107.66612 -35.636478 -150.51599 -27.944996 31.568874
-9.4038162 -65.504074 -35.670982 -150.31262 -13.59398 -152.9115 -35.964848 143.2704
-9.0348101 1.9433955 -27.798143 31.748032 -35.757462 143.40768 -17.045778 -147.66736
2430000000 -20.152891 -49.47736 -8.8994408 63.960133 -9.3403425 -70.453308 -9.1633024 -3.2089877
-8.9243631 63.829887 -19.748758 -110.71669 -35.638519 -159.60413 -27.80917 24.997028
-9.410594 -70.44397 -35.690319 -159.49432 -13.573698 -155.28741 -35.986046 134.22127
-9.0360594 -3.1784735 -27.662313 25.150494 -35.779675 134.18558 -17.025423 -149.22566
2440000000 -19.873718 -50.9846 -8.9014301 58.812019 -9.348793 -75.390251 -9.165019 -8.3366013
-8.92836 58.681057 -19.645128 -113.70322 -35.668659 -168.75212 -27.672489 18.470066
-9.4162197 -75.384811 -35.720901 -168.54289 -13.559631 -157.67439 -36.013432 125.13329
-9.0382261 -8.2990055 -27.527925 18.624504 -35.791607 125.20156 -17.010061 -150.72903
2450000000 -19.60811 -52.768311 -8.9028387 53.657764 -9.352066 -80.327522 -9.1667147 -13.461502
-8.9310331 53.536972 -19.54809 -116.57428 -35.712955 -177.46867 -27.524265 11.930125
-9.4220591 -80.315079 -35.756451 -177.36446 -13.544346 -160.08691 -36.039467 116.37633
-9.0399637 -13.417957 -27.378 12.096539 -35.847889 116.35871 -16.991787 -152.16409
2460000000 -19.379139 -54.838482 -8.9071922 48.503872 -9.3557768 -85.286697 -9.1716471 -18.585377
-8.9347582 48.397263 -19.446751 -119.28009 -35.725285 173.99084 -27.361044 5.3605447
-9.4275627 -85.255608 -35.77734 174.13426 -13.540176 -162.53508 -36.072189 107.74602
-9.0475473 -18.532753 -27.216749 5.4819512 -35.878979 107.82188 -16.97094 -153.56819
2470000000 -19.204708 -57.058144 -8.9133587 43.349552 -9.361599 -90.22821 -9.1753263 -23.69257
-8.9431286 43.258305 -19.342249 -121.85661 -35.713158 165.43068 -27.213667 -1.3620892
-9.4317493 -90.201454 -35.758472 165.56891 -13.544984 -164.99174 -36.05373 99.291328
-9.0532646 -23.63826 -27.067858 -1.1391757 -35.865974 99.197609 -16.948664 -155.01613
2480000000 -19.057886 -59.270729 -8.9233446 38.219494 -9.3660316 -95.190643 -9.1835499 -28.783251
-8.9501228 38.120773 -19.228182 -124.26859 -35.674103 156.79207 -27.085245 -8.0610371
-9.4354982 -95.160378 -35.721821 157.04448 -13.559953 -167.468 -36.016922 90.643684
-9.0589857 -28.732042 -26.935347 -7.8995132 -35.832485 90.525986 -16.931355 -156.54303
2490000000 -18.935347 -61.489433 -8.9323721 33.104881 -9.3716345 -100.15003 -9.1879597 -33.868351
-8.962409 32.99715 -19.099405 -126.57782 -35.625671 148.20789 -26.961351 -14.714775
-9.4410181 -100.12016 -35.677605 148.33781 -13.584002 -169.92174 -35.975563 81.846214
-9.0655985 -33.825687 -26.816206 -14.565539 -35.78017 81.761543 -16.911005 -158.17688
2500000000 -18.823204 -63.809555 -8.941721 27.999826 -9.3775005 -105.10869 -9.1932287 -38.953121
-8.972456 27.894714 -18.965836 -128.80267 -35.612217 139.42857 -26.850941 -21.316624
-9.4464779 -105.0798 -35.65136 139.5943 -13.61459 -172.36624 -35.958939 72.99733
-9.0714636 -38.915592 -26.703503 -21.175419 -35.76236 72.979523 -16.894421 -159.87827
2510000000 -18.742628 -66.305214 -8.9533825 22.903059 -9.3836355 -110.05109 -9.199255 -44.043579
-8.9845142 22.802097 -18.833712 -130.96288 -35.592888 130.80997 -26.731171 -27.908051
-9.4520302 -110.03889 -35.634651 130.92912 -13.647774 -174.79082 -35.92823 64.349167
-9.0784855 -43.998741 -26.588301 -27.775089 -35.751385 64.310005 -16.87335 -161.7034
2520000000 -18.703373 -68.867393 -8.965333 17.81929 -9.387764 -115.00651 -9.2056093 -49.134415
-8.996913 17.721577 -18.695471 -133.0645 -35.579079 122.32209 -26.617153 -34.4986
-9.4605818 -114.99963 -35.602676 122.47928 -13.685363 -177.21303 -35.909744 55.738499
-9.0873528 -49.090427 -26.472933 -34.350063 -35.729488 55.740067 -16.849648 -163.6244
2530000000 -18.684515 -71.474625 -8.9775438 12.751819 -9.3936119 -119.9702 -9.2147198 -54.225739
-9.0096493 12.654099 -18.550901 -135.10165 -35.528637 113.88349 -26.506241 -41.099258
-9.4643888 -119.95724 -35.580006 113.9651 -13.727908 -179.60342 -35.887833 47.219814
-9.093688 -54.176208 -26.361271 -40.989414 -35.697659 47.190186 -16.821075 -165.69533
2540000000 -18.684877 -74.188522 -8.9904194 7.7009306 -9.3972006 -124.92904 -9.2245417 -59.302532
-9.0233288 7.5988517 -18.40136 -137.16937 -35.467548 105.47552 -26.408754 -47.769314
-9.4682598 -124.9111 -35.516693 105.62533 -13.773147 178.05086 -35.819176 38.530899
