!Agilent Technologies,N5224A,MY51441093,A.09.90.21
!Agilent N5224A: A.09.90.21
!Date: Friday, December 19, 2025 16:48:15
!Correction: S11(Full 4 Port(1,2,3,4)) 
!S12(Full 4 Port(1,2,3,4)) 
!S13(Full 4 Port(1,2,3,4)) 
!S14(Full 4 Port(1,2,3,4)) 
!S21(Full 4 Port(1,2,3,4)) 
!S22(Full 4 Port(1,2,3,4)) 
!S23(Full 4 Port(1,2,3,4)) 
!S24(Full 4 Port(1,2,3,4)) 
!S31(Full 4 Port(1,2,3,4)) 
!S32(Full 4 Port(1,2,3,4)) 
!S33(Full 4 Port(1,2,3,4)) 
!S34(Full 4 Port(1,2,3,4)) 
!S41(Full 4 Port(1,2,3,4)) 
!S42(Full 4 Port(1,2,3,4)) 
!S43(Full 4 Port(1,2,3,4)) 
!S44(Full 4 Port(1,2,3,4)) 
!S4P File: Measurements: <S11,S12,S13,S14>,
!<S21,S22,S23,S24>,
!<S31,S32,S33,S34>,
!<S41,S42,S43,S44>:
# Hz S  dB   R 50
2000000000 -14.242352 -50.99094 -9.3637381 -74.375694 -10.301787 120.96045 -9.2667837 -169.39267
-9.394063 -74.415718 -20.368404 109.1083 -35.639294 -121.0069 -30.564505 -67.590424
-10.361138 121.1331 -35.668316 -120.83005 -15.255001 152.27132 -35.501377 143.23662
-9.1531982 -169.15002 -30.425802 -67.290581 -35.334236 143.29997 -15.025166 3.6170633
2010000000 -14.536856 -53.609241 -9.3430853 -79.607178 -10.259127 115.19214 -9.2505369 -174.44815
-9.3756485 -79.629616 -20.528969 104.14732 -35.695824 -132.0278 -30.583517 -74.078987
-10.313929 115.36885 -35.730446 -131.81944 -15.608488 148.30731 -35.546745 132.6582
-9.1361904 -174.20204 -30.446161 -73.835419 -35.382023 132.657 -15.130789 0.41370803
2020000000 -14.867526 -56.102009 -9.3288088 -84.826729 -10.224002 109.44865 -9.2387867 -179.50484
-9.3598204 -84.851509 -20.689342 99.029549 -35.737633 -142.82281 -30.596064 -80.609985
-10.275367 109.62824 -35.758938 -142.44884 -15.989015 144.27353 -35.589367 122.05906
-9.119524 -179.25598 -30.439968 -80.348885 -35.428047 122.13291 -15.236431 -2.751323
2030000000 -15.222704 -58.401814 -9.3135023 -90.049591 -10.185144 103.71269 -9.2251644 175.43655
-9.3430653 -90.072502 -20.858513 93.825043 -35.758007 -153.57446 -30.572462 -87.195053
-10.237381 103.8904 -35.774918 -153.37071 -16.396244 140.16817 -35.606983 111.42393
-9.1066246 175.69386 -30.437738 -86.882362 -35.446163 111.55942 -15.346869 -5.9002433
2040000000 -15.594539 -60.576107 -9.2984676 -95.260086 -10.14954 97.998001 -9.212245 170.38245
-9.3260965 -95.290131 -21.03437 88.504066 -35.766968 -164.58379 -30.567179 -93.906464
-10.201585 98.160271 -35.80899 -164.51619 -16.830137 135.97694 -35.652039 100.68057
-9.0936518 170.64227 -30.415855 -93.631683 -35.461506 100.78966 -15.452025 -9.025671
2050000000 -15.98317 -62.568958 -9.28403 -100.47798 -10.113784 92.290695 -9.1997356 165.34006
-9.3120766 -100.52004 -21.215836 83.151871 -35.814224 -175.60727 -30.559681 -100.77631
-10.16504 92.439651 -35.837708 -175.37244 -17.297855 131.68761 -35.667648 89.953186
-9.0816002 165.58388 -30.4179 -100.49933 -35.50103 89.95475 -15.547677 -12.116444
2060000000 -16.395231 -64.374397 -9.2693243 -105.69688 -10.078371 86.588463 -9.1861925 160.28613
-9.2989483 -105.74204 -21.39352 77.72287 -35.865356 173.49123 -30.570198 -107.62183
-10.132243 86.731918 -35.885426 173.63254 -17.796211 127.30263 -35.73204 79.16568
-9.0702953 160.52353 -30.42775 -107.35052 -35.56181 79.32679 -15.631687 -15.206349
2070000000 -16.826498 -65.954552 -9.2568398 -110.922 -10.045712 80.883667 -9.1766682 155.21458
-9.2856817 -110.9663 -21.564882 72.2146 -35.925175 162.80675 -30.580732 -114.41941
-10.100231 81.035263 -35.942112 162.86111 -18.319639 122.72952 -35.794941 68.648575
-9.0575361 155.4684 -30.437918 -114.12955 -35.614876 68.851273 -15.705131 -18.264362
2080000000 -17.26906 -67.26429 -9.2448549 -116.13815 -10.013425 75.197395 -9.1669159 150.14709
-9.2732191 -116.18913 -21.735914 66.545364 -35.93364 152.19357 -30.561764 -121.17279
-10.067261 75.338539 -35.972961 152.33885 -18.876043 117.94225 -35.81496 58.41291
-9.0482988 150.39548 -30.429943 -120.86755 -35.653938 58.386375 -15.771856 -21.305771
2090000000 -17.72238 -68.314438 -9.2344303 -121.34959 -9.9826212 69.514061 -9.1582022 145.08105
-9.2641478 -121.40224 -21.908464 60.795502 -35.947372 141.45987 -30.540628 -127.9522
-10.036366 69.65538 -35.989777 141.6015 -19.471737 112.89135 -35.826946 47.981197
-9.0392418 145.32332 -30.408703 -127.68602 -35.655178 48.012096 -15.824583 -24.279224
2100000000 -18.187746 -69.056488 -9.2258987 -126.54943 -9.9524612 63.842709 -9.1524143 140.01001
-9.2528505 -126.60424 -22.082399 54.965454 -35.939266 130.61884 -30.528049 -134.89531
-10.008901 63.986996 -35.987541 130.87811 -20.094315 107.5477 -35.827808 37.409252
-9.0295458 140.25327 -30.384716 -134.6456 -35.67065 37.468834 -15.868138 -27.127583
2110000000 -18.670671 -69.424553 -9.2161903 -131.74854 -9.9245596 58.178616 -9.1447144 134.94632
-9.2416649 -131.79691 -22.2486 48.989513 -35.948734 119.95489 -30.500153 -141.90613
-9.9790192 58.315826 -35.984306 120.13661 -20.754978 101.88628 -35.844189 26.802818
-9.0237074 135.18102 -30.355362 -141.62895 -35.663628 26.921213 -15.897864 -29.893108
2120000000 -19.162464 -69.343758 -9.2060022 -136.95631 -9.8972149 52.522415 -9.1384649 129.87552
-9.2313938 -136.99471 -22.407238 42.945126 -35.962372 109.13203 -30.486292 -148.87703
-9.9528036 52.661232 -35.98592 109.2786 -21.429972 95.860489 -35.853695 16.238796
-9.0159454 130.11118 -30.351049 -148.64371 -35.679432 16.247057 -15.920356 -32.576141
2130000000 -19.639439 -68.71524 -9.1970177 -142.14453 -9.8723478 46.889015 -9.1344204 124.80973
-9.2212658 -142.18494 -22.538734 36.810177 -35.962196 98.355904 -30.471418 -155.8351
-9.928401 47.02282 -36.013748 98.61898 -22.118359 89.390945 -35.878998 5.6751399
-9.0123167 125.04343 -30.33021 -155.52919 -35.689781 5.8518887 -15.938013 -35.192429
2140000000 -20.08917 -67.656746 -9.1908817 -147.33351 -9.8483105 41.256916 -9.1317844 119.74814
-9.21387 -147.37398 -22.659096 30.59001 -35.9772 87.701431 -30.441507 -162.72562
-9.9069204 41.394089 -36.018608 88.018532 -22.811588 82.374687 -35.890331 -4.6834168
-9.00774 119.97276 -30.30299 -162.54564 -35.698738 -4.6663294 -15.953482 -37.752991
2150000000 -20.493811 -66.148376 -9.1842737 -152.52827 -9.8261852 35.643982 -9.1293678 114.68721
-9.2060995 -152.56995 -22.751652 24.221325 -35.980885 77.168884 -30.400461 -169.83723
-9.8814116 35.779583 -35.98917 77.33139 -23.512838 74.826378 -35.882565 -15.135779
-9.0046682 114.90863 -30.261124 -169.56248 -35.708508 -15.141447 -15.970254 -40.25238
2160000000 -20.852379 -64.161201 -9.1775236 -157.71378 -9.8041105 30.037745 -9.1250582 109.62803
-9.2006168 -157.74307 -22.820957 17.914524 -35.946766 66.443665 -30.361599 -176.85945
-9.8629751 30.169415 -35.996483 66.637672 -24.195774 66.713463 -35.872421 -25.681284
-9.0017872 109.85444 -30.223211 -176.61449 -35.682335 -25.537119 -15.9833 -42.697716
2170000000 -21.128448 -61.854084 -9.1726274 -162.88507 -9.7847939 24.450974 -9.1222649 104.57194
-9.1939306 -162.91431 -22.862841 11.559828 -35.930592 55.73785 -30.322775 176.04195
-9.8419275 24.581751 -35.982639 55.929672 -24.847677 57.995956 -35.857475 -36.215992
-8.9968843 104.79733 -30.185081 176.34918 -35.667061 -36.206982 -15.994439 -45.146984
2180000000 -21.319983 -59.392574 -9.1675634 -168.05151 -9.7667561 18.882444 -9.1210489 99.518509
-9.1901541 -168.08286 -22.872896 5.352766 -35.92841 45.045364 -30.290516 169.06369
-9.8262577 18.996103 -35.981647 45.185116 -25.441755 48.643883 -35.865139 -46.714127
-8.9952641 99.740921 -30.150131 169.28462 -35.699188 -46.740635 -16.004835 -47.609886
2190000000 -21.424658 -56.925354 -9.1631813 -173.19884 -9.7505417 13.316437 -9.1158857 94.463417
-9.1852894 -173.24323 -22.845203 -0.8470484 -35.94001 34.299492 -30.253916 162.04121
-9.8065538 13.427561 -35.97488 34.544773 -25.944651 38.563351 -35.883095 -57.345253
-8.9915066 94.67144 -30.108231 162.2774 -35.694244 -57.198257 -16.012482 -50.075436
2200000000 -21.451326 -54.39143 -9.1602268 -178.34048 -9.7333164 7.7715192 -9.1164351 89.409882
-9.1805496 -178.39539 -22.798494 -6.9149561 -35.964394 23.735912 -30.222435 155.06903
-9.7914228 7.8768406 -35.989025 23.910748 -26.328138 27.999519 -35.909199 -67.76606
-8.9894829 89.611237 -30.06883 155.24905 -35.725605 -67.709404 -16.017223 -52.576855
2210000000 -21.371233 -52.005737 -9.1556129 176.51906 -9.718586 2.2339363 -9.1133928 84.349525
-9.1747513 176.45425 -22.72411 -12.870036 -35.94902 13.32393 -30.160801 148.10864
-9.7748013 2.3369989 -35.996841 13.432178 -26.571136 16.923565 -35.933136 -78.162476
-8.9874954 84.545914 -30.018461 148.36073 -35.746796 -78.07016 -16.012634 -55.082008
2220000000 -21.211 -49.940765 -9.1522436 171.38686 -9.7046404 -3.285588 -9.1159687 79.297195
-9.1697226 171.3109 -22.632252 -18.731886 -35.94582 2.785008 -30.102329 141.16791
-9.7605352 -3.1932788 -35.995888 2.9967101 -26.646931 5.7171097 -35.940563 -88.471214
-8.9882355 79.474228 -29.968073 141.46736 -35.761078 -88.316391 -16.001064 -57.624584
2230000000 -20.985008 -48.414043 -9.1486158 166.25102 -9.693634 -8.7800236 -9.1162949 74.240242
-9.1655064 166.17055 -22.535933 -24.416151 -35.933807 -7.7441077 -30.057011 134.24307
-9.7491035 -8.7074404 -35.993057 -7.4111676 -26.560472 -5.2275643 -35.954136 -98.671616
-8.987915 74.422157 -29.910627 134.51523 -35.758526 -98.57682 -15.978448 -60.146469
2240000000 -20.736282 -47.314598 -9.1420193 161.12332 -9.6785545 -14.264644 -9.1183577 69.193893
-9.1625214 161.03204 -22.4261 -30.018009 -35.92812 -18.1322 -29.985842 127.34175
-9.7367697 -14.19561 -35.987831 -17.987446 -26.298723 -15.750216 -35.936039 -108.99506
-8.9879932 69.363159 -29.846828 127.62225 -35.754421 -109.01129 -15.945925 -62.695152
2250000000 -20.458761 -46.568283 -9.140542 156.00424 -9.666954 -19.741444 -9.1197376 64.15287
-9.1583776 155.91019 -22.306627 -35.475456 -35.924152 -28.552977 -29.940069 120.43898
-9.7272453 -19.675932 -35.983013 -28.336294 -25.927017 -25.576601 -35.95702 -119.43018
-8.9896927 64.321159 -29.794447 120.75646 -35.770512 -119.24479 -15.904369 -65.203697
2260000000 -20.150785 -46.15564 -9.1375904 150.88562 -9.6565876 -25.203428 -9.122262 59.112175
-9.1540699 150.79813 -22.17354 -40.798012 -35.932842 -38.973938 -29.87394 113.77304
-9.716342 -25.1406 -35.977825 -38.697845 -25.451881 -34.491096 -35.98196 -129.58865
-8.9918003 59.274624 -29.731949 114.01624 -35.792603 -129.51129 -15.851852 -67.706192
2270000000 -19.834314 -46.238739 -9.1337404 145.76741 -9.6452713 -30.657352 -9.1257315 54.071766
-9.1507292 145.6877 -22.032749 -46.026672 -35.953629 -49.25053 -29.793186 107.11961
-9.7050734 -30.595419 -36.004242 -49.065674 -24.922529 -42.685734 -35.99366 -139.7381
-8.9946671 54.232182 -29.648794 107.36612 -35.802849 -139.68449 -15.796635 -70.159019
2280000000 -19.531832 -46.766232 -9.1307917 140.65826 -9.6355419 -36.100616 -9.1273537 49.039577
-9.1464844 140.56564 -21.887064 -51.135044 -35.962612 -59.38084 -29.702108 100.45287
-9.6956749 -36.026474 -36.004177 -59.246292 -24.37895 -50.029491 -36.003147 -149.74261
-8.9959202 49.195824 -29.567114 100.71789 -35.82761 -149.70807 -15.732403 -72.571083
2290000000 -19.248949 -47.506165 -9.1259661 135.54391 -9.6268702 -41.528996 -9.1314602 44.009422
-9.1436472 135.4548 -21.738773 -56.141045 -35.94923 -69.525673 -29.604746 93.748344
-9.6887541 -41.445927 -36.020432 -69.396454 -23.851229 -56.645805 -36.022488 -159.75633
-8.9973402 44.162411 -29.463423 94.040771 -35.814278 -159.70076 -15.666352 -74.953667
2300000000 -18.978725 -48.482273 -9.1217918 130.43076 -9.618433 -46.944557 -9.1317358 38.973949
-9.1415844 130.3532 -21.577988 -60.951305 -35.95647 -79.643318 -29.507353 87.030334
-9.6786757 -46.868172 -35.998611 -79.533401 -23.334761 -62.705502 -35.993664 -169.86803
-8.9995117 39.134819 -29.362984 87.280273 -35.815521 -169.81621 -15.593751 -77.322227
2310000000 -18.710995 -49.790462 -9.1181669 125.33514 -9.6120863 -52.343925 -9.1344814 33.955933
-9.1362028 125.25503 -21.403479 -65.61145 -35.969208 -89.868584 -29.399891 80.437279
-9.673213 -52.273132 -36.014225 -89.606346 -22.84882 -68.229271 -36.029129 179.96036
-9.0027151 34.095749 -29.263826 80.652634 -35.84166 -179.94704 -15.524059 -79.7052
2320000000 -18.474613 -51.419125 -9.1134443 120.23076 -9.604023 -57.727566 -9.1374521 28.929052
-9.1330576 120.15768 -21.226248 -70.141785 -35.973797 -99.838417 -29.294315 73.883392
-9.6681261 -57.670643 -36.018387 -99.629951 -22.391769 -73.358162 -36.037315 170.07474
-9.0071726 29.059904 -29.151318 74.089516 -35.84803 170.11006 -15.457926 -82.095627
2330000000 -18.281511 -53.306641 -9.1111593 115.14083 -9.5979462 -63.097301 -9.1403685 23.915781
-9.1297979 115.05944 -21.049009 -74.565353 -36.000076 -109.76469 -29.181467 67.355629
-9.6611776 -63.044868 -36.049831 -109.60484 -21.96455 -78.164253 -36.070911 160.06145
-9.0108948 24.029209 -29.031536 67.545326 -35.900658 160.11897 -15.389264 -84.518616
2340000000 -18.125195 -55.302898 -9.108326 110.05004 -9.5920658 -68.453636 -9.1422901 18.901018
-9.1280937 109.97035 -20.878746 -78.801476 -35.995064 -119.5363 -29.048515 60.826408
-9.6562328 -68.403275 -36.047016 -119.3203 -21.578428 -82.699532 -36.089897 150.41559
-9.01437 19.007446 -28.900137 61.025379 -35.909267 150.38914 -15.316992 -86.971039
2350000000 -17.996017 -57.38615 -9.1050835 104.9781 -9.5876417 -73.793716 -9.1465368 13.89908
-9.1276417 104.8855 -20.711077 -82.849388 -35.995918 -129.16771 -28.919136 54.185219
-9.6511841 -73.755119 -36.045578 -129.09657 -21.219971 -86.999184 -36.081661 140.57301
-9.0161381 13.986844 -28.772404 54.434162 -35.890968 140.60789 -15.240872 -89.483749
2360000000 -17.889925 -59.660629 -9.1025057 99.906784 -9.5816908 -79.121727 -9.1475382 8.8842278
-9.1239901 99.810928 -20.550415 -86.755737 -35.996346 -138.97112 -28.7876 47.750053
-9.6461048 -79.089851 -36.03907 -138.92819 -20.882292 -91.071869 -36.086327 130.65381
-9.0178251 8.9634943 -28.647348 47.833424 -35.905048 130.77588 -15.164009 -92.073433
2370000000 -17.812956 -62.096336 -9.1013031 94.84436 -9.5774403 -84.436531 -9.1505814 3.8719916
-9.1209583 94.738037 -20.394491 -90.50209 -36.013966 -148.83257 -28.659042 41.227478
-9.6427183 -84.414749 -36.067226 -148.81493 -20.55798 -94.996078 -36.122658 120.83363
-9.0184116 3.9348664 -28.508406 41.402317 -35.940613 120.91667 -15.086095 -94.691391
2380000000 -17.771248 -64.658836 -9.0965672 89.774467 -9.5715218 -89.743187 -9.1504498 -1.1597596
-9.118434 89.66037 -20.251764 -94.172638 -36.034058 -158.38091 -28.511221 34.764111
-9.638443 -89.724251 -36.088497 -158.34474 -20.260332 -98.754181 -36.160175 111.15314
-9.0191193 -1.099251 -28.366459 34.945957 -35.970451 111.12839 -14.997823 -97.353806
2390000000 -17.761446 -67.291191 -9.0907173 84.696732 -9.5668249 -95.031548 -9.1499863 -6.1931138
-9.1144772 84.587837 -20.125074 -97.735504 -36.070091 -167.93259 -28.347935 28.287361
-9.6338358 -95.020988 -36.114853 -167.79553 -19.981337 -102.33464 -36.230431 101.55376
-9.0212975 -6.1460052 -28.203835 28.436258 -36.034241 101.74645 -14.897775 -100.01643
2400000000 -17.778385 -69.98481 -9.0868244 79.625038 -9.5611801 -100.31859 -9.1540403 -11.2342
-9.1118546 79.511131 -20.007929 -101.17108 -36.083019 -177.23398 -28.194315 21.715973
-9.6308546 -100.31136 -36.132202 -177.13039 -19.718851 -105.78111 -36.273216 92.394798
-9.027071 -11.198676 -28.045279 21.847281 -36.058987 92.4739 -14.792917 -102.6952
2410000000 -17.820877 -72.78112 -9.0847931 74.555992 -9.5588474 -105.58295 -9.1579933 -16.267069
-9.1107321 74.440773 -19.90913 -104.44117 -36.080612 173.54146 -28.039753 14.997124
-9.6280193 -105.57753 -36.117886 173.61798 -19.476442 -109.04631 -36.25922 83.143341
-9.0316763 -16.22817 -27.896837 15.194337 -36.070263 83.243652 -14.677166 -105.39093
2420000000 -17.898767 -75.632492 -9.0816259 69.497437 -9.5557079 -110.84812 -9.1626186 -21.297659
-9.107461 69.370842 -19.801363 -107.61057 -36.068348 164.17816 -27.900791 8.3656101
-9.6229181 -110.83723 -36.112869 164.29565 -19.241987 -112.1242 -36.271397 73.916138
-9.0364714 -21.268116 -27.752039 8.5564508 -36.078812 73.920296 -14.559396 -108.07667
2430000000 -18.010832 -78.490082 -9.078618 64.436264 -9.5495749 -116.09251 -9.1652756 -26.329838
-9.1059103 64.303757 -19.687151 -110.70095 -36.075588 154.89011 -27.76931 1.821864
-9.6199369 -116.08388 -36.109314 154.95541 -19.018652 -115.10243 -36.281994 64.470596
-9.0408897 -26.29495 -27.617828 1.9974942 -36.089989 64.523788 -14.442001 -110.69634
2440000000 -18.148876 -81.30864 -9.07516 59.370178 -9.5474224 -121.33891 -9.1701288 -31.366842
-9.1048565 59.241169 -19.585236 -113.71397 -36.086246 145.5128 -27.630854 -4.6839709
-9.6155281 -121.31711 -36.135914 145.64822 -18.809626 -117.96491 -36.308399 55.342808
-9.047842 -31.330713 -27.48551 -4.5295243 -36.117397 55.334919 -14.329253 -113.30042
2450000000 -18.307489 -84.180779 -9.0732327 54.304577 -9.5417252 -126.57018 -9.1761236 -36.42115
-9.1036901 54.180775 -19.488047 -116.6397 -36.141113 136.54726 -27.48213 -11.185756
-9.6131935 -126.54359 -36.163429 136.70189 -18.618927 -120.69726 -36.351658 46.290848
-9.0538549 -36.371719 -27.335543 -11.028112 -36.169693 46.28376 -14.217954 -115.88619
2460000000 -18.498314 -87.132286 -9.0719681 49.23373 -9.5383024 -131.78993 -9.1846228 -41.45631
-9.1007061 49.12772 -19.384321 -119.39712 -36.138634 127.77837 -27.3326 -17.781885
-9.6079245 -131.7589 -36.192829 127.89215 -18.442314 -123.31909 -36.368271 37.513371
-9.0625982 -41.40871 -27.18611 -17.612892 -36.180969 37.650627 -14.113802 -118.47491
2470000000 -18.74633 -90.140282 -9.0716133 44.167946 -9.534421 -136.99756 -9.1939669 -46.486385
-9.1016493 44.070374 -19.28311 -122.02534 -36.108871 119.20557 -27.191463 -24.378174
-9.6041775 -136.96628 -36.156975 119.34676 -18.275137 -125.78899 -36.360664 28.936274
-9.07234 -46.422649 -27.045183 -24.25305 -36.157566 29.022966 -14.02225 -121.07441
2480000000 -19.046762 -93.046745 -9.07269 39.11607 -9.5299435 -142.20169 -9.2041121 -51.495163
-9.1007376 39.019958 -19.170572 -124.48073 -36.043411 110.49329 -27.071686 -31.147783
-9.6008196 -142.16357 -36.105293 110.5917 -18.10593 -128.20872 -36.300045 20.135834
-9.0800505 -51.433025 -26.925962 -30.99308 -36.112968 20.206301 -13.947264 -123.69125
2490000000 -19.392979 -95.824226 -9.0723667 34.069744 -9.5263205 -147.38573 -9.2102356 -56.494423
-9.1032782 33.970913 -19.048655 -126.875 -36.005344 101.53517 -26.957682 -37.757862
-9.5969906 -147.35167 -36.046589 101.77013 -17.94504 -130.55133 -36.229813 11.322692
-9.0884047 -56.446198 -26.811476 -37.608677 -36.044952 11.308641 -13.883889 -126.32293
2500000000 -19.770123 -98.506912 -9.0704384 29.037689 -9.5216999 -152.56166 -9.2165432 -61.497219
-9.1033382 28.9408 -18.92049 -129.14143 -35.969131 92.736252 -26.854137 -44.311413
-9.5933456 -152.53246 -36.014538 92.842232 -17.787289 -132.87486 -36.198368 2.4213939
-9.0944614 -61.461048 -26.69998 -44.19001 -35.983646 2.4068105 -13.830848 -128.98305
2510000000 -20.189171 -101.14494 -9.0714703 24.007421 -9.5190678 -157.7242 -9.21984 -66.515221
-9.1043787 23.906454 -18.79546 -131.33231 -35.933014 83.889313 -26.744448 -50.843513
-9.5902576 -157.70607 -35.969639 84.126228 -17.629589 -135.16141 -36.144253 -6.4125967
-9.1019907 -66.475777 -26.597204 -50.732193 -35.96838 -6.4277453 -13.784446 -131.7095
2520000000 -20.664034 -103.7231 -9.0719538 18.974455 -9.5143709 -162.88087 -9.2262468 -71.54071
-9.1035204 18.876034 -18.663658 -133.46678 -35.901936 75.431519 -26.635109 -57.410439
-9.5861568 -162.86029 -35.935146 75.58699 -17.473026 -137.41043 -36.118092 -15.024477
-9.1084824 -71.494812 -26.495144 -57.291107 -35.912838 -15.005084 -13.748466 -134.49706
2530000000 -21.182434 -106.16963 -9.0711374 13.957327 -9.5120211 -168.02084 -9.234169 -76.567719
-9.1046572 13.853442 -18.527109 -135.53198 -35.84214 66.945183 -26.535408 -63.970474
-9.583271 -168.00461 -35.892231 66.976479 -17.317081 -139.62094 -36.06332 -23.623035
-9.1158447 -76.522659 -26.388903 -63.839306 -35.874069 -23.649433 -13.720012 -137.34334
2540000000 -21.733721 -108.55721 -9.0702362 8.9498339 -9.5053463 -173.14554 -9.2420912 -81.596771
-9.1044378 8.8508635 -18.386492 -137.61896 -35.753475 58.308964 -26.441248 -70.513657
-9.5783558 -173.12714 -35.805519 58.523869 -17.148733 -141.8299 -35.973473 -32.354095
