!Agilent Technologies,N5224A,MY51441093,A.09.90.21
!Agilent N5224A: A.09.90.21
!Date: Friday, December 19, 2025 16:48:56
!Correction: S11(Full 4 Port(1,2,3,4)) 
!S12(Full 4 Port(1,2,3,4)) 
!S13(Full 4 Port(1,2,3,4)) 
!S14(Full 4 Port(1,2,3,4)) 
!S21(Full 4 Port(1,2,3,4)) 
!S22(Full 4 Port(1,2,3,4)) 
!S23(Full 4 Port(1,2,3,4)) 
!S24(Full 4 Port(1,2,3,4)) 
!S31(Full 4 Port(1,2,3,4)) 
!S32(Full 4 Port(1,2,3,4)) 
!S33(Full 4 Port(1,2,3,4)) 
!S34(Full 4 Port(1,2,3,4)) 
!S41(Full 4 Port(1,2,3,4)) 
!S42(Full 4 Port(1,2,3,4)) 
!S43(Full 4 Port(1,2,3,4)) 
!S44(Full 4 Port(1,2,3,4)) 
!S4P File: Measurements: <S11,S12,S13,S14>,
!<S21,S22,S23,S24>,
!<S31,S32,S33,S34>,
!<S41,S42,S43,S44>:
# Hz S  dB   R 50
2000000000 -12.455613 -56.905922 -9.3792067 -73.861267 -10.266693 75.181099 -9.3632498 169.27783
-9.4083261 -73.901024 -20.348791 109.16505 -35.567871 -166.99762 -30.672096 -89.023071
-10.32305 75.356819 -35.610203 -166.73473 -18.877264 67.211891 -35.509892 76.547783
-9.2492714 169.51955 -30.533281 -88.671844 -35.341484 76.560692 -13.499669 -49.810848
2010000000 -12.809873 -60.547989 -9.3499603 -79.09774 -10.216691 69.405922 -9.3436356 164.27075
-9.3823986 -79.12117 -20.510368 104.18336 -35.630184 -177.77437 -30.684925 -95.419662
-10.269855 69.577454 -35.639282 -177.64944 -19.116873 58.778717 -35.572941 65.950035
-9.2275343 164.51544 -30.543993 -95.2071 -35.396763 66.063698 -13.582016 -52.737446
2020000000 -13.212126 -64.077477 -9.3264408 -84.322685 -10.175244 63.642479 -9.3271818 159.25127
-9.3576975 -84.348961 -20.670122 99.054039 -35.675259 171.4512 -30.689499 -101.90646
-10.226033 63.81176 -35.681778 171.63858 -19.29752 50.215057 -35.620537 55.355217
-9.2084208 159.50101 -30.538202 -101.62072 -35.463547 55.486496 -13.659761 -55.647461
2030000000 -13.649987 -67.459435 -9.304225 -89.555489 -10.134472 57.888081 -9.3094196 154.23941
-9.3335733 -89.588844 -20.840122 93.818504 -35.688068 160.62291 -30.677828 -108.40872
-10.185964 58.056404 -35.70858 160.91769 -19.418228 41.574554 -35.649895 44.812767
-9.1904669 154.48306 -30.527885 -108.16648 -35.483238 44.917179 -13.735936 -58.527611
2040000000 -14.121078 -70.694801 -9.2826662 -94.793976 -10.096615 52.152164 -9.2920771 149.21385
-9.3084087 -94.828949 -21.013548 88.49556 -35.717297 149.69434 -30.651245 -115.10259
-10.148373 52.312466 -35.739231 149.87863 -19.470016 32.978386 -35.685947 34.165897
-9.1720495 149.46808 -30.514154 -114.86787 -35.516956 34.180458 -13.808288 -61.345524
2050000000 -14.624992 -73.764359 -9.2593622 -100.03925 -10.05985 46.41024 -9.2738247 144.18164
-9.2885065 -100.08117 -21.195589 83.111717 -35.751015 138.73981 -30.654301 -121.93724
-10.112311 46.565361 -35.77816 138.95441 -19.451794 24.494009 -35.742249 23.376652
-9.1565228 144.429 -30.509289 -121.6637 -35.568638 23.417374 -13.870398 -64.083572
2060000000 -15.169493 -76.660439 -9.2373943 -105.29137 -10.026685 40.683514 -9.260211 139.14507
-9.2701225 -105.33681 -21.371555 77.667885 -35.801327 127.8931 -30.658632 -128.7558
-10.081811 40.832081 -35.828861 128.10074 -19.362238 16.227715 -35.79744 12.715054
-9.1409807 139.38431 -30.510065 -128.50096 -35.633034 12.802643 -13.926637 -66.794289
2070000000 -15.750778 -79.314514 -9.2221422 -110.53808 -9.9987679 34.962612 -9.2445154 134.08437
-9.2517414 -110.58266 -21.549505 72.141327 -35.858509 117.08148 -30.667614 -135.57764
-10.051187 35.110542 -35.88699 117.31041 -19.219481 8.2823639 -35.890583 2.2199898
-9.1271238 134.33588 -30.521711 -135.27203 -35.711552 2.2311134 -13.974714 -69.446152
2080000000 -16.371128 -81.730331 -9.2050629 -115.79243 -9.9722891 29.253838 -9.2330799 129.02617
-9.2333927 -115.84003 -21.720802 66.502533 -35.897419 106.51039 -30.651423 -142.33296
-10.025536 29.400352 -35.932785 106.73245 -19.022636 0.60869086 -35.941288 -8.2652245
-9.1139479 129.27617 -30.504351 -141.95708 -35.766151 -8.1151962 -14.017566 -72.032135
2090000000 -17.03673 -83.853889 -9.1907358 -121.03536 -9.9500771 23.565153 -9.2235756 123.97358
-9.2199574 -121.08758 -21.895124 60.700588 -35.913593 95.801994 -30.630211 -149.11011
-10.002304 23.696957 -35.943871 96.06723 -18.785116 -6.6327887 -35.962479 -18.626213
-9.1037235 124.21645 -30.474125 -148.80212 -35.790966 -18.536287 -14.059564 -74.513321
2100000000 -17.755482 -85.650574 -9.1782923 -126.278 -9.9288902 17.886963 -9.2145023 118.91731
-9.2068377 -126.32981 -22.071659 54.871166 -35.917641 85.04834 -30.600885 -156.04579
-9.9838619 18.026213 -35.955589 85.344345 -18.535084 -13.460937 -35.991913 -29.221039
-9.0931015 119.16175 -30.459135 -155.73833 -35.799599 -29.060225 -14.100415 -76.888527
2110000000 -18.53504 -86.990173 -9.1650143 -131.51482 -9.9101505 12.225745 -9.2058516 113.86269
-9.1918573 -131.56033 -22.239895 48.895 -35.928505 74.396942 -30.587826 -162.98138
-9.9647493 12.359179 -35.960537 74.498688 -18.263906 -19.90255 -36.017025 -39.835964
-9.0848742 114.09636 -30.439913 -162.75313 -35.826363 -39.774746 -14.135433 -79.18425
2120000000 -19.38018 -87.616631 -9.154686 -136.75983 -9.8942862 6.5801153 -9.2002392 108.79855
-9.1796455 -136.79675 -22.402246 42.860497 -35.954697 63.597988 -30.570868 -169.99834
-9.9486713 6.7197104 -36.004669 63.799751 -17.987778 -25.925131 -36.047081 -50.471458
-9.0760822 109.03319 -30.429792 -169.72614 -35.873219 -50.260201 -14.170177 -81.40126
2130000000 -20.265379 -87.420448 -9.1439629 -141.99409 -9.8821459 0.95951104 -9.1936359 103.73684
-9.1686993 -142.03181 -22.540907 36.696255 -35.98748 52.861958 -30.554256 -176.92172
-9.9361925 1.0937437 -36.01947 53.090767 -17.714943 -31.609724 -36.098114 -61.044296
-9.0719147 103.967 -30.41135 -176.6841 -35.915527 -60.855888 -14.2035 -83.58828
2140000000 -21.1768 -86.296402 -9.1362762 -147.22018 -9.8698845 -4.6521702 -9.1891251 98.681328
-9.1604261 -147.2536 -22.661045 30.46751 -35.999184 42.334442 -30.511908 176.07748
-9.9256258 -4.5132546 -36.033234 42.495113 -17.451904 -36.95924 -36.126648 -71.421967
-9.0664606 98.904152 -30.377384 176.32039 -35.951588 -71.366478 -14.237582 -85.739563
2150000000 -22.085945 -84.082047 -9.1303024 -152.44637 -9.8619499 -10.237985 -9.185358 93.622421
-9.1536627 -152.48538 -22.756945 24.118057 -36.007999 31.712702 -30.48279 169.0941
-9.916482 -10.102264 -36.048168 31.818682 -17.195887 -42.066147 -36.159473 -81.721733
-9.0620327 93.847252 -30.34112 169.33482 -35.967827 -81.70163 -14.272438 -87.880348
2160000000 -22.969023 -80.553391 -9.1249743 -157.65958 -9.8525124 -15.801098 -9.1832075 88.563667
-9.1479273 -157.68925 -22.82642 17.804514 -36.010437 21.099478 -30.445089 162.03227
-9.9105253 -15.662272 -36.03764 21.168673 -16.956665 -46.914265 -36.16613 -92.334023
-9.0567026 88.790947 -30.309425 162.34566 -35.976002 -92.229103 -14.305311 -89.985344
2170000000 -23.739817 -75.640144 -9.1207132 -162.86607 -9.8486109 -21.343962 -9.182106 83.507393
-9.1411505 -162.89842 -22.867805 11.460913 -35.985168 10.396195 -30.404566 155.01027
-9.905674 -21.219564 -36.055241 10.635556 -16.730835 -51.552692 -36.180492 -102.84737
-9.052742 83.734612 -30.274878 155.23907 -36.002125 -102.81844 -14.336721 -92.102654
2180000000 -24.312881 -69.531578 -9.1160908 -168.06531 -9.8445511 -26.867641 -9.1795788 78.459587
-9.1377811 -168.09285 -22.881775 5.256906 -36.023251 -0.33772787 -30.381767 147.93973
-9.9010849 -26.742626 -36.057049 -0.067988493 -16.515425 -55.998726 -36.190704 -113.43746
-9.0520239 78.672302 -30.239828 148.25493 -36.002834 -113.42186 -14.360903 -94.260468
2190000000 -24.624767 -62.757534 -9.1131744 -173.24103 -9.8407335 -32.357525 -9.1777534 73.40593
-9.1340637 -173.28932 -22.861263 -0.94152761 -36.045448 -10.906104 -30.347979 140.92073
-9.8969374 -32.242813 -36.061642 -10.819231 -16.308132 -60.317551 -36.222332 -123.98808
-9.0499372 73.60463 -30.204338 141.19145 -36.045025 -123.9194 -14.381928 -96.412659
2200000000 -24.655766 -55.740215 -9.1111526 -178.4178 -9.8382444 -37.83783 -9.1770191 68.352745
-9.1320229 -178.46605 -22.810415 -6.9654093 -36.04232 -21.573755 -30.31282 133.97928
-9.8948441 -37.730125 -36.101437 -21.305836 -16.110645 -64.468979 -36.271732 -134.53102
-9.050498 68.548012 -30.167849 134.21382 -36.090656 -134.34496 -14.39806 -98.593552
2210000000 -24.388477 -49.312649 -9.1093092 176.42709 -9.8384581 -43.297684 -9.1765385 63.293015
-9.1291666 176.35915 -22.735954 -12.940269 -36.078011 -31.894819 -30.25988 127.10191
-9.8938684 -43.190331 -36.128567 -31.847588 -15.918756 -68.519974 -36.304699 -144.79648
-9.0514107 63.492027 -30.11536 127.31302 -36.118553 -144.72856 -14.404352 -100.76156
2220000000 -23.898108 -44.079739 -9.1075277 171.26195 -9.8383522 -48.723816 -9.1806669 58.2472
-9.1245575 171.18951 -22.649721 -18.790649 -36.089596 -42.280666 -30.194416 120.14659
-9.894228 -48.63509 -36.152134 -42.256939 -15.744036 -72.436821 -36.343666 -154.95311
-9.0518789 58.433449 -30.06093 120.41644 -36.160778 -154.92935 -14.403866 -102.91904
2230000000 -23.286354 -40.348957 -9.105814 166.10704 -9.8383427 -54.124275 -9.183322 53.193985
-9.1250181 166.02618 -22.550447 -24.458441 -36.099121 -52.657524 -30.139923 113.24739
-9.8962736 -54.04826 -36.141582 -52.46579 -15.570559 -76.214333 -36.351982 -165.32552
-9.0540857 53.379505 -30.000484 113.46429 -36.184772 -165.25171 -14.392834 -105.05866
2240000000 -22.642544 -37.914478 -9.1025848 160.95984 -9.8368759 -59.51284 -9.1846132 48.154549
-9.1231976 160.86954 -22.440214 -30.039869 -36.100193 -63.073006 -30.096348 106.28082
-9.895442 -59.437885 -36.132813 -62.892067 -15.402602 -79.880829 -36.36705 -175.61887
-9.0549526 48.31884 -29.942947 106.57101 -36.192326 -175.48235 -14.373858 -107.19334
2250000000 -22.001892 -36.448895 -9.1031427 155.81656 -9.8370028 -64.882149 -9.1902246 43.117374
-9.1222687 155.72641 -22.3181 -35.492725 -36.123119 -73.46434 -30.042358 99.476768
-9.8946753 -64.817223 -36.142376 -73.267586 -15.243942 -83.436188 -36.388412 174.03937
-9.058959 43.278881 -29.892942 99.682541 -36.19574 174.11731 -14.350515 -109.26936
2260000000 -21.371626 -35.880836 -9.103013 150.67661 -9.8355713 -70.227005 -9.1933842 38.085663
-9.1219406 150.59418 -22.189068 -40.782578 -36.12516 -83.792671 -29.966333 92.721603
-9.8956738 -70.169693 -36.183468 -83.495743 -15.091491 -86.860077 -36.431049 163.8885
-9.061799 38.236557 -29.828939 92.992645 -36.237522 163.96013 -14.321279 -111.34389
2270000000 -20.777649 -36.047211 -9.1025534 145.5484 -9.8329325 -75.568634 -9.1989117 33.045258
-9.1207523 145.46599 -22.051868 -46.022964 -36.147709 -93.933319 -29.904699 86.09964
-9.892662 -75.506447 -36.199013 -93.81633 -14.945839 -90.200142 -36.473564 153.86057
-9.0659895 33.200077 -29.757219 86.322632 -36.277378 153.98943 -14.293959 -113.36884
2280000000 -20.245125 -36.875622 -9.1023865 140.41992 -9.8320799 -80.897171 -9.2026005 28.020145
-9.1199903 140.3322 -21.898977 -51.117977 -36.167072 -104.03152 -29.809597 79.479172
-9.890069 -80.822075 -36.212585 -103.84991 -14.812177 -93.410995 -36.494999 143.94772
-9.0698423 28.165764 -29.661448 79.697517 -36.308907 143.92415 -14.258612 -115.36541
2290000000 -19.768272 -38.035172 -9.1019068 135.30124 -9.8309784 -86.199097 -9.2072134 22.984926
-9.1210318 135.21368 -21.753849 -56.099907 -36.167477 -114.03454 -29.712023 72.778717
-9.8894548 -86.120995 -36.210251 -113.96172 -14.691545 -96.535248 -36.488308 134.05295
-9.0731287 23.148399 -29.566055 73.019714 -36.289398 134.01242 -14.222352 -117.36118
2300000000 -19.332205 -39.500492 -9.1022196 130.18419 -9.8274536 -91.486137 -9.2113724 17.961065
-9.1220264 130.10324 -21.589495 -60.903862 -36.1758 -124.20053 -29.613478 66.097878
-9.8854427 -91.399208 -36.220432 -123.98773 -14.57771 -99.568581 -36.488552 124.10535
-9.0778875 18.12616 -29.463022 66.320198 -36.284824 124.11282 -14.186826 -119.35779
2310000000 -18.939678 -41.341541 -9.1016922 125.06844 -9.8226385 -96.763542 -9.2175112 12.949241
-9.1213751 124.99156 -21.418501 -65.569405 -36.205284 -134.27737 -29.514061 59.449272
-9.8827286 -96.692238 -36.235779 -134.01051 -14.473753 -102.53566 -36.498703 114.13802
-9.0834942 13.090863 -29.370386 59.665199 -36.295982 114.08929 -14.151783 -121.37517
2320000000 -18.600697 -43.472301 -9.1022654 119.96156 -9.818161 -102.0264 -9.2215452 7.9364562
-9.1207418 119.88819 -21.236595 -70.092995 -36.225399 -144.13678 -29.402889 52.898705
-9.8793306 -101.97125 -36.258778 -144.00433 -14.381169 -105.43344 -36.518692 104.33062
-9.0892677 8.0594988 -29.257338 53.134079 -36.325241 104.34861 -14.113327 -123.42641
2330000000 -18.325474 -45.794319 -9.1025753 114.86316 -9.812233 -107.27294 -9.2253199 2.9260759
-9.122323 114.78528 -21.05611 -74.496407 -36.256039 -153.93642 -29.294739 46.445133
-9.8754387 -107.22946 -36.305931 -153.83961 -14.293425 -108.27275 -36.533112 94.497871
-9.0963097 3.0409148 -29.145782 46.645256 -36.34729 94.551659 -14.070852 -125.50511
2340000000 -18.097326 -48.213543 -9.1045828 109.77363 -9.8079891 -112.50646 -9.2318459 -2.0752177
-9.1246805 109.69053 -20.887905 -78.734726 -36.251484 -163.55959 -29.156326 39.90126
-9.8699703 -112.46863 -36.301453 -163.43596 -14.220201 -111.05318 -36.527901 84.984886
-9.1007681 -1.9770626 -29.019073 40.078487 -36.333542 85.041626 -14.026234 -127.64291
2350000000 -17.905483 -50.7202 -9.1058836 104.69691 -9.8018456 -117.73885 -9.2364149 -7.0841227
-9.1260958 104.60081 -20.723818 -82.782349 -36.262615 -173.27251 -29.038311 33.360626
-9.863225 -117.69404 -36.303257 -173.12193 -14.150509 -113.78943 -36.499207 75.378395
-9.1042595 -6.9967074 -28.887545 33.543491 -36.322353 75.450165 -13.972484 -129.81477
2360000000 -17.755484 -53.342949 -9.1083364 99.62455 -9.794013 -122.95184 -9.2416964 -12.091141
-9.1268034 99.526649 -20.558422 -86.679634 -36.247166 177.10454 -28.904091 26.80644
-9.8547573 -122.91853 -36.295399 177.17561 -14.082975 -116.44035 -36.49469 65.726807
-9.1091452 -12.005927 -28.75922 26.954382 -36.290314 65.723595 -13.915465 -132.05521
2370000000 -17.6436 -56.11113 -9.1080627 94.561348 -9.7845087 -128.16017 -9.2461834 -17.095737
-9.1273689 94.45517 -20.398643 -90.434296 -36.263493 167.37012 -28.771578 20.364395
-9.8483105 -128.14348 -36.317741 167.39453 -14.018562 -119.05157 -36.489212 55.932522
-9.1133108 -17.035725 -28.634018 20.582537 -36.291779 55.856483 -13.854911 -134.32074
2380000000 -17.567863 -58.908134 -9.1049538 89.491203 -9.7747812 -133.37198 -9.2478561 -22.115685
-9.1292133 89.383255 -20.253624 -94.077362 -36.286564 157.88049 -28.633198 13.924057
-9.8390179 -133.35394 -36.32605 157.96207 -13.956705 -121.61294 -36.484589 46.197681
-9.1170321 -22.058592 -28.482836 14.109378 -36.296101 46.309822 -13.786591 -136.59454
2390000000 -17.529228 -61.732407 -9.1054707 84.42675 -9.7641087 -138.56561 -9.2530308 -27.137236
-9.1298943 84.318871 -20.12326 -97.665535 -36.293648 148.45804 -28.471365 7.4807367
-9.83002 -138.56055 -36.368542 148.57756 -13.899971 -124.09051 -36.519291 36.693768
-9.1227388 -27.098967 -28.318476 7.5915008 -36.327095 36.819553 -13.709373 -138.85071
2400000000 -17.515202 -64.604515 -9.1064939 79.357857 -9.7530432 -143.76575 -9.2578907 -32.16465
-9.1306696 79.252731 -20.010128 -101.10512 -36.314415 139.20134 -28.309286 0.92214149
-9.8202505 -143.76082 -36.374294 139.27309 -13.841351 -126.51509 -36.532734 27.470976
-9.1286907 -32.125866 -28.157616 1.0925657 -36.340519 27.382191 -13.626376 -141.11182
2410000000 -17.530836 -67.562256 -9.1084423 74.304016 -9.7422247 -148.95505 -9.2668467 -37.184689
-9.1322241 74.192009 -19.903564 -104.36331 -36.297421 130.04512 -28.150654 -5.7448044
-9.8093033 -148.94286 -36.350418 130.22554 -13.78644 -128.86354 -36.535076 18.248056
-9.1365328 -37.153316 -28.007696 -5.5664825 -36.340916 18.353468 -13.542503 -143.38251
2420000000 -17.582272 -70.507362 -9.1089935 69.254028 -9.7317724 -154.14893 -9.2728634 -42.204082
-9.1330614 69.131973 -19.79599 -107.53677 -36.28307 120.71573 -28.015116 -12.377069
-9.7980957 -154.13072 -36.321247 120.88657 -13.729162 -131.16232 -36.521069 9.0349474
-9.1444769 -42.174778 -27.865377 -12.173427 -36.32209 9.0712528 -13.458557 -145.6413
2430000000 -17.666269 -73.459343 -9.1090555 64.206863 -9.7189856 -159.33626 -9.2792215 -47.227955
-9.1347666 64.07618 -19.680889 -110.64119 -36.273937 111.44615 -27.880196 -18.944437
-9.7853155 -159.3233 -36.319256 111.60995 -13.669858 -133.40662 -36.533634 -0.25227576
-9.1518822 -47.193703 -27.725235 -18.717924 -36.330956 -0.28383005 -13.384076 -147.87456
2440000000 -17.774046 -76.318687 -9.1094055 59.161461 -9.7078819 -164.52576 -9.2884007 -52.24255
-9.1394558 59.034809 -19.579201 -113.65786 -36.299664 102.15525 -27.741814 -25.460876
-9.7751322 -164.50839 -36.355537 102.36228 -13.615235 -135.60646 -36.533058 -9.3704472
-9.1625347 -52.21056 -27.594257 -25.287376 -36.348198 -9.3563681 -13.314051 -150.10289
2450000000 -17.896116 -79.226257 -9.1108589 54.117363 -9.6933079 -169.71365 -9.2962942 -57.271175
-9.1412249 54.001236 -19.476606 -116.59576 -36.31485 93.320061 -27.588715 -31.960249
-9.7633257 -169.69278 -36.377449 93.441093 -13.563115 -137.73619 -36.565441 -18.266188
-9.1732941 -57.22427 -27.44552 -31.77264 -36.373154 -18.381233 -13.248527 -152.34615
2460000000 -18.056314 -82.194305 -9.1139145 49.074257 -9.6810961 -174.90303 -9.3078384 -62.293442
-9.1441212 48.969402 -19.378939 -119.35316 -36.312675 84.594421 -27.4401 -38.522945
-9.7505665 -174.87947 -36.370781 84.840843 -13.507877 -139.83176 -36.574169 -26.987749
-9.185358 -62.235344 -27.289991 -38.353683 -36.382614 -26.944115 -13.193748 -154.60333
2470000000 -18.260908 -85.151627 -9.1163559 44.036655 -9.6692686 179.91293 -9.3197279 -67.284782
-9.1456499 43.945065 -19.275702 -121.99692 -36.306797 75.982147 -27.298719 -45.156975
-9.7385721 179.94679 -36.349583 76.080734 -13.450439 -141.89577 -36.557533 -35.553562
-9.1953259 -67.228287 -27.150002 -44.984455 -36.341114 -35.530495 -13.148834 -156.91481
2480000000 -18.511292 -88.007294 -9.1201439 39.018906 -9.6565084 174.72704 -9.3304195 -72.264763
-9.1477261 38.919468 -19.15999 -124.46546 -36.228477 67.231659 -27.174416 -51.843796
-9.7252264 174.76656 -36.272621 67.475571 -13.388674 -143.97469 -36.478027 -44.078777
-9.2050915 -72.215767 -27.024817 -51.688873 -36.279594 -44.108688 -13.119126 -159.27219
2490000000 -18.79299 -90.706314 -9.1209173 34.009109 -9.6445932 169.54079 -9.3379908 -77.247139
-9.1502123 33.901234 -19.037237 -126.86185 -36.179699 58.483036 -27.059404 -58.492649
-9.713479 169.58344 -36.218399 58.647919 -13.329279 -146.05876 -36.414883 -52.780598
-9.2148485 -77.201385 -26.91243 -58.338608 -36.223282 -52.806561 -13.095501 -161.68506
2500000000 -19.09243 -93.303741 -9.1216068 29.004023 -9.6327305 164.37413 -9.345232 -82.221031
-9.1529636 28.902994 -18.912514 -129.15135 -36.112663 49.607166 -26.952812 -65.089928
-9.7036705 164.40453 -36.168224 49.684086 -13.271587 -148.1358 -36.363018 -61.652458
-9.2238464 -82.192062 -26.805235 -64.921448 -36.168304 -61.686268 -13.084949 -164.12686
2510000000 -19.424093 -95.914612 -9.1226044 24.008196 -9.6243696 159.20821 -9.3501558 -87.222366
-9.1552954 23.90666 -18.784893 -131.34845 -36.07534 40.902939 -26.841423 -71.612434
-9.694416 159.22562 -36.125206 40.903328 -13.209739 -150.22601 -36.291153 -70.248451
-9.2320099 -87.180359 -26.697193 -71.446327 -36.127747 -70.36261 -13.073043 -166.65422
2520000000 -19.788696 -98.51506 -9.1229534 19.014582 -9.6141214 154.04178 -9.3582354 -92.219887
-9.1544809 18.920935 -18.654276 -133.50168 -36.036812 32.250824 -26.736 -78.146942
-9.6846323 154.05681 -36.081646 32.420677 -13.145573 -152.32848 -36.261986 -78.882278
-9.2415743 -92.171974 -26.592428 -77.987373 -36.07246 -78.857086 -13.06938 -169.22217
2530000000 -20.189919 -101.11896 -9.1220903 14.032673 -9.6067915 148.88396 -9.3676538 -97.219048
-9.1550436 13.931705 -18.519724 -135.58704 -35.984425 23.671015 -26.640648 -84.693756
-9.6761436 148.90256 -36.043289 23.872952 -13.079044 -154.42107 -36.179935 -87.473709
-9.2488718 -97.166565 -26.494482 -84.562126 -35.997986 -87.326683 -13.067598 -171.85217
2540000000 -20.627647 -103.74952 -9.1196728 9.052969 -9.5961876 143.74213 -9.3763494 -102.20655
-9.1537027 8.9569044 -18.380671 -137.6662 -35.887287 15.30197 -26.549234 -91.287155
