!Agilent Technologies,N5224A,MY51441093,A.09.90.21
!Agilent N5224A: A.09.90.21
!Date: Monday, November 03, 2025 14:08:28
!Correction: S11(Full 2 Port(1,2)) 
!S1P File: Measurement: S11:
# Hz S  dB   R 50
1000000000 -0.8673265 54.288437
1010000000 -0.86221635 50.676445
1020000000 -0.86140221 46.868362
1030000000 -0.89772099 43.194397
1040000000 -0.91167116 39.476658
1050000000 -0.93866837 35.506092
1060000000 -1.0196002 31.434198
1070000000 -1.1164473 27.442339
1080000000 -1.2415528 23.309284
1090000000 -1.4384633 19.072578
1100000000 -1.7385066 15.116511
1110000000 -2.0974305 11.733113
1120000000 -2.5180833 9.4046488
1130000000 -2.7951548 7.9650302
1140000000 -2.9717159 6.4110246
1150000000 -3.156733 5.0815167
1160000000 -3.2876256 4.4619226
1170000000 -3.1103499 3.7803288
1180000000 -2.8926275 1.6897846
1190000000 -2.663686 -1.0712601
1200000000 -2.5618377 -4.4566216
1210000000 -2.486047 -7.6925845
1220000000 -2.4372575 -11.603559
1230000000 -2.4613814 -14.544285
1240000000 -2.4221983 -17.817713
1250000000 -2.3927701 -21.191851
1260000000 -2.4085681 -24.782854
1270000000 -2.4154868 -27.913931
1280000000 -2.4471545 -31.328653
1290000000 -2.3706591 -34.328159
1300000000 -2.3056078 -38.17281
1310000000 -2.353282 -42.249817
1320000000 -2.3463209 -46.012684
1330000000 -2.3772237 -50.240978
1340000000 -2.4810934 -54.056736
1350000000 -2.5566938 -57.906616
1360000000 -2.5551083 -61.586273
1370000000 -2.5833938 -65.868546
1380000000 -2.6278536 -70.912094
1390000000 -2.816963 -75.015091
1400000000 -2.9176807 -79.280716
1410000000 -2.9267116 -83.986397
1420000000 -3.1261637 -89.607895
1430000000 -3.4169302 -94.544594
1440000000 -3.6547275 -99.201485
1450000000 -3.9427226 -104.30351
1460000000 -4.2575455 -109.48908
1470000000 -4.5812373 -114.26272
1480000000 -4.8906903 -120.57173
1490000000 -5.4027534 -126.55076
1500000000 -6.0863638 -132.72951
1510000000 -6.7070112 -138.00275
1520000000 -7.3079829 -146.34773
1530000000 -8.8160992 -152.98137
1540000000 -9.5886335 -156.38776
1550000000 -11.213113 -164.71074
1560000000 -13.065399 -169.85605
1570000000 -15.349097 178.93291
1580000000 -21.344868 179.27927
1590000000 -25.94175 -153.03375
1600000000 -25.695566 -81.625832
1610000000 -21.025295 -73.325073
1620000000 -17.669786 -68.258377
1630000000 -15.218933 -71.132668
1640000000 -13.052899 -76.180244
1650000000 -12.49461 -84.656265
1660000000 -11.178022 -87.596016
1670000000 -10.59587 -97.32132
1680000000 -10.47688 -102.58763
1690000000 -10.320799 -107.18374
1700000000 -9.8460855 -113.58739
1710000000 -10.270999 -119.98539
1720000000 -10.369684 -123.553
1730000000 -10.454301 -128.20821
1740000000 -10.910565 -133.13908
1750000000 -11.243767 -132.45291
1760000000 -11.057075 -137.41866
1770000000 -11.512935 -140.96748
1780000000 -12.27117 -142.62392
1790000000 -12.347732 -141.3353
1800000000 -12.656858 -142.26172
1810000000 -12.89414 -138.33636
1820000000 -12.446085 -137.4536
1830000000 -11.461627 -136.28761
1840000000 -10.742306 -140.85565
1850000000 -10.273387 -147.06021
1860000000 -10.053671 -151.0549
1870000000 -9.6656437 -156.07899
1880000000 -9.5559797 -163.33029
1890000000 -9.7018614 -169.62993
1900000000 -9.8683844 -173.97067
1910000000 -9.9805489 179.64326
1920000000 -10.240481 172.9725
1930000000 -10.806939 166.82437
1940000000 -11.44347 162.99741
1950000000 -11.943741 158.38716
1960000000 -12.665442 157.69556
1970000000 -12.698071 155.90712
1980000000 -13.159225 151.87975
1990000000 -13.502342 151.005
2000000000 -13.237956 148.55528
2010000000 -13.758363 143.92694
2020000000 -13.569439 140.69577
2030000000 -13.47552 134.47968
2040000000 -13.739432 126.82001
2050000000 -14.276992 119.93262
2060000000 -14.84937 111.56971
2070000000 -15.889982 104.61935
2080000000 -17.149712 98.640083
2090000000 -18.72336 92.313225
2100000000 -19.973444 93.885544
2110000000 -21.533464 94.134689
2120000000 -22.050282 101.3679
2130000000 -21.306639 99.376701
2140000000 -21.481749 91.465752
2150000000 -22.522961 92.572083
2160000000 -21.481806 83.622025
2170000000 -22.367838 71.053818
2180000000 -23.834778 64.107101
2190000000 -24.240114 52.167446
2200000000 -26.590595 34.835796
2210000000 -29.248596 38.667324
2220000000 -28.933485 39.544472
2230000000 -30.701069 17.498962
2240000000 -30.919033 20.970749
2250000000 -30.039406 -2.7673528
2260000000 -30.676781 -23.985153
2270000000 -34.652176 -57.168381
2280000000 -33.763157 -46.707211
2290000000 -33.174637 -78.342911
2300000000 -32.64085 -83.819038
2310000000 -32.113041 -112.80688
2320000000 -36.118744 -129.69366
2330000000 -36.790142 -130.94388
2340000000 -42.409073 -160.55492
2350000000 -48.800224 -44.164528
2360000000 -38.220921 -30.040983
2370000000 -32.684658 -44.192558
2380000000 -29.980062 -62.962734
2390000000 -32.250656 -59.55022
2400000000 -28.501623 -61.149658
2410000000 -28.339825 -62.037167
2420000000 -26.416153 -70.377235
2430000000 -26.771791 -67.388519
2440000000 -23.947691 -67.672768
2450000000 -22.212486 -79.912262
2460000000 -23.230478 -88.923386
2470000000 -22.722202 -87.236656
2480000000 -22.146444 -91.279694
2490000000 -21.121807 -91.126762
2500000000 -20.741894 -96.557274
2510000000 -19.911242 -99.060326
2520000000 -19.187107 -104.01058
2530000000 -18.840443 -107.68429
2540000000 -18.283154 -110.22485
2550000000 -17.643883 -116.49003
2560000000 -17.253382 -120.95419
2570000000 -17.189804 -127.13486
2580000000 -16.909605 -129.84047
2590000000 -16.659126 -135.30933
2600000000 -16.882071 -139.89027
2610000000 -16.862135 -139.06065
2620000000 -16.27883 -143.63147
2630000000 -16.154814 -148.40288
2640000000 -16.4266 -151.07214
2650000000 -16.179081 -151.62091
2660000000 -15.850523 -155.39299
2670000000 -15.765475 -159.66928
2680000000 -16.09935 -160.37527
2690000000 -15.492392 -160.7346
2700000000 -15.151016 -166.15906
2710000000 -15.046688 -168.41545
2720000000 -14.995811 -173.2495
2730000000 -14.888176 -174.7317
2740000000 -14.837016 -179.41801
2750000000 -14.811843 178.43344
2760000000 -14.704662 175.63222
2770000000 -14.704443 173.65672
2780000000 -14.579662 169.89453
2790000000 -14.647672 168.81969
2800000000 -14.336617 166.93062
2810000000 -14.031886 163.46773
2820000000 -13.988869 160.2083
2830000000 -13.514723 157.06075
2840000000 -13.291116 151.96745
2850000000 -13.271083 145.23279
2860000000 -13.64425 140.7299
2870000000 -13.833682 137.07419
2880000000 -14.103372 131.79752
2890000000 -14.818141 128.44496
2900000000 -15.496373 128.44119
2910000000 -15.962733 129.59036
2920000000 -15.92539 133.10635
2930000000 -15.568423 135.01518
2940000000 -14.967968 135.19537
2950000000 -14.371571 134.77242
2960000000 -13.623196 133.15971
2970000000 -12.787083 130.95313
2980000000 -12.005978 126.00489
2990000000 -11.246666 120.75095
3000000000 -10.636956 114.33327
3010000000 -10.058673 107.33133
3020000000 -9.6589222 99.500839
3030000000 -9.3465385 91.300972
3040000000 -9.1825476 82.767082
3050000000 -9.1220818 74.148117
3060000000 -9.2067013 65.353333
3070000000 -9.3904295 56.670074
3080000000 -9.6860781 48.352226
3090000000 -9.961215 40.617279
3100000000 -10.324709 32.371822
3110000000 -10.734551 24.548555
3120000000 -11.173023 16.582018
3130000000 -11.624064 9.9882946
3140000000 -12.044198 2.583303
3150000000 -12.482557 -4.5275917
3160000000 -12.872442 -12.201453
3170000000 -13.275081 -19.931202
3180000000 -13.856906 -28.300215
3190000000 -14.286718 -35.60294
3200000000 -14.897476 -44.724892
3210000000 -15.498233 -51.373619
3220000000 -15.841216 -61.164925
3230000000 -16.667971 -68.702202
3240000000 -16.881346 -76.327667
3250000000 -17.055418 -85.565903
3260000000 -17.555195 -96.902679
3270000000 -18.198137 -106.64703
3280000000 -18.826519 -114.81761
3290000000 -18.906681 -120.73129
3300000000 -19.185259 -130.9481
3310000000 -19.087828 -138.144
3320000000 -19.38352 -149.93657
3330000000 -19.831097 -153.86362
3340000000 -19.312435 -161.19452
3350000000 -19.393265 -171.27553
3360000000 -19.448128 -177.6924
3370000000 -19.62392 175.41414
3380000000 -19.625877 172.81358
3390000000 -19.079603 166.94702
3400000000 -18.860058 161.09264
3410000000 -18.727388 157.65947
3420000000 -18.187366 153.07724
3430000000 -17.681696 145.99428
3440000000 -17.67005 140.0155
3450000000 -17.808762 135.91364
3460000000 -17.383083 136.03319
3470000000 -16.627657 132.01529
3480000000 -16.145567 126.39365
3490000000 -15.831927 121.79518
3500000000 -15.338137 118.29714
3510000000 -14.818812 112.39118
3520000000 -14.353971 108.82032
3530000000 -13.769353 102.11758
3540000000 -13.497955 97.080032
3550000000 -13.001245 90.942543
3560000000 -12.872502 84.80336
3570000000 -12.63278 81.157181
3580000000 -12.181161 75.34111
3590000000 -11.92968 69.396133
3600000000 -11.685652 62.987732
3610000000 -11.674654 56.747559
3620000000 -11.632225 51.793159
3630000000 -11.522409 46.66975
3640000000 -11.334489 41.396572
3650000000 -11.20973 35.508972
3660000000 -11.237718 29.545343
3670000000 -11.183502 25.012739
3680000000 -10.95789 19.404314
3690000000 -10.775501 12.799546
3700000000 -10.774287 6.5005703
3710000000 -10.779284 -0.15940557
3720000000 -10.795184 -6.8321409
3730000000 -10.857487 -13.540257
3740000000 -10.902726 -20.943539
3750000000 -11.151908 -28.620014
3760000000 -11.41296 -36.323849
3770000000 -11.74288 -43.829498
3780000000 -12.111119 -52.810459
3790000000 -12.691607 -61.759132
3800000000 -13.353218 -70.414009
3810000000 -14.194674 -79.336761
3820000000 -15.01329 -87.745338
3830000000 -15.881035 -97.080261
3840000000 -16.984056 -108.66321
3850000000 -18.626289 -117.96626
3860000000 -20.258238 -125.79139
3870000000 -21.604462 -135.83359
3880000000 -23.232227 -147.6662
3890000000 -25.526838 -163.07828
3900000000 -27.464634 -177.07672
3910000000 -28.907255 164.94669
3920000000 -29.502104 139.11359
3930000000 -28.482435 114.30372
3940000000 -27.761 89.656662
3950000000 -26.578894 73.760612
3960000000 -25.734066 64.090179
3970000000 -24.190704 52.557991
3980000000 -23.683401 41.438778
3990000000 -23.565554 33.327694
4000000000 -23.39846 31.00812
4010000000 -22.871422 24.714178
4020000000 -22.573544 21.480135
4030000000 -22.238155 15.695109
4040000000 -21.996414 15.236403
4050000000 -21.342419 7.6531725
4060000000 -21.36323 2.4026299
4070000000 -21.531582 -4.3003883
4080000000 -21.637697 -6.6293702
4090000000 -21.870182 -13.649635
4100000000 -22.669937 -15.299232
4110000000 -23.216326 -16.403164
4120000000 -23.347286 -17.907064
4130000000 -24.243401 -20.336676
4140000000 -24.946394 -16.877314
4150000000 -25.805958 -19.018244
4160000000 -27.488186 -8.4353485
4170000000 -26.733501 4.3807583
4180000000 -26.275106 7.7246785
4190000000 -26.341658 14.271708
4200000000 -25.041206 24.893967
4210000000 -23.76783 23.513992
4220000000 -23.264393 25.771259
4230000000 -22.185173 31.744856
4240000000 -20.239738 30.307026
4250000000 -19.234217 24.735245
4260000000 -18.863136 21.864849
4270000000 -18.048752 19.038107
4280000000 -17.613916 15.158795
4290000000 -17.455353 13.572765
4300000000 -17.082308 13.756344
4310000000 -16.263847 14.234303
4320000000 -15.518936 11.762898
4330000000 -14.695151 9.4477272
4340000000 -14.135034 5.2280059
4350000000 -13.651189 2.7929521
4360000000 -12.903669 -1.1302263
4370000000 -12.499752 -5.2124729
4380000000 -12.11445 -8.9618101
4390000000 -11.645747 -12.662519
4400000000 -11.233174 -17.471884
4410000000 -10.92706 -21.422604
4420000000 -10.541983 -25.879906
4430000000 -10.415125 -30.799387
4440000000 -10.18947 -33.646957
4450000000 -9.7630634 -38.097469
4460000000 -9.6893978 -43.686592
4470000000 -9.6439562 -47.579803
4480000000 -9.5571632 -51.811813
4490000000 -9.5239201 -55.693161
4500000000 -9.5276527 -59.850658
4510000000 -9.4721651 -63.769043
4520000000 -9.6574345 -68.065086
4530000000 -9.8167057 -70.722481
4540000000 -9.8022099 -73.247002
4550000000 -9.6783247 -77.11676
4560000000 -9.9034653 -81.952797
4570000000 -10.150158 -84.124649
4580000000 -10.233103 -86.447029
4590000000 -10.365202 -89.328217
4600000000 -10.419905 -91.083992
4610000000 -10.384002 -93.76516
4620000000 -10.428062 -96.98201
4630000000 -10.492215 -99.473366
4640000000 -10.54188 -101.93368
4650000000 -10.601524 -104.92831
4660000000 -10.721454 -106.94047
4670000000 -10.655743 -109.47672
4680000000 -10.688656 -112.51574
4690000000 -10.77079 -115.92982
4700000000 -10.886784 -119.43263
4710000000 -11.122801 -122.98808
4720000000 -11.459113 -126.22407
4730000000 -11.805471 -128.57932
4740000000 -12.13767 -131.17627
4750000000 -12.478897 -133.01807
4760000000 -12.861564 -135.49635
4770000000 -13.385206 -137.00943
4780000000 -13.880277 -136.88007
4790000000 -14.18266 -136.69144
4800000000 -14.508287 -136.4296
4810000000 -14.766684 -135.94104
4820000000 -14.904155 -133.5341
4830000000 -14.789617 -132.73851
4840000000 -14.798939 -132.89665
4850000000 -14.691221 -131.69383
4860000000 -14.595649 -131.59651
4870000000 -14.411857 -130.75475
4880000000 -14.041088 -131.15691
4890000000 -13.848984 -131.44725
4900000000 -13.504642 -132.77855
4910000000 -13.205308 -134.33797
4920000000 -12.966852 -136.23753
4930000000 -12.744791 -138.67624
4940000000 -12.622185 -140.27666
4950000000 -12.455528 -142.35361
4960000000 -12.142337 -144.13998
4970000000 -11.922791 -146.90923
4980000000 -11.650355 -150.03355
4990000000 -11.564237 -153.78384
5000000000 -11.525569 -156.46053
