!Agilent Technologies,N5224A,MY51441093,A.09.90.21
!Agilent N5224A: A.09.90.21
!Date: Monday, November 03, 2025 14:09:31
!Correction: S11(Full 1 Port(1)) 
!S1P File: Measurement: S11:
# Hz S  dB   R 50
1000000000 -0.84828001 54.139618
1010000000 -0.84433979 50.55809
1020000000 -0.84343106 46.845028
1030000000 -0.87975103 43.091732
1040000000 -0.90485686 39.383274
1050000000 -0.93224031 35.48811
1060000000 -1.0026976 31.366873
1070000000 -1.1019826 27.411615
1080000000 -1.2267121 23.349539
1090000000 -1.4120321 19.156897
1100000000 -1.6881962 15.219229
1110000000 -2.0352876 11.794373
1120000000 -2.4328923 9.1997557
1130000000 -2.7281783 7.6411152
1140000000 -2.9453695 6.0795083
1150000000 -3.0951555 4.7475529
1160000000 -3.2501111 3.7549562
1170000000 -3.1345341 3.0857706
1180000000 -2.9425952 1.1490686
1190000000 -2.7507603 -1.1681685
1200000000 -2.599617 -4.5887475
1210000000 -2.5288577 -7.9043031
1220000000 -2.5097296 -11.478592
1230000000 -2.5229452 -14.585218
1240000000 -2.507108 -17.525047
1250000000 -2.4752321 -20.668459
1260000000 -2.4486127 -23.829594
1270000000 -2.3819976 -26.982903
1280000000 -2.3868446 -30.448017
1290000000 -2.2953222 -33.520512
1300000000 -2.181972 -37.408482
1310000000 -2.2067759 -41.862152
1320000000 -2.2379005 -45.610271
1330000000 -2.2163227 -49.803318
1340000000 -2.2710154 -54.038559
1350000000 -2.3723717 -58.243546
1360000000 -2.3827741 -62.129677
1370000000 -2.4584937 -66.796631
1380000000 -2.527298 -71.472954
1390000000 -2.7191751 -75.945381
1400000000 -2.8183877 -80.177536
1410000000 -2.8788977 -84.812752
1420000000 -3.047055 -90.474846
1430000000 -3.3455019 -95.898483
1440000000 -3.6672001 -100.6389
1450000000 -3.9435914 -105.41965
1460000000 -4.2652755 -110.85027
1470000000 -4.6368542 -115.76546
1480000000 -5.0297365 -122.27201
1490000000 -5.6470003 -127.5504
1500000000 -6.2256045 -133.59444
1510000000 -6.9139562 -138.97249
1520000000 -7.4632883 -147.12799
1530000000 -9.0837984 -155.47112
1540000000 -10.196359 -156.52226
1550000000 -11.819633 -164.66953
1560000000 -13.54198 -167.36098
1570000000 -15.460138 -177.03232
1580000000 -20.789385 -179.43289
1590000000 -27.282516 -151.69548
1600000000 -25.218891 -84.07592
1610000000 -21.201031 -73.189491
1620000000 -17.821665 -67.455688
1630000000 -15.20893 -70.532433
1640000000 -13.037815 -74.908546
1650000000 -12.5478 -85.908867
1660000000 -11.630864 -86.642792
1670000000 -10.47298 -95.314011
1680000000 -10.47781 -103.70549
1690000000 -10.786011 -108.10255
1700000000 -10.179203 -110.96491
1710000000 -10.430078 -118.63678
1720000000 -10.518032 -122.48653
1730000000 -10.734293 -126.47587
1740000000 -11.023185 -132.3213
1750000000 -11.78434 -131.99808
1760000000 -11.65652 -134.53218
1770000000 -11.855419 -134.60411
1780000000 -12.10796 -135.97926
1790000000 -11.845 -136.98647
1800000000 -12.320153 -140.25153
1810000000 -12.37136 -136.25124
1820000000 -11.902181 -136.16791
1830000000 -11.237174 -136.44135
1840000000 -10.451322 -139.97525
1850000000 -9.9117985 -146.64165
1860000000 -9.8656836 -151.76068
1870000000 -9.6286201 -155.74164
1880000000 -9.4154816 -162.49117
1890000000 -9.3752279 -169.882
1900000000 -9.9834795 -174.9986
1910000000 -10.269768 179.52394
1920000000 -10.558856 175.96953
1930000000 -10.650778 170.84909
1940000000 -11.050396 166.489
1950000000 -11.537291 161.09985
1960000000 -12.136155 159.33125
1970000000 -12.525482 157.10487
1980000000 -12.631436 153.88864
1990000000 -12.892668 152.43135
2000000000 -12.575319 150.26315
2010000000 -12.776778 142.94876
2020000000 -12.766888 139.13684
2030000000 -12.807042 132.40295
2040000000 -13.087621 123.13678
2050000000 -14.156023 115.74895
2060000000 -14.564572 110.78697
2070000000 -15.644484 102.82444
2080000000 -16.825871 98.549248
2090000000 -17.92568 95.571167
2100000000 -18.920982 92.278633
2110000000 -19.737022 93.751205
2120000000 -20.089655 89.184799
2130000000 -20.953484 86.715569
2140000000 -21.456215 84.456154
2150000000 -22.78809 83.498459
2160000000 -21.631962 81.518188
2170000000 -22.274237 70.540794
2180000000 -22.659395 65.219673
2190000000 -22.630032 49.714371
2200000000 -24.995331 33.129784
2210000000 -26.629099 28.873287
2220000000 -28.938326 30.206348
2230000000 -29.093626 15.908064
2240000000 -30.912796 22.593636
2250000000 -28.517321 18.541973
2260000000 -26.642569 0.885324
2270000000 -27.484777 -33.729443
2280000000 -29.204807 -43.417503
2290000000 -29.608374 -48.744461
2300000000 -28.492966 -60.36227
2310000000 -29.387579 -79.24794
2320000000 -31.056643 -77.126205
2330000000 -29.73613 -79.778
2340000000 -31.208202 -93.527161
2350000000 -31.224249 -75.344772
2360000000 -28.921417 -77.041283
2370000000 -27.631207 -84.824028
2380000000 -27.090265 -94.1782
2390000000 -28.478792 -101.52102
2400000000 -29.125141 -94.242577
2410000000 -28.181559 -93.812622
2420000000 -27.661413 -94.263138
2430000000 -29.877045 -87.881577
2440000000 -26.484045 -70.126205
2450000000 -24.149733 -78.591484
2460000000 -23.755823 -81.529823
2470000000 -22.476576 -81.588211
2480000000 -21.61865 -91.025299
2490000000 -20.512794 -91.678772
2500000000 -20.100004 -98.882088
2510000000 -19.667606 -104.41217
2520000000 -19.154169 -106.10607
2530000000 -18.761118 -111.0135
2540000000 -18.011684 -111.48097
2550000000 -17.138142 -122.14043
2560000000 -17.700686 -125.57761
2570000000 -17.236799 -129.17599
2580000000 -16.887712 -134.63249
2590000000 -16.777742 -140.37292
2600000000 -17.288757 -144.73381
2610000000 -17.580999 -143.96663
2620000000 -17.079134 -145.37602
2630000000 -16.721394 -146.84425
2640000000 -16.611202 -151.39595
2650000000 -16.572506 -152.44467
2660000000 -16.184607 -155.68489
2670000000 -15.915528 -159.44324
2680000000 -16.342543 -163.15291
2690000000 -16.359507 -161.77698
2700000000 -15.545106 -163.39709
2710000000 -15.174317 -167.74753
2720000000 -15.304135 -172.14867
2730000000 -15.310146 -173.40192
2740000000 -14.936831 -176.94521
2750000000 -15.009451 179.3177
2760000000 -14.859504 178.87263
2770000000 -14.691745 175.05948
2780000000 -14.291982 172.03072
2790000000 -14.666964 168.51816
2800000000 -14.418017 167.94656
2810000000 -14.033409 164.84364
2820000000 -13.834276 161.47459
2830000000 -13.517989 158.5415
2840000000 -13.246282 154.34947
2850000000 -12.953731 148.50163
2860000000 -13.051718 141.63029
2870000000 -13.456948 136.47017
2880000000 -13.744583 131.21126
2890000000 -14.615027 128.38568
2900000000 -14.990836 128.11771
2910000000 -15.551275 127.0213
2920000000 -15.666971 129.92613
2930000000 -15.588229 133.03378
2940000000 -14.948588 133.67421
2950000000 -14.282327 133.16124
2960000000 -13.525136 131.4167
2970000000 -12.91891 128.46335
2980000000 -12.186452 125.46079
2990000000 -11.320938 120.81902
3000000000 -10.680093 114.21484
3010000000 -10.078878 107.61508
3020000000 -9.6427298 99.92321
3030000000 -9.3243971 91.811508
3040000000 -9.1362572 83.445244
3050000000 -9.0113363 74.87394
3060000000 -9.0847702 65.989265
3070000000 -9.23417 57.847195
3080000000 -9.4211645 49.211086
3090000000 -9.684926 41.229889
3100000000 -10.028223 33.29533
3110000000 -10.33356 26.008476
3120000000 -10.638164 18.012697
3130000000 -11.030993 10.509047
3140000000 -11.405429 3.3343799
3150000000 -11.692516 -4.9139872
3160000000 -12.188421 -13.39025
3170000000 -12.747899 -21.156166
3180000000 -13.283963 -28.073841
3190000000 -13.508247 -35.394276
3200000000 -14.099137 -45.055321
3210000000 -14.64584 -52.731464
3220000000 -15.104768 -60.943375
3230000000 -15.674843 -68.283875
3240000000 -16.004953 -76.376488
3250000000 -16.23295 -84.156868
3260000000 -16.387054 -92.912834
3270000000 -16.592258 -103.2949
3280000000 -17.068359 -113.9584
3290000000 -17.683258 -120.83931
3300000000 -17.920227 -128.0381
3310000000 -17.801832 -134.41785
3320000000 -17.635862 -144.3037
3330000000 -17.98469 -153.7944
3340000000 -18.06246 -160.06116
3350000000 -18.024727 -167.34402
3360000000 -17.785851 -174.52835
3370000000 -18.061911 178.55119
3380000000 -17.854612 174.28578
3390000000 -17.422712 166.685
3400000000 -17.614227 161.112
3410000000 -17.303953 157.0941
3420000000 -16.948423 152.13509
3430000000 -16.620958 144.70583
3440000000 -16.765036 140.61055
3450000000 -16.556557 137.48604
3460000000 -16.201191 133.61836
3470000000 -15.932088 129.91974
3480000000 -15.537077 127.60416
3490000000 -14.776711 123.52988
3500000000 -14.182882 116.6541
3510000000 -13.963357 110.75251
3520000000 -13.553242 107.05779
3530000000 -13.018075 100.81864
3540000000 -12.773218 94.744957
3550000000 -12.375615 88.413101
3560000000 -12.482743 82.263458
3570000000 -12.26263 79.434509
3580000000 -11.84528 74.327675
3590000000 -11.595344 68.487694
3600000000 -11.358891 62.797417
3610000000 -11.186733 57.157364
3620000000 -11.085252 51.597401
3630000000 -10.95823 47.002575
3640000000 -10.600994 40.839119
3650000000 -10.58888 33.876373
3660000000 -10.575411 28.128988
3670000000 -10.597339 22.478374
3680000000 -10.514126 16.862675
3690000000 -10.429744 10.565407
3700000000 -10.470067 4.2523308
3710000000 -10.485805 -2.6213281
3720000000 -10.642816 -8.9636211
3730000000 -10.785228 -15.097251
3740000000 -10.878392 -21.293688
3750000000 -10.994567 -29.128138
3760000000 -11.292858 -36.285084
3770000000 -11.587555 -43.941048
3780000000 -12.040218 -52.16531
3790000000 -12.528164 -59.922371
3800000000 -13.1485 -68.417282
3810000000 -13.892375 -76.473579
3820000000 -14.70188 -84.632523
3830000000 -15.635021 -92.844505
3840000000 -16.689056 -101.35183
3850000000 -17.926483 -109.0262
3860000000 -19.350252 -117.23938
3870000000 -20.750546 -124.25476
3880000000 -22.098684 -133.82587
3890000000 -24.538462 -148.70314
3900000000 -27.38204 -154.53014
3910000000 -29.556612 -165.94124
3920000000 -31.144527 176.9039
3930000000 -31.898077 141.58046
3940000000 -31.177563 100.60339
3950000000 -31.007734 68.276031
3960000000 -30.289331 58.02747
3970000000 -28.405975 45.384727
3980000000 -27.776533 36.047966
3990000000 -27.546459 27.762991
4000000000 -27.107277 25.898577
4010000000 -26.412815 19.902918
4020000000 -26.005386 17.162354
4030000000 -26.114285 8.9766893
4040000000 -26.700443 11.972066
4050000000 -25.895935 11.693254
4060000000 -26.027264 9.8924198
4070000000 -25.523817 7.1593337
4080000000 -25.507919 9.0145473
4090000000 -24.741354 6.7475457
4100000000 -25.046967 2.7045221
4110000000 -25.357479 2.3323486
4120000000 -25.634768 1.5981399
4130000000 -25.871628 3.3216712
4140000000 -26.598991 6.9098139
4150000000 -26.60498 9.991581
4160000000 -27.15382 20.497484
4170000000 -25.72621 26.15078
4180000000 -24.942532 30.551037
4190000000 -24.103783 31.190619
4200000000 -23.124548 34.194485
4210000000 -22.209999 31.965425
4220000000 -21.760342 32.647129
4230000000 -20.808216 34.669682
4240000000 -19.606855 34.632431
4250000000 -18.268457 30.591984
4260000000 -17.93751 24.073879
4270000000 -17.423166 24.738316
4280000000 -16.517099 22.009909
4290000000 -15.827962 17.866516
4300000000 -15.34917 13.35032
4310000000 -15.185245 10.291523
4320000000 -14.78173 9.1204023
4330000000 -14.257672 7.2046366
4340000000 -13.622205 4.7710156
4350000000 -13.199805 0.93307298
4360000000 -12.617407 -1.2925694
4370000000 -12.136236 -5.6312795
4380000000 -11.784389 -9.2374916
4390000000 -11.391813 -13.002498
4400000000 -10.93064 -17.129711
4410000000 -10.687087 -21.516148
4420000000 -10.430717 -25.098238
4430000000 -10.102211 -29.518559
4440000000 -9.9544125 -33.295303
4450000000 -9.6491365 -36.913441
4460000000 -9.4320641 -41.825722
4470000000 -9.3727169 -45.583275
4480000000 -9.1729898 -49.830654
4490000000 -9.088603 -54.066845
4500000000 -9.055851 -58.833965
4510000000 -9.11166 -62.883572
4520000000 -9.1837807 -66.417618
4530000000 -9.2763166 -70.44857
4540000000 -9.4408865 -73.448341
4550000000 -9.4645643 -76.451958
4560000000 -9.5027847 -79.673569
4570000000 -9.5810432 -83.007004
4580000000 -9.7463045 -85.995728
4590000000 -9.8371124 -88.379913
4600000000 -9.9117155 -91.057014
4610000000 -9.9519424 -93.393112
4620000000 -9.9381933 -96.167152
4630000000 -9.932744 -98.421104
4640000000 -9.9165726 -102.019
4650000000 -9.9959612 -104.54818
4660000000 -10.052051 -108.13174
4670000000 -10.23534 -111.17368
4680000000 -10.275194 -113.4186
4690000000 -10.387173 -116.74332
4700000000 -10.493712 -119.57824
4710000000 -10.55928 -123.0302
4720000000 -10.867718 -127.44639
4730000000 -11.254521 -129.94131
4740000000 -11.569868 -132.35844
4750000000 -11.872695 -134.80441
4760000000 -12.271858 -137.30571
4770000000 -12.686089 -138.96022
4780000000 -13.215841 -140.4357
4790000000 -13.595431 -140.43167
4800000000 -14.012507 -141.96324
4810000000 -14.602509 -140.69685
4820000000 -14.918373 -138.4679
4830000000 -14.97307 -136.35172
4840000000 -14.857636 -135.36244
4850000000 -14.842938 -133.95662
4860000000 -14.547338 -134.23901
4870000000 -14.569096 -133.70355
4880000000 -14.267919 -133.3401
4890000000 -14.033889 -133.4752
4900000000 -13.716382 -134.63882
4910000000 -13.548237 -135.4437
4920000000 -13.175778 -136.00945
4930000000 -12.781102 -138.397
4940000000 -12.632636 -141.07384
4950000000 -12.501072 -143.27307
4960000000 -12.27144 -144.43262
4970000000 -11.985053 -147.3436
4980000000 -11.796799 -150.00443
4990000000 -11.620338 -152.99945
5000000000 -11.423773 -155.7155
5010000000 -11.202565 -159.26523
5020000000 -11.073219 -163.65376
5030000000 -11.062389 -167.02327
5040000000 -10.971373 -171.33656
5050000000 -11.018481 -175.16202
5060000000 -11.011356 -178.91338
5070000000 -11.059304 177.00565
5080000000 -11.091678 172.94417
5090000000 -11.25082 168.94872
5100000000 -11.34261 165.37361
5110000000 -11.406612 161.47934
5120000000 -11.501092 157.04526
5130000000 -11.713417 152.28249
5140000000 -12.004572 147.62712
5150000000 -12.408567 144.06836
5160000000 -12.637123 140.88126
5170000000 -12.851296 136.02997
5180000000 -13.309782 131.658
5190000000 -13.793854 128.23651
5200000000 -14.068975 124.21681
5210000000 -14.533689 120.48883
5220000000 -14.901304 116.59088
5230000000 -15.349553 112.0054
5240000000 -15.947114 108.13257
5250000000 -16.453163 103.99928
5260000000 -17.133537 100.15496
5270000000 -17.69932 96.62706
5280000000 -18.43955 93.128113
5290000000 -18.857054 88.585762
5300000000 -19.748682 83.040321
5310000000 -20.877272 77.621498
5320000000 -22.007416 75.89904
5330000000 -22.973335 68.857254
5340000000 -24.652397 65.909531
5350000000 -26.033745 61.787136
5360000000 -27.406279 57.845753
5370000000 -29.084743 51.538845
5380000000 -30.878466 40.140888
5390000000 -35.032177 29.018606
5400000000 -37.749905 16.642445
5410000000 -41.999763 -23.164026
5420000000 -43.600475 -86.527534
5430000000 -39.82225 -120.30699
5440000000 -36.40361 -132.28981
5450000000 -34.401535 -138.89403
5460000000 -32.05254 -144.44582
5470000000 -31.255424 -157.30856
5480000000 -31.710087 -157.17914
5490000000 -29.898153 -152.10858
5500000000 -29.611712 -160.13849
5510000000 -29.835196 -158.36368
5520000000 -29.317238 -157.11705
5530000000 -28.731318 -153.76851
5540000000 -27.902658 -153.96921
5550000000 -28.138477 -153.9361
5560000000 -27.537416 -148.97466
5570000000 -26.789242 -146.48453
5580000000 -26.415499 -146.06294
5590000000 -25.520365 -141.73642
5600000000 -24.324804 -141.78036
5610000000 -23.475195 -143.85931
5620000000 -22.732456 -145.04456
5630000000 -21.927971 -147.85562
5640000000 -21.278387 -149.16142
5650000000 -20.473324 -152.13182
5660000000 -20.031992 -155.35002
5670000000 -19.465643 -157.03519
5680000000 -18.961246 -157.66039
5690000000 -18.060394 -159.18073
5700000000 -17.14736 -163.12663
5710000000 -16.624834 -167.48424
5720000000 -16.227905 -171.8481
5730000000 -15.854536 -174.48973
5740000000 -15.406174 -178.32584
5750000000 -15.152699 178.48932
5760000000 -14.91073 175.94855
5770000000 -14.501364 173.17969
5780000000 -14.118376 170.31944
5790000000 -13.815518 166.42424
5800000000 -13.471261 163.66069
5810000000 -13.150495 159.39059
5820000000 -12.801336 155.5527
5830000000 -12.672518 151.22629
5840000000 -12.503542 147.58659
5850000000 -12.386862 144.57063
5860000000 -12.112231 141.27983
5870000000 -11.947638 137.46341
5880000000 -11.891282 134.00163
5890000000 -11.788514 131.01982
5900000000 -11.697492 128.61986
5910000000 -11.490914 125.8761
5920000000 -11.293799 122.44472
5930000000 -11.196803 119.54401
5940000000 -11.0514 116.23907
5950000000 -10.909869 112.9137
5960000000 -10.886877 109.57152
5970000000 -10.719292 106.78131
5980000000 -10.620708 103.41797
5990000000 -10.510051 100.51948
6000000000 -10.372164 96.856476
6010000000 -10.32338 93.486229
6020000000 -10.276448 90.117203
6030000000 -10.242074 87.269562
6040000000 -10.235722 84.261963
6050000000 -10.138639 82.005157
6060000000 -9.9789944 78.69915
6070000000 -10.000825 75.160385
6080000000 -9.9886026 72.458923
6090000000 -10.014986 69.298477
6100000000 -10.020146 66.29158
6110000000 -10.143146 63.732441
6120000000 -10.135231 61.776318
6130000000 -10.086243 58.798641
6140000000 -10.177207 56.164471
6150000000 -10.162223 54.447197
6160000000 -10.070859 51.940758
6170000000 -10.022264 48.842651
6180000000 -10.081018 45.846317
6190000000 -10.150647 43.38065
6200000000 -10.199033 40.956924
6210000000 -10.334119 38.556438
6220000000 -10.403174 36.959682
6230000000 -10.361704 35.413319
6240000000 -10.330008 32.942329
6250000000 -10.33479 30.746702
6260000000 -10.339433 28.18022
6270000000 -10.47688 25.863768
6280000000 -10.503654 24.10742
6290000000 -10.554874 21.548775
6300000000 -10.710003 19.638739
6310000000 -10.799675 18.299162
6320000000 -10.82833 16.888891
6330000000 -10.879002 15.436394
6340000000 -10.870743 13.990805
6350000000 -10.932489 13.007332
6360000000 -10.869171 12.038428
6370000000 -10.833251 11.15769
6380000000 -10.708283 9.9351044
6390000000 -10.676318 8.9020443
6400000000 -10.521918 7.8361769
6410000000 -10.438088 6.3488441
6420000000 -10.287383 5.1389327
6430000000 -10.15134 3.6298413
6440000000 -10.034636 2.2383959
6450000000 -9.8787432 1.0820799
6460000000 -9.6087055 -0.92772359
6470000000 -9.5350828 -3.0725603
6480000000 -9.3867588 -4.6588774
6490000000 -9.2190247 -6.3148899
6500000000 -8.9785748 -8.6544666
6510000000 -8.8848534 -10.858187
6520000000 -8.679287 -12.859923
6530000000 -8.5329313 -15.46969
6540000000 -8.4597082 -17.926119
6550000000 -8.3222513 -20.088766
6560000000 -8.2266865 -22.448204
6570000000 -8.1908875 -24.685577
6580000000 -8.0650864 -26.428709
6590000000 -7.9218802 -29.152365
6600000000 -7.8630071 -31.501741
6610000000 -7.7761755 -33.86282
6620000000 -7.7277231 -36.550106
6630000000 -7.7010479 -38.756771
6640000000 -7.6138172 -40.736832
6650000000 -7.5094318 -43.386951
6660000000 -7.4956207 -46.030399
6670000000 -7.4891706 -47.966824
6680000000 -7.2952905 -50.132656
6690000000 -7.2724485 -53.28553
6700000000 -7.2877975 -55.489632
6710000000 -7.2019062 -57.862305
6720000000 -7.1624942 -60.666805
6730000000 -7.1725626 -63.060547
6740000000 -7.1775179 -65.425987
6750000000 -7.1438732 -67.790932
6760000000 -7.142889 -70.482185
6770000000 -7.2122602 -72.808212
6780000000 -7.2066803 -74.604523
6790000000 -7.1272268 -76.960922
6800000000 -7.1442833 -79.764183
6810000000 -7.1515646 -81.91185
6820000000 -7.1591473 -84.466293
6830000000 -7.1977625 -86.769569
6840000000 -7.2431908 -88.773514
6850000000 -7.2309122 -90.848869
6860000000 -7.2307281 -93.069084
6870000000 -7.2331114 -95.411453
6880000000 -7.2910113 -97.725586
6890000000 -7.2963681 -99.417755
6900000000 -7.2463593 -101.81921
6910000000 -7.2455659 -104.53743
6920000000 -7.340981 -107.31622
6930000000 -7.4247389 -109.61028
6940000000 -7.5192742 -112.02409
6950000000 -7.6229324 -113.82245
6960000000 -7.6264467 -116.06062
6970000000 -7.7039018 -118.2715
6980000000 -7.7229505 -120.33873
6990000000 -7.780232 -123.08315
7000000000 -7.9205647 -125.15136
7010000000 -7.9855294 -126.94602
7020000000 -8.0287266 -129.27156
7030000000 -8.0986929 -131.32948
7040000000 -8.1777143 -133.53629
7050000000 -8.245903 -136.02126
7060000000 -8.4232731 -138.20943
7070000000 -8.5168457 -140.05057
7080000000 -8.629117 -142.44217
7090000000 -8.775795 -144.46138
7100000000 -8.916007 -146.47568
7110000000 -9.0401688 -148.6499
7120000000 -9.2107573 -150.34608
