!Agilent Technologies,N5224A,MY51441093,A.09.90.21
!Agilent N5224A: A.09.90.21
!Date: Wednesday, October 01, 2025 16:35:27
!Correction: S11(Full 2 Port(1,2)) 
!S21(Full 2 Port(1,2)) 
!S12(Full 2 Port(1,2)) 
!S22(Full 2 Port(1,2)) 
!S2P File: Measurements: S11, S21, S12, S22:
# Hz S  dB   R 50
1000000000 -6.3977647 -62.364151 -10.101971 126.80827 -10.076305 126.78329 -2.884181 -174.60797
1010000000 -6.4997063 -66.04055 -9.8382864 123.51057 -9.8160095 123.4897 -3.0120382 -176.7054
1020000000 -6.6096687 -69.714752 -9.5794744 120.19328 -9.5553045 120.17152 -3.1437783 -178.80458
1030000000 -6.7276015 -73.383873 -9.3302917 116.87981 -9.3029842 116.84747 -3.2830188 179.09802
1040000000 -6.8583817 -77.073494 -9.0833235 113.58237 -9.0565338 113.5197 -3.4284108 177.00949
1050000000 -7.0018554 -80.750015 -8.8384676 110.27512 -8.8174524 110.18728 -3.5806098 174.93114
1060000000 -7.1564322 -84.41317 -8.5987272 106.94601 -8.5806532 106.85622 -3.7361448 172.87799
1070000000 -7.3205552 -88.079781 -8.3668737 103.60764 -8.3532915 103.51623 -3.8994951 170.84494
1080000000 -7.496139 -91.744629 -8.1406136 100.27042 -8.1289911 100.18832 -4.0652075 168.83496
1090000000 -7.6837277 -95.406731 -7.9215055 96.94368 -7.9118018 96.849037 -4.2376103 166.84383
1100000000 -7.8860402 -99.070496 -7.707386 93.603294 -7.7003064 93.514305 -4.4174662 164.8723
1110000000 -8.0983009 -102.7172 -7.4985299 90.253471 -7.4938784 90.166664 -4.6014805 162.93727
1120000000 -8.3244572 -106.36458 -7.2990646 86.898071 -7.2955513 86.817986 -4.7897625 161.03362
1130000000 -8.5627489 -110.00825 -7.1106753 83.548424 -7.1046491 83.483688 -4.9851484 159.16754
1140000000 -8.8152552 -113.66331 -6.925808 80.219032 -6.9234514 80.147263 -5.1848059 157.34421
1150000000 -9.083312 -117.30956 -6.7501564 76.896072 -6.7451148 76.839462 -5.3882356 155.56644
1160000000 -9.3667908 -120.93465 -6.5772009 73.589256 -6.5740223 73.537064 -5.5958619 153.83508
1170000000 -9.6639013 -124.55283 -6.4130368 70.28672 -6.4079518 70.235611 -5.8035846 152.15897
1180000000 -9.9743233 -128.14868 -6.2527075 66.999809 -6.2486081 66.950447 -6.0138102 150.52861
1190000000 -10.302133 -131.7421 -6.1013255 63.731514 -6.0950685 63.675449 -6.2256804 148.93335
1200000000 -10.647249 -135.31097 -5.9547081 60.473328 -5.9497471 60.412758 -6.4413996 147.38432
1210000000 -11.005233 -138.88353 -5.8152599 57.224327 -5.8090687 57.169323 -6.6560507 145.90239
1220000000 -11.380772 -142.45547 -5.6818018 53.987396 -5.6758809 53.929684 -6.8716106 144.47548
1230000000 -11.775158 -146.01878 -5.5548997 50.781143 -5.5485544 50.720905 -7.0850463 143.10222
1240000000 -12.18786 -149.57333 -5.4321589 47.590633 -5.4275465 47.532459 -7.2988591 141.77571
1250000000 -12.621465 -153.11504 -5.316287 44.426895 -5.3119254 44.373653 -7.5098882 140.4991
1260000000 -13.074313 -156.65561 -5.2061033 41.276459 -5.2006359 41.227829 -7.7190413 139.28081
1270000000 -13.546223 -160.21211 -5.1006188 38.148064 -5.0952444 38.102646 -7.9252639 138.1147
1280000000 -14.042212 -163.77077 -4.9995594 35.048752 -4.995585 34.999855 -8.1267586 137.00279
1290000000 -14.56737 -167.30521 -4.9042921 31.973318 -4.9005661 31.91633 -8.3226004 135.92659
1300000000 -15.113626 -170.86343 -4.8144121 28.91647 -4.8092508 28.854607 -8.5135288 134.87622
1310000000 -15.679646 -174.45465 -4.7276855 25.876627 -4.7244697 25.828861 -8.7012863 133.88332
1320000000 -16.272261 -178.13985 -4.6469927 22.863682 -4.64433 22.820108 -8.8806658 132.93755
1330000000 -16.909214 178.11017 -4.5713878 19.886126 -4.5673275 19.844746 -9.0529022 132.02933
1340000000 -17.589613 174.30994 -4.4987206 16.944138 -4.4950371 16.894278 -9.2155285 131.14189
1350000000 -18.308374 170.55702 -4.4285312 14.030738 -4.426012 13.970208 -9.3712263 130.27574
1360000000 -19.053919 166.76591 -4.3599892 11.121324 -4.3579941 11.072482 -9.5206976 129.41927
1370000000 -19.835815 162.75635 -4.2965918 8.2366724 -4.2957001 8.1958561 -9.6623068 128.58836
1380000000 -20.673586 158.52182 -4.2398233 5.3793111 -4.2376895 5.3365226 -9.7952156 127.77124
1390000000 -21.583788 154.04178 -4.1851292 2.5548079 -4.1817694 2.5135281 -9.9206314 126.96194
1400000000 -22.576937 149.3367 -4.1344175 -0.2416376 -4.1293492 -0.27878925 -10.038116 126.13564
1410000000 -23.642107 144.39555 -4.0817976 -3.0089898 -4.0791731 -3.0546207 -10.150341 125.3125
1420000000 -24.788055 138.89081 -4.0347915 -5.7579379 -4.0324483 -5.8036909 -10.257925 124.50645
1430000000 -26.027889 132.67966 -3.9891522 -8.487195 -3.9855986 -8.5232067 -10.355343 123.69997
1440000000 -27.411385 125.2694 -3.9470661 -11.182507 -3.9424713 -11.220944 -10.445106 122.87865
1450000000 -28.917271 116.52155 -3.9056313 -13.855137 -3.9006758 -13.894239 -10.527148 122.02274
1460000000 -30.507786 105.66319 -3.8663774 -16.512039 -3.8627026 -16.549229 -10.610482 121.1384
1470000000 -32.06675 91.698395 -3.8288693 -19.145163 -3.8251288 -19.186611 -10.683681 120.22959
1480000000 -33.291176 73.588806 -3.7939134 -21.762299 -3.7890608 -21.801121 -10.753551 119.2973
1490000000 -33.840538 52.433285 -3.760915 -24.351259 -3.7571406 -24.389492 -10.817122 118.33469
1500000000 -33.50452 31.500748 -3.7293785 -26.915827 -3.7280951 -26.956415 -10.877805 117.35494
1510000000 -32.525066 13.75782 -3.6986413 -29.460485 -3.6980591 -29.501175 -10.933886 116.34088
1520000000 -31.284071 -0.066416137 -3.672641 -31.990864 -3.6702034 -32.025024 -10.984641 115.31314
1530000000 -30.009254 -10.71177 -3.6473725 -34.504898 -3.6428521 -34.534603 -11.031734 114.25351
1540000000 -28.879467 -19.432695 -3.622062 -36.988838 -3.6184893 -37.020889 -11.069608 113.15658
1550000000 -27.869978 -26.722548 -3.5988679 -39.455044 -3.5952249 -39.488773 -11.107841 112.00939
1560000000 -26.999695 -32.803734 -3.5774145 -41.909939 -3.5732157 -41.94109 -11.14311 110.83842
1570000000 -26.237083 -38.040001 -3.5562329 -44.355591 -3.5528111 -44.384716 -11.181067 109.65047
1580000000 -25.526739 -42.854935 -3.5383301 -46.784576 -3.5338821 -46.804382 -11.212217 108.44669
1590000000 -24.882488 -47.382763 -3.5243328 -49.184322 -3.5191336 -49.211212 -11.24028 107.20695
1600000000 -24.327101 -51.920719 -3.5110881 -51.56052 -3.5069649 -51.595818 -11.265513 105.91123
1610000000 -23.846735 -56.252495 -3.5007308 -53.925869 -3.4946637 -53.957527 -11.293498 104.56471
1620000000 -23.443417 -60.499523 -3.4936709 -56.271206 -3.4871342 -56.297276 -11.323329 103.18958
1630000000 -23.091946 -64.650482 -3.4879458 -58.587425 -3.4826698 -58.613869 -11.349383 101.79594
1640000000 -22.816292 -68.902092 -3.486948 -60.873917 -3.4812808 -60.891678 -11.374519 100.3139
1650000000 -22.620975 -73.169853 -3.4886565 -63.11372 -3.4829104 -63.139484 -11.39742 98.731911
1660000000 -22.535694 -77.327126 -3.4930224 -65.311638 -3.486984 -65.337273 -11.428722 97.041672
1670000000 -22.548689 -81.196617 -3.4987423 -67.451958 -3.4914331 -67.473022 -11.473274 95.277855
1680000000 -22.654552 -84.664429 -3.503576 -69.522964 -3.4949875 -69.539719 -11.535962 93.437897
1690000000 -22.850645 -87.573502 -3.5036561 -71.514313 -3.4945974 -71.53215 -11.616076 91.591728
1700000000 -23.121191 -89.746689 -3.4926057 -73.450813 -3.4811473 -73.472923 -11.718113 89.751167
1710000000 -23.415428 -90.71376 -3.4671612 -75.366913 -3.4586029 -75.393616 -11.842862 87.985184
1720000000 -23.644939 -90.521622 -3.4290986 -77.311836 -3.4221561 -77.32859 -11.985112 86.368935
1730000000 -23.710646 -89.556709 -3.3858588 -79.309395 -3.378731 -79.314934 -12.127465 84.919807
1740000000 -23.57699 -88.807259 -3.3396554 -81.353745 -3.3302331 -81.361679 -12.26328 83.635628
1750000000 -23.334612 -88.657387 -3.2938681 -83.454971 -3.2820928 -83.460777 -12.381625 82.434418
1760000000 -23.066242 -89.164642 -3.2524626 -85.581963 -3.2388785 -85.596695 -12.490675 81.26812
1770000000 -22.796854 -90.200897 -3.2145107 -87.730629 -3.2009661 -87.752388 -12.588294 80.090172
1780000000 -22.534037 -91.570465 -3.1793926 -89.890915 -3.1687202 -89.906853 -12.678047 78.940781
1790000000 -22.277857 -93.235229 -3.1507714 -92.04493 -3.138063 -92.064651 -12.758201 77.751366
1800000000 -22.044834 -95.301575 -3.1239047 -94.194641 -3.1114354 -94.214058 -12.836576 76.526031
1810000000 -21.851545 -97.562431 -3.1000378 -96.332947 -3.0861967 -96.349083 -12.914415 75.273987
1820000000 -21.694054 -99.89447 -3.0777051 -98.462845 -3.0638776 -98.479691 -12.994301 74.027298
1830000000 -21.55645 -102.23891 -3.0569246 -100.57664 -3.0428517 -100.5973 -13.067436 72.751472
1840000000 -21.438604 -104.64204 -3.038348 -102.68961 -3.021879 -102.70775 -13.140065 71.499977
1850000000 -21.341396 -107.12763 -3.0203896 -104.78161 -3.0041478 -104.80358 -13.21076 70.18541
1860000000 -21.264666 -109.56059 -3.00246 -106.86465 -2.9881406 -106.89271 -13.28515 68.849541
1870000000 -21.202671 -112.0112 -2.9871783 -108.94356 -2.9711964 -108.96854 -13.362272 67.517708
1880000000 -21.142344 -114.42226 -2.970634 -111.01241 -2.9572334 -111.03146 -13.438528 66.227242
1890000000 -21.081551 -116.93488 -2.9580667 -113.06829 -2.9435015 -113.08487 -13.516692 64.948845
1900000000 -21.046663 -119.5996 -2.9448948 -115.1044 -2.9277375 -115.12415 -13.591825 63.652248
1910000000 -21.054504 -122.30197 -2.9297614 -117.13094 -2.9158251 -117.1559 -13.668959 62.34531
1920000000 -21.074102 -124.87706 -2.916697 -119.15011 -2.9019074 -119.1782 -13.753646 61.053616
1930000000 -21.097057 -127.3556 -2.9045362 -121.17015 -2.8896351 -121.19624 -13.845419 59.780697
1940000000 -21.106634 -129.82945 -2.8936405 -123.1776 -2.8779149 -123.20369 -13.9377 58.586063
1950000000 -21.113752 -132.51062 -2.8826213 -125.17259 -2.8662152 -125.19509 -14.027498 57.435169
1960000000 -21.138081 -135.33754 -2.8706825 -127.15258 -2.8562877 -127.17968 -14.112878 56.260345
1970000000 -21.182125 -138.13498 -2.8582036 -129.12221 -2.8450949 -129.15787 -14.200335 55.078213
1980000000 -21.240646 -140.90343 -2.8474336 -131.09381 -2.8332195 -131.11746 -14.291914 53.873566
1990000000 -21.288916 -143.70828 -2.8361795 -133.05705 -2.8213964 -133.07263 -14.389218 52.724056
2000000000 -21.346146 -146.66077 -2.8239837 -135.02345 -2.8115151 -135.01912 -14.482516 51.599293
2010000000 -21.416693 -149.70027 -2.8139894 -136.97733 -2.7992015 -136.97427 -14.574254 50.482792
2020000000 -21.515179 -152.58247 -2.8008373 -138.92001 -2.7883995 -138.92006 -14.662335 49.354832
2030000000 -21.620274 -155.38031 -2.7914586 -140.86618 -2.7787008 -140.86072 -14.7562 48.232323
2040000000 -21.692139 -158.21855 -2.7807786 -142.80217 -2.7671642 -142.79163 -14.851254 47.138405
2050000000 -21.767811 -161.11574 -2.77036 -144.72705 -2.7591567 -144.72415 -14.945263 46.042416
2060000000 -21.854136 -164.14459 -2.761018 -146.65553 -2.7483091 -146.65147 -15.029412 45.020275
2070000000 -21.945686 -167.24312 -2.7520204 -148.57906 -2.7386947 -148.56438 -15.114375 43.950493
2080000000 -22.041147 -170.29324 -2.7415526 -150.49707 -2.7289536 -150.48409 -15.201922 42.882206
2090000000 -22.128069 -173.41017 -2.7347248 -152.4093 -2.72104 -152.39735 -15.290348 41.8381
2100000000 -22.203159 -176.7326 -2.7260907 -154.31554 -2.713661 -154.31085 -15.391567 40.845459
2110000000 -22.282042 179.82774 -2.7185938 -156.21335 -2.7066994 -156.20644 -15.492285 39.92955
2120000000 -22.378847 176.2999 -2.7115304 -158.10277 -2.7006469 -158.09637 -15.584479 39.082542
2130000000 -22.474487 172.81519 -2.7060506 -159.98134 -2.694752 -159.97705 -15.675939 38.303135
2140000000 -22.544552 169.33519 -2.6977861 -161.8564 -2.6881392 -161.85054 -15.767599 37.517555
2150000000 -22.598148 165.67096 -2.6911991 -163.72221 -2.6810758 -163.71896 -15.849277 36.798527
2160000000 -22.645773 161.81119 -2.6841633 -165.5806 -2.6735919 -165.58281 -15.930902 36.099911
2170000000 -22.705597 157.96599 -2.6758718 -167.4437 -2.6669135 -167.44669 -16.011415 35.411613
2180000000 -22.755463 154.1409 -2.6694148 -169.29785 -2.6606369 -169.3013 -16.084608 34.775902
2190000000 -22.773359 150.40164 -2.6611631 -171.15303 -2.6538496 -171.14758 -16.159231 34.155357
2200000000 -22.775278 146.45329 -2.6541743 -173.00018 -2.6472299 -172.99417 -16.228598 33.530952
2210000000 -22.775097 142.43382 -2.6479008 -174.84476 -2.6417572 -174.83502 -16.294783 32.947182
2220000000 -22.779736 138.42557 -2.6400478 -176.68298 -2.6343868 -176.66776 -16.35187 32.399376
2230000000 -22.780737 134.52759 -2.6342845 -178.5182 -2.6289666 -178.49825 -16.411961 31.809305
2240000000 -22.758505 130.71411 -2.6268067 179.64621 -2.6212883 179.6665 -16.463455 31.279367
2250000000 -22.704084 126.86519 -2.6222167 177.80934 -2.6146836 177.84114 -16.516806 30.755383
2260000000 -22.633869 122.81624 -2.6166298 175.98769 -2.6086295 176.0083 -16.559156 30.236332
2270000000 -22.582714 118.72047 -2.6098027 174.16483 -2.6045911 174.18555 -16.608038 29.720261
2280000000 -22.528915 114.93298 -2.604301 172.34406 -2.5979583 172.36038 -16.651302 29.210434
2290000000 -22.437265 111.28263 -2.5995665 170.52113 -2.593076 170.54477 -16.690973 28.733568
2300000000 -22.31241 107.47718 -2.594805 168.70706 -2.5872436 168.73288 -16.726147 28.303844
2310000000 -22.162506 103.58587 -2.5922613 166.89977 -2.5844221 166.91911 -16.760424 27.874653
2320000000 -22.030949 99.642769 -2.5876336 165.09923 -2.580348 165.1181 -16.786745 27.474522
2330000000 -21.915739 95.81118 -2.5816803 163.2997 -2.5770171 163.31709 -16.80463 27.092522
2340000000 -21.800074 92.276947 -2.5783794 161.49828 -2.5715201 161.5191 -16.819351 26.716604
2350000000 -21.650623 88.819748 -2.5743957 159.70212 -2.5685928 159.72726 -16.833607 26.421682
2360000000 -21.469893 85.395096 -2.5718067 157.91417 -2.5627041 157.94133 -16.829802 26.137444
2370000000 -21.290775 81.886826 -2.5684342 156.13293 -2.5614073 156.15681 -16.819296 25.83597
2380000000 -21.123596 78.502014 -2.5658176 154.34843 -2.558064 154.37721 -16.798611 25.492222
2390000000 -20.947071 75.303909 -2.5638056 152.5697 -2.5550516 152.60263 -16.777121 25.121115
2400000000 -20.757607 72.092087 -2.5611384 150.79961 -2.5515518 150.8391 -16.756956 24.788807
2410000000 -20.565254 68.920547 -2.559226 149.02823 -2.5484841 149.06511 -16.736427 24.462086
2420000000 -20.383148 65.744987 -2.5565982 147.26459 -2.5464716 147.30257 -16.704002 24.182793
2430000000 -20.216309 62.687771 -2.5533297 145.49847 -2.5441954 145.53558 -16.67021 23.926363
2440000000 -20.041092 59.885181 -2.5510647 143.73833 -2.5418983 143.77731 -16.621681 23.551657
2450000000 -19.845192 57.146763 -2.5500021 141.97845 -2.5386074 142.02214 -16.574696 23.197407
2460000000 -19.628326 54.382149 -2.550139 140.22505 -2.5371399 140.26503 -16.52738 22.781981
2470000000 -19.422121 51.438526 -2.548198 138.47585 -2.5354934 138.50975 -16.485395 22.429695
2480000000 -19.240814 48.575459 -2.5459266 136.73262 -2.5340161 136.76196 -16.431753 22.017702
2490000000 -19.068764 45.842716 -2.5451386 134.98962 -2.5323222 135.01978 -16.366169 21.615238
2500000000 -18.894882 43.262383 -2.5441391 133.24463 -2.5314507 133.26799 -16.299507 21.1845
2510000000 -18.709354 40.760689 -2.5433903 131.50653 -2.5306463 131.53163 -16.227148 20.720242
2520000000 -18.527494 38.236607 -2.5425844 129.77145 -2.5310049 129.79836 -16.152246 20.172909
2530000000 -18.356012 35.780113 -2.5419564 128.03331 -2.5287704 128.06519 -16.07247 19.665211
2540000000 -18.182123 33.464653 -2.5408823 126.30211 -2.5310359 126.33562 -15.99425 19.095518
2550000000 -17.991991 31.199423 -2.5426311 124.56711 -2.5310762 124.60625 -15.908104 18.552406
2560000000 -17.789488 28.902174 -2.5439918 122.84625 -2.5306489 122.8856 -15.817412 17.974802
2570000000 -17.604866 26.477177 -2.5431926 121.13294 -2.5323832 121.16825 -15.725473 17.367855
2580000000 -17.436567 24.071646 -2.5434935 119.42053 -2.5311389 119.44853 -15.639349 16.748884
2590000000 -17.294764 21.812309 -2.5434039 117.70248 -2.5322876 117.73462 -15.548122 16.121483
2600000000 -17.147156 19.715673 -2.5420403 115.98455 -2.5321627 116.02051 -15.457685 15.483083
2610000000 -16.984844 17.694134 -2.5448132 114.27393 -2.532032 114.31075 -15.366205 14.848118
2620000000 -16.821022 15.580421 -2.5466557 112.56999 -2.5338328 112.60301 -15.272949 14.172022
2630000000 -16.671799 13.461097 -2.5480165 110.86628 -2.5350776 110.89877 -15.17705 13.43731
2640000000 -16.533525 11.411188 -2.5492597 109.16612 -2.5365834 109.2014 -15.089905 12.675361
2650000000 -16.39654 9.435956 -2.5503178 107.46786 -2.5372248 107.50143 -15.005412 11.888879
2660000000 -16.247326 7.461309 -2.5525913 105.773 -2.5396941 105.80526 -14.924629 11.138818
2670000000 -16.10478 5.406569 -2.5564806 104.08483 -2.5411942 104.11108 -14.839328 10.368778
2680000000 -15.978311 3.3665953 -2.5584664 102.40525 -2.5433578 102.4263 -14.746642 9.5591612
2690000000 -15.868361 1.3697137 -2.5602684 100.72248 -2.545984 100.74048 -14.652612 8.6881208
2700000000 -15.754992 -0.45854151 -2.5608878 99.036156 -2.5470302 99.061897 -14.562163 7.7579494
2710000000 -15.62894 -2.2454252 -2.5641665 97.349541 -2.5491495 97.388046 -14.477897 6.805038
2720000000 -15.499497 -4.1045899 -2.5669296 95.675041 -2.5507507 95.71064 -14.397164 5.8872442
2730000000 -15.376271 -6.0207095 -2.5706537 94.008781 -2.5529745 94.032761 -14.316947 4.9846969
2740000000 -15.266058 -7.8972979 -2.5735672 92.342216 -2.5562134 92.367706 -14.23005 4.0712671
2750000000 -15.156565 -9.7208872 -2.574949 90.6754 -2.5587916 90.703697 -14.140797 3.1440618
2760000000 -15.049623 -11.511497 -2.5795925 89.014664 -2.5611303 89.048584 -14.054572 2.1883099
2770000000 -14.93865 -13.343921 -2.5829966 87.357536 -2.5622914 87.393379 -13.976661 1.2226207
2780000000 -14.844733 -15.194002 -2.5863106 85.704056 -2.5662615 85.737671 -13.901404 0.26958564
2790000000 -14.763989 -17.014814 -2.5862463 84.050797 -2.5669129 84.082436 -13.825729 -0.64529651
2800000000 -14.68673 -18.745499 -2.5890722 82.394188 -2.5693538 82.430962 -13.750546 -1.6156574
2810000000 -14.601479 -20.4041 -2.5928807 80.741394 -2.5727732 80.779388 -13.679363 -2.6025457
2820000000 -14.509898 -22.10416 -2.595628 79.08812 -2.5743091 79.134689 -13.611306 -3.650944
2830000000 -14.420825 -23.871367 -2.6005185 77.448929 -2.5777047 77.484657 -13.549875 -4.6438861
2840000000 -14.347424 -25.65299 -2.6020167 75.816895 -2.5808544 75.843147 -13.491289 -5.6648207
2850000000 -14.279097 -27.35615 -2.6043634 74.175568 -2.5829465 74.201759 -13.429571 -6.6540937
2860000000 -14.208952 -29.024292 -2.6068389 72.543915 -2.5862377 72.566078 -13.364882 -7.6738071
2870000000 -14.139547 -30.722363 -2.6104214 70.912766 -2.589602 70.924698 -13.299352 -8.759922
2880000000 -14.069882 -32.450428 -2.6127884 69.283829 -2.5926454 69.296684 -13.236921 -9.8566589
2890000000 -14.014741 -34.156509 -2.6157482 67.656281 -2.5943396 67.658287 -13.17858 -10.979928
2900000000 -13.964753 -35.834763 -2.6178415 66.024452 -2.5974123 66.028946 -13.125145 -12.075524
2910000000 -13.910233 -37.421856 -2.6196334 64.393486 -2.6012592 64.401985 -13.074757 -13.146832
2920000000 -13.85258 -39.055893 -2.6233945 62.769249 -2.6046298 62.774834 -13.020045 -14.208016
2930000000 -13.799021 -40.727844 -2.6255264 61.143288 -2.606441 61.15517 -12.967712 -15.268394
2940000000 -13.756138 -42.380184 -2.6277077 59.526443 -2.609122 59.538528 -12.917177 -16.322966
2950000000 -13.712128 -43.991497 -2.6300836 57.904957 -2.6102638 57.917831 -12.865067 -17.395746
2960000000 -13.669352 -45.611591 -2.634058 56.284943 -2.6130459 56.299946 -12.822044 -18.45578
2970000000 -13.631262 -47.255684 -2.6372669 54.670883 -2.6154583 54.692837 -12.777261 -19.507601
2980000000 -13.601943 -48.942032 -2.6394887 53.069992 -2.6192064 53.080421 -12.741946 -20.552511
2990000000 -13.584043 -50.563194 -2.6421731 51.466938 -2.6203876 51.464596 -12.706015 -21.610325
3000000000 -13.565144 -52.119667 -2.6426315 49.855747 -2.6241462 49.855446 -12.671371 -22.680347
3010000000 -13.540254 -53.650028 -2.6447744 48.242893 -2.6273801 48.254395 -12.643886 -23.766325
3020000000 -13.507264 -55.213112 -2.6486554 46.628567 -2.6305687 46.651482 -12.618843 -24.849279
3030000000 -13.477662 -56.853924 -2.6516657 45.036133 -2.631279 45.049122 -12.596853 -25.932402
3040000000 -13.471227 -58.525959 -2.655479 43.446819 -2.6324759 43.446388 -12.574406 -27.006855
