!Agilent Technologies,N5224A,MY51441093,A.09.90.21
!Agilent N5224A: A.09.90.21
!Date: Wednesday, October 01, 2025 16:36:35
!Correction: S11(Full 2 Port(1,2)) 
!S21(Full 2 Port(1,2)) 
!S12(Full 2 Port(1,2)) 
!S22(Full 2 Port(1,2)) 
!S2P File: Measurements: S11, S21, S12, S22:
# Hz S  dB   R 50
1000000000 -7.2543502 84.359894 -8.5881033 20.750696 -8.5629702 20.726347 -2.7998533 -173.38992
1010000000 -7.423286 80.635231 -8.3918266 18.067223 -8.3694534 18.047995 -2.8977125 -175.37015
1020000000 -7.5895581 76.88224 -8.2038364 15.37952 -8.1784964 15.357563 -2.9951568 -177.36208
1030000000 -7.752728 73.104553 -8.0238142 12.698121 -7.9965982 12.668864 -3.1004231 -179.36
1040000000 -7.9201069 69.321312 -7.8489943 10.044405 -7.8193789 9.9768896 -3.2050524 178.63948
1050000000 -8.0862284 65.540253 -7.6741705 7.4026394 -7.6520758 7.3027163 -3.315495 176.64149
1060000000 -8.2537279 61.7519 -7.503159 4.7414937 -7.4867787 4.6407261 -3.425554 174.6564
1070000000 -8.4168568 57.964523 -7.3400989 2.0801799 -7.3265915 1.9891535 -3.5392654 172.6714
1080000000 -8.5780249 54.168644 -7.1795993 -0.567137 -7.1680393 -0.65490687 -3.6543162 170.70108
1090000000 -8.7395678 50.365475 -7.0258002 -3.2028244 -7.0145116 -3.2977643 -3.7707922 168.72845
1100000000 -8.902874 46.567112 -6.8749404 -5.8336558 -6.8666892 -5.9420862 -3.8908243 166.74791
1110000000 -9.0646582 42.784748 -6.72644 -8.4805145 -6.7229757 -8.5826216 -4.0118308 164.76778
1120000000 -9.2210026 39.000927 -6.5853653 -11.129695 -6.5841384 -11.210333 -4.137136 162.7951
1130000000 -9.3760204 35.206917 -6.4525943 -13.769088 -6.4475284 -13.834292 -4.2656865 160.83049
1140000000 -9.5316353 31.412413 -6.3233533 -16.375641 -6.319459 -16.443989 -4.3969622 158.88242
1150000000 -9.6858187 27.625402 -6.1977768 -18.97612 -6.1930466 -19.037741 -4.5300946 156.94577
1160000000 -9.8404932 23.848764 -6.0752268 -21.567228 -6.0725803 -21.633125 -4.6619806 155.0083
1170000000 -9.993659 20.089687 -5.9564958 -24.140089 -5.95258 -24.198278 -4.7974172 153.07838
1180000000 -10.145125 16.344831 -5.8403621 -26.706789 -5.8368025 -26.757128 -4.9343657 151.16162
1190000000 -10.294179 12.606315 -5.7283826 -29.260345 -5.7217078 -29.315657 -5.0722084 149.25117
1200000000 -10.440901 8.8849897 -5.6178904 -31.80858 -5.6132951 -31.871855 -5.2117515 147.34903
1210000000 -10.58744 5.1940756 -5.5137067 -34.345314 -5.508966 -34.415997 -5.3527937 145.44121
1220000000 -10.726896 1.52066 -5.4105086 -36.890362 -5.4075356 -36.957451 -5.4954486 143.5369
1230000000 -10.865857 -2.14941 -5.3131456 -39.40572 -5.309237 -39.464054 -5.6411462 141.64552
1240000000 -11.004095 -5.817925 -5.2175937 -41.912842 -5.2131839 -41.973553 -5.7883229 139.76721
1250000000 -11.141901 -9.4598665 -5.1261792 -44.409607 -5.121707 -44.463966 -5.9369144 137.91034
1260000000 -11.277893 -13.064703 -5.0353065 -46.898544 -5.0310931 -46.951088 -6.0843463 136.05232
1270000000 -11.409705 -16.656401 -4.9498181 -49.375774 -4.9460917 -49.427975 -6.2352934 134.19916
1280000000 -11.543742 -20.230137 -4.8658042 -51.837078 -4.8606315 -51.889454 -6.3869686 132.34265
1290000000 -11.677646 -23.763002 -4.7843266 -54.286148 -4.7792683 -54.347301 -6.5409446 130.50836
1300000000 -11.808558 -27.250496 -4.7044101 -56.736729 -4.7005448 -56.798641 -6.6965489 128.67564
1310000000 -11.935616 -30.718134 -4.6283793 -59.181206 -4.627017 -59.233143 -6.8535495 126.86235
1320000000 -12.056709 -34.18137 -4.5559006 -61.612038 -4.5555263 -61.656773 -7.0105634 125.05193
1330000000 -12.178255 -37.667206 -4.4883132 -64.018745 -4.4853354 -64.056442 -7.1692123 123.25179
1340000000 -12.30652 -41.146061 -4.4208536 -66.399284 -4.4181948 -66.447212 -7.3297563 121.46603
1350000000 -12.440921 -44.552406 -4.3531485 -68.772247 -4.3519678 -68.832741 -7.4897084 119.69755
1360000000 -12.571182 -47.89064 -4.2889404 -71.153145 -4.2857504 -71.208527 -7.6517944 117.94805
1370000000 -12.69639 -51.201283 -4.2259307 -73.5317 -4.2238464 -73.575493 -7.8100352 116.20425
1380000000 -12.811424 -54.528603 -4.1670289 -75.895416 -4.1643968 -75.932808 -7.9744039 114.46875
1390000000 -12.929658 -57.873806 -4.1110654 -78.24028 -4.106997 -78.27594 -8.137289 112.7396
1400000000 -13.058116 -61.20232 -4.0562148 -80.569389 -4.0518613 -80.613174 -8.3033266 111.04193
1410000000 -13.183012 -64.480621 -4.0024638 -82.897003 -3.9988899 -82.942146 -8.4686546 109.36627
1420000000 -13.304646 -67.711823 -3.951751 -85.208931 -3.9484231 -85.257179 -8.634469 107.69265
1430000000 -13.420712 -70.957008 -3.901942 -87.517395 -3.8980398 -87.553665 -8.7998047 106.02902
1440000000 -13.541249 -74.193771 -3.8551066 -89.802635 -3.850076 -89.840256 -8.9693747 104.36565
1450000000 -13.665132 -77.411255 -3.808774 -92.081459 -3.8038299 -92.119598 -9.1385469 102.71899
1460000000 -13.786738 -80.582535 -3.7631948 -94.352875 -3.7600474 -94.392784 -9.3113222 101.09077
1470000000 -13.906672 -83.703079 -3.7195282 -96.620155 -3.7171819 -96.6595 -9.4823999 99.466949
1480000000 -14.020502 -86.830269 -3.6792548 -98.875656 -3.6761642 -98.917747 -9.6523657 97.858681
1490000000 -14.135313 -89.972527 -3.639766 -101.12077 -3.636272 -101.15992 -9.8245039 96.268646
1500000000 -14.250364 -93.092926 -3.6010859 -103.357 -3.6001 -103.39492 -9.9953804 94.671669
1510000000 -14.368712 -96.221497 -3.5633318 -105.58415 -3.5639813 -105.62441 -10.166368 93.096245
1520000000 -14.481584 -99.334686 -3.5303223 -107.80585 -3.5275435 -107.83619 -10.333975 91.532845
1530000000 -14.593661 -102.4666 -3.498261 -110.01327 -3.4952698 -110.04581 -10.506145 89.960037
1540000000 -14.714117 -105.5908 -3.4671803 -112.20837 -3.4627259 -112.24555 -10.678267 88.402435
1550000000 -14.835361 -108.68909 -3.4372115 -114.40715 -3.4341249 -114.43923 -10.855618 86.881294
1560000000 -14.953427 -111.74248 -3.4076827 -116.59393 -3.4056306 -116.62514 -11.029843 85.380272
1570000000 -15.05547 -114.79504 -3.3800437 -118.78322 -3.3778994 -118.81136 -11.204246 83.892181
1580000000 -15.150404 -117.90762 -3.3573892 -120.96338 -3.3550942 -120.98314 -11.37927 82.408806
1590000000 -15.244586 -121.09962 -3.3363392 -123.11965 -3.3338277 -123.14438 -11.56183 80.929306
1600000000 -15.340543 -124.33109 -3.3178251 -125.26122 -3.3136954 -125.29305 -11.749424 79.470535
1610000000 -15.434115 -127.56638 -3.3008099 -127.40539 -3.2970972 -127.43267 -11.941066 78.058571
1620000000 -15.51669 -130.85017 -3.2867148 -129.53191 -3.282562 -129.56136 -12.136637 76.673058
1630000000 -15.596462 -134.23984 -3.275687 -131.64474 -3.271728 -131.67218 -12.333926 75.304909
1640000000 -15.671351 -137.71864 -3.2683067 -133.7276 -3.2632458 -133.75629 -12.545238 73.934853
1650000000 -15.754375 -141.31703 -3.2655735 -135.79417 -3.2582986 -135.8159 -12.771028 72.641617
1660000000 -15.8342 -144.97827 -3.2626536 -137.81946 -3.2572191 -137.83609 -13.008089 71.480995
1670000000 -15.910353 -148.8414 -3.2647145 -139.79124 -3.2574003 -139.81294 -13.256085 70.4851
1680000000 -16.00206 -152.92871 -3.2645876 -141.71188 -3.2561049 -141.73213 -13.494561 69.706062
1690000000 -16.130022 -157.22241 -3.2605741 -143.56377 -3.2524385 -143.58784 -13.722521 69.124664
1700000000 -16.313332 -161.61177 -3.2472692 -145.36766 -3.2382905 -145.39523 -13.926168 68.770889
1710000000 -16.54722 -165.81586 -3.2224774 -147.16331 -3.2133794 -147.18671 -14.094474 68.553192
1720000000 -16.807611 -169.78059 -3.186662 -148.97925 -3.1807616 -148.99719 -14.210614 68.421944
1730000000 -17.068241 -173.47731 -3.1469021 -150.84805 -3.1375244 -150.85739 -14.283528 68.155937
1740000000 -17.316359 -177.00182 -3.1029408 -152.76305 -3.0923738 -152.77435 -14.3284 67.730888
1750000000 -17.560291 179.6227 -3.0614183 -154.72571 -3.0505035 -154.73958 -14.365043 67.077881
1760000000 -17.790705 176.40002 -3.0220375 -156.72649 -3.0120106 -156.73557 -14.4032 66.288834
1770000000 -17.987669 173.31505 -2.9873333 -158.73669 -2.9776976 -158.75581 -14.450959 65.413406
1780000000 -18.147554 170.28534 -2.9558284 -160.76369 -2.9459414 -160.78162 -14.502216 64.46447
1790000000 -18.280807 167.22668 -2.9309459 -162.79099 -2.9202673 -162.80775 -14.564397 63.512611
1800000000 -18.398399 164.02959 -2.9084048 -164.80647 -2.8944242 -164.82796 -14.628041 62.546207
1810000000 -18.507557 160.8176 -2.8866906 -166.82367 -2.8732533 -166.84204 -14.692447 61.610794
1820000000 -18.60673 157.61169 -2.8662431 -168.83224 -2.8529232 -168.85326 -14.757277 60.657215
1830000000 -18.696728 154.42773 -2.8502209 -170.84 -2.8345611 -170.8522 -14.820575 59.691853
1840000000 -18.764288 151.15892 -2.8342495 -172.83376 -2.8188658 -172.85075 -14.883293 58.734219
1850000000 -18.833572 147.90421 -2.8188765 -174.81853 -2.8034413 -174.83594 -14.951509 57.787712
1860000000 -18.89183 144.63177 -2.8067231 -176.79881 -2.7898622 -176.82129 -15.016237 56.907917
1870000000 -18.942184 141.35696 -2.7951896 -178.7708 -2.7786026 -178.79298 -15.075197 56.063431
1880000000 -18.965935 138.06157 -2.7836263 179.26439 -2.769423 179.244 -15.119724 55.207329
1890000000 -18.982237 134.65152 -2.7747936 177.3112 -2.7589226 177.29054 -15.168209 54.355743
1900000000 -19.006645 131.16031 -2.765485 175.36934 -2.7500982 175.34833 -15.211683 53.506241
1910000000 -19.036032 127.73944 -2.7557864 173.43642 -2.7405958 173.40985 -15.260526 52.685848
1920000000 -19.055542 124.42575 -2.7472677 171.50441 -2.7331011 171.48003 -15.298915 51.949154
1930000000 -19.047197 121.2316 -2.7412555 169.58099 -2.7259102 169.55373 -15.323961 51.200207
1940000000 -19.011341 117.95441 -2.7338688 167.66273 -2.7208269 167.63507 -15.344915 50.432346
1950000000 -18.968075 114.57767 -2.7298102 165.75485 -2.7144492 165.72987 -15.360683 49.616837
1960000000 -18.929272 111.19424 -2.7242877 163.86244 -2.7089992 163.83272 -15.38358 48.798
1970000000 -18.88851 107.88537 -2.7173798 161.97467 -2.7041881 161.94467 -15.402438 48.007591
1980000000 -18.83703 104.63055 -2.7113752 160.08713 -2.6976793 160.0667 -15.416943 47.239452
1990000000 -18.773268 101.38108 -2.7055478 158.21077 -2.6920266 158.19078 -15.419526 46.437557
2000000000 -18.702307 98.09288 -2.7004116 156.3221 -2.6887548 156.32744 -15.417939 45.574009
2010000000 -18.64669 94.889389 -2.6950023 154.44987 -2.6812077 154.45119 -15.41108 44.701183
2020000000 -18.59778 91.77253 -2.6895852 152.58197 -2.6768851 152.58641 -15.405138 43.771748
2030000000 -18.530119 88.791565 -2.6847725 150.71118 -2.6724768 150.72307 -15.397593 42.853008
2040000000 -18.446383 85.827126 -2.680891 148.85184 -2.6680231 148.86267 -15.382311 41.946556
2050000000 -18.348345 82.830048 -2.677521 146.99496 -2.6653156 147.0002 -15.367558 40.978699
2060000000 -18.253876 79.836678 -2.6742284 145.14325 -2.6617472 145.15375 -15.347877 39.959846
2070000000 -18.170412 76.842262 -2.6704261 143.28741 -2.6585333 143.30769 -15.336855 38.981495
2080000000 -18.073366 73.946083 -2.6672316 141.43581 -2.6560822 141.45454 -15.321826 38.028316
2090000000 -17.969458 71.097778 -2.6658182 139.59331 -2.6542211 139.60962 -15.296458 37.099804
2100000000 -17.862427 68.163239 -2.6653767 137.75281 -2.6545906 137.7664 -15.267501 36.210003
2110000000 -17.764198 65.297974 -2.6672099 135.92741 -2.6560154 135.94214 -15.23263 35.293587
2120000000 -17.676144 62.553318 -2.6666949 134.10904 -2.6549661 134.11499 -15.188239 34.323624
2130000000 -17.576927 59.928871 -2.6653414 132.29428 -2.6569211 132.29774 -15.145607 33.326534
2140000000 -17.467699 57.389004 -2.6652963 130.48055 -2.656754 130.48634 -15.097312 32.36496
2150000000 -17.349442 54.832264 -2.6666987 128.67934 -2.6572349 128.68573 -15.052156 31.307333
2160000000 -17.234377 52.221653 -2.6667938 126.88477 -2.6570697 126.88342 -15.002963 30.250137
2170000000 -17.130896 49.723579 -2.6664455 125.08992 -2.6580818 125.09392 -14.957718 29.165068
2180000000 -17.023149 47.28841 -2.6674457 123.30324 -2.6596668 123.30404 -14.914763 28.043356
2190000000 -16.910208 44.887356 -2.6661203 121.51568 -2.6596735 121.52583 -14.873652 26.934816
2200000000 -16.797543 42.438126 -2.6677074 119.73465 -2.6615787 119.74852 -14.835592 25.802174
2210000000 -16.70064 40.012253 -2.6678598 117.95998 -2.6612537 117.97338 -14.792521 24.676323
2220000000 -16.610931 37.667377 -2.666697 116.1876 -2.6613111 116.20461 -14.754529 23.515297
2230000000 -16.517422 35.438461 -2.6682174 114.41029 -2.6625848 114.43436 -14.71452 22.370659
2240000000 -16.415556 33.231457 -2.6682954 112.63748 -2.6613352 112.66779 -14.667293 21.196222
2250000000 -16.309954 30.953629 -2.6702025 110.86699 -2.6624694 110.89896 -14.624915 20.011562
2260000000 -16.21273 28.691822 -2.6703472 109.11262 -2.6643143 109.13655 -14.585034 18.786627
2270000000 -16.128962 26.458382 -2.6707366 107.35454 -2.6651931 107.37788 -14.544623 17.582155
2280000000 -16.042282 24.373333 -2.6715982 105.59332 -2.6664495 105.61609 -14.507724 16.35401
2290000000 -15.94306 22.304497 -2.6733451 103.83421 -2.6672306 103.85873 -14.46893 15.109199
2300000000 -15.842637 20.150896 -2.6751471 102.08015 -2.6680796 102.10904 -14.429119 13.856405
2310000000 -15.750257 17.957785 -2.6771574 100.33771 -2.6695724 100.36362 -14.394444 12.626028
2320000000 -15.676946 15.842621 -2.6788368 98.601814 -2.6704903 98.623764 -14.36217 11.385886
2330000000 -15.614088 13.827172 -2.677882 96.859894 -2.6714685 96.882462 -14.324155 10.1475
2340000000 -15.540539 11.937367 -2.6788902 95.116859 -2.6724749 95.145935 -14.287018 8.9168615
2350000000 -15.460573 10.00601 -2.6815605 93.377052 -2.6750426 93.405014 -14.240976 7.6844478
2360000000 -15.37476 8.0509434 -2.6837089 91.645889 -2.6754317 91.674263 -14.199932 6.4246349
2370000000 -15.305188 6.046289 -2.6863039 89.921677 -2.6790984 89.954353 -14.1626 5.1236739
2380000000 -15.242801 4.122982 -2.6881008 88.196121 -2.6818063 88.230598 -14.133215 3.816705
2390000000 -15.176129 2.2265928 -2.6905806 86.476387 -2.683176 86.514214 -14.103586 2.5293937
2400000000 -15.114779 0.33732194 -2.6938608 84.762909 -2.683008 84.808075 -14.075878 1.2812438
2410000000 -15.060553 -1.5482019 -2.6949947 83.05558 -2.6839018 83.095215 -14.043841 0.035735164
2420000000 -15.016321 -3.3648391 -2.6955974 81.35128 -2.6864007 81.38517 -14.012771 -1.2753348
2430000000 -14.967839 -5.1082144 -2.6956418 79.63958 -2.6876042 79.679787 -13.985465 -2.5480952
2440000000 -14.905203 -6.7652907 -2.6975195 77.930283 -2.6873717 77.974411 -13.964293 -3.8739488
2450000000 -14.83732 -8.5387621 -2.7006094 76.220039 -2.6877904 76.271057 -13.946571 -5.19238
2460000000 -14.773948 -10.37091 -2.7030687 74.517357 -2.6893375 74.563362 -13.928403 -6.4887691
2470000000 -14.728673 -12.229275 -2.7023063 72.822495 -2.6906974 72.857727 -13.907418 -7.7806606
2480000000 -14.697062 -13.98208 -2.704042 71.126541 -2.6926107 71.152344 -13.88763 -9.1194172
2490000000 -14.660875 -15.631823 -2.7052996 69.423195 -2.6916552 69.459496 -13.867145 -10.502958
2500000000 -14.61721 -17.294079 -2.7068326 67.729553 -2.6939757 67.760071 -13.84831 -11.881135
2510000000 -14.574488 -18.953684 -2.7083921 66.032921 -2.6954594 66.06395 -13.833345 -13.29142
2520000000 -14.539089 -20.594604 -2.7100813 64.34346 -2.6984172 64.375473 -13.825097 -14.675886
2530000000 -14.500079 -22.188139 -2.7130673 62.650661 -2.6989663 62.685013 -13.812583 -16.04261
2540000000 -14.45954 -23.771936 -2.7130558 60.962349 -2.7010756 61.000366 -13.803625 -17.423601
2550000000 -14.414241 -25.411781 -2.7157362 59.27816 -2.7040505 59.317135 -13.796602 -18.78273
2560000000 -14.379376 -27.135044 -2.7177346 57.598965 -2.7046039 57.639202 -13.792056 -20.134615
2570000000 -14.366161 -28.833008 -2.7186837 55.925613 -2.7051334 55.961304 -13.789866 -21.479887
2580000000 -14.364357 -30.406479 -2.717284 54.25 -2.706907 54.280407 -13.793736 -22.804369
2590000000 -14.356715 -31.881128 -2.7179446 52.561966 -2.7072287 52.599697 -13.794281 -24.117691
2600000000 -14.334991 -33.354668 -2.7176468 50.878963 -2.7083342 50.921631 -13.800433 -25.44195
2610000000 -14.312212 -34.898335 -2.7211618 49.202648 -2.7071879 49.243931 -13.806447 -26.777031
2620000000 -14.302811 -36.490219 -2.7231405 47.530468 -2.709996 47.563915 -13.820549 -28.161612
2630000000 -14.302825 -38.027481 -2.7225916 45.856079 -2.7110748 45.887333 -13.840576 -29.531567
2640000000 -14.303031 -39.517208 -2.7250383 44.183056 -2.7111702 44.225616 -13.865134 -30.891979
2650000000 -14.295834 -40.998207 -2.7253213 42.512966 -2.7133045 42.553947 -13.894462 -32.218895
2660000000 -14.297429 -42.55645 -2.7277517 40.847393 -2.7142301 40.887489 -13.916098 -33.57177
2670000000 -14.312503 -44.095341 -2.7312994 39.188675 -2.7149909 39.216717 -13.940756 -34.910686
2680000000 -14.335302 -45.546539 -2.7303066 37.532696 -2.7161617 37.554375 -13.967729 -36.31385
2690000000 -14.35983 -46.905144 -2.7291415 35.866096 -2.715677 35.892181 -13.999034 -37.73452
2700000000 -14.363604 -48.251587 -2.7302268 34.193691 -2.7166755 34.226521 -14.039862 -39.119091
2710000000 -14.366779 -49.667053 -2.7318897 32.524265 -2.7164478 32.564453 -14.082642 -40.475754
2720000000 -14.383688 -51.156578 -2.7328007 30.869358 -2.7165112 30.903666 -14.124657 -41.777794
2730000000 -14.411754 -52.617001 -2.7341805 29.213661 -2.7178855 29.243626 -14.16555 -43.056057
2740000000 -14.448168 -54.014088 -2.7353346 27.556026 -2.7185557 27.591368 -14.20567 -44.371189
2750000000 -14.476338 -55.404854 -2.7358994 25.903814 -2.7188098 25.94186 -14.254117 -45.691769
2760000000 -14.511492 -56.800674 -2.7374535 24.252033 -2.7181008 24.297539 -14.309342 -46.982922
2770000000 -14.559023 -58.225063 -2.7370546 22.60355 -2.7179465 22.641737 -14.373499 -48.220119
2780000000 -14.615021 -59.570126 -2.7354889 20.95215 -2.7161646 20.986277 -14.432789 -49.462833
2790000000 -14.671821 -60.815956 -2.7339838 19.299553 -2.7157161 19.331419 -14.496885 -50.689442
2800000000 -14.718743 -62.046635 -2.7342827 17.634151 -2.715342 17.677118 -14.567883 -51.9445
2810000000 -14.759162 -63.367813 -2.7354143 15.98023 -2.713614 16.023268 -14.646959 -53.222939
2820000000 -14.810957 -64.734604 -2.7364943 14.327559 -2.7147453 14.375433 -14.733222 -54.483086
2830000000 -14.875987 -66.073601 -2.7369707 12.681251 -2.7148225 12.71815 -14.822092 -55.689533
2840000000 -14.947524 -67.331329 -2.7340467 11.033165 -2.7139914 11.06586 -14.906636 -56.903015
2850000000 -15.015354 -68.561996 -2.7342768 9.3854666 -2.7128072 9.4161263 -14.989425 -58.129021
2860000000 -15.081134 -69.812706 -2.7339842 7.7374759 -2.7116978 7.7673569 -15.074953 -59.404587
2870000000 -15.154092 -71.083969 -2.7335966 6.0901284 -2.7113366 6.1070423 -15.171786 -60.683289
2880000000 -15.24041 -72.295685 -2.7322326 4.4393268 -2.7110798 4.4537234 -15.27375 -61.922604
2890000000 -15.329751 -73.438164 -2.7306986 2.7942741 -2.7099178 2.7930558 -15.380903 -63.119118
2900000000 -15.413962 -74.568184 -2.7288921 1.1290119 -2.7091219 1.1390898 -15.493583 -64.232559
2910000000 -15.496453 -75.721725 -2.7291467 -0.52263659 -2.7093081 -0.51449156 -15.602393 -65.329857
2920000000 -15.587811 -76.905182 -2.729059 -2.1755753 -2.7082031 -2.166321 -15.717234 -66.402939
2930000000 -15.695593 -78.040489 -2.7275832 -3.8320496 -2.7069902 -3.81512 -15.836101 -67.442802
2940000000 -15.806973 -79.134377 -2.7259641 -5.4879861 -2.7074504 -5.4674444 -15.966289 -68.461823
2950000000 -15.91405 -80.208031 -2.7247005 -7.1380453 -2.7060692 -7.1194568 -16.100002 -69.516212
2960000000 -16.029795 -81.28949 -2.7260811 -8.7905893 -2.7032921 -8.776473 -16.246862 -70.499054
2970000000 -16.159424 -82.360199 -2.7246506 -10.444798 -2.702925 -10.429174 -16.395943 -71.423019
2980000000 -16.303822 -83.30407 -2.7216456 -12.089807 -2.7017369 -12.08276 -16.55365 -72.339569
2990000000 -16.438673 -84.177658 -2.7218454 -13.744287 -2.7011464 -13.738725 -16.719465 -73.243629
3000000000 -16.55909 -85.006874 -2.7196391 -15.407257 -2.7014248 -15.393819 -16.892733 -74.173431
3010000000 -16.678516 -85.956161 -2.7186887 -17.066444 -2.7013228 -17.045498 -17.078062 -75.056786
3020000000 -16.822821 -86.976944 -2.7189391 -18.719097 -2.7001731 -18.699905 -17.267673 -75.886139
3030000000 -16.991247 -87.902054 -2.71928 -20.366144 -2.6987386 -20.357416 -17.459253 -76.667557
3040000000 -17.165661 -88.565155 -2.7191291 -22.018333 -2.695497 -22.018059 -17.65148 -77.413589
