!Agilent Technologies,N5224A,MY51441093,A.09.90.21
!Agilent N5224A: A.09.90.21
!Date: Wednesday, October 01, 2025 16:37:01
!Correction: S11(Full 2 Port(1,2)) 
!S21(Full 2 Port(1,2)) 
!S12(Full 2 Port(1,2)) 
!S22(Full 2 Port(1,2)) 
!S2P File: Measurements: S11, S21, S12, S22:
# Hz S  dB   R 50
1000000000 -14.454835 -21.471243 -3.3759329 -34.370163 -3.354171 -34.386005 -18.827782 144.00314
1010000000 -14.363227 -22.525282 -3.353512 -36.919247 -3.3298388 -36.941158 -18.825846 138.07253
1020000000 -14.255365 -23.640869 -3.331641 -39.441936 -3.3079333 -39.476883 -18.795774 132.27444
1030000000 -14.143676 -24.890207 -3.3126721 -41.929401 -3.2868638 -41.983929 -18.73284 126.60566
1040000000 -14.047349 -26.211346 -3.2911584 -44.397808 -3.2691319 -44.473957 -18.650311 121.06021
1050000000 -13.952782 -27.528158 -3.2702472 -46.843311 -3.2512708 -46.926598 -18.545435 115.70356
1060000000 -13.856962 -28.848394 -3.2510726 -49.270409 -3.2348924 -49.359776 -18.426756 110.53515
1070000000 -13.753823 -30.213663 -3.2327111 -51.670311 -3.2196083 -51.772167 -18.299902 105.59373
1080000000 -13.658158 -31.633263 -3.2166338 -54.05415 -3.2053916 -54.156849 -18.155283 100.83556
1090000000 -13.566911 -33.09502 -3.1994221 -56.408154 -3.1916926 -56.520279 -18.000324 96.244377
1100000000 -13.480626 -34.550762 -3.1837165 -58.752174 -3.1798763 -58.855495 -17.840204 91.779633
1110000000 -13.388077 -35.999088 -3.168015 -61.079029 -3.1686745 -61.176174 -17.685266 87.483688
1120000000 -13.293611 -37.50111 -3.1568074 -63.386745 -3.1566439 -63.469002 -17.530813 83.367622
1130000000 -13.198466 -39.085388 -3.1467516 -65.666862 -3.1444519 -65.745117 -17.369831 79.430054
1140000000 -13.114359 -40.727264 -3.1357248 -67.930168 -3.1338005 -68.005386 -17.210321 75.627869
1150000000 -13.035574 -42.373699 -3.1242087 -70.175461 -3.1215088 -70.239967 -17.047491 71.961418
1160000000 -12.961179 -43.989956 -3.1137674 -72.39682 -3.1136024 -72.461929 -16.883326 68.334465
1170000000 -12.889978 -45.65659 -3.1046097 -74.604027 -3.1009378 -74.663391 -16.734579 64.84758
1180000000 -12.818676 -47.307442 -3.0956154 -76.79142 -3.0921521 -76.851158 -16.587143 61.495903
1190000000 -12.751194 -48.977936 -3.0865886 -78.963226 -3.0807545 -79.028702 -16.444727 58.30072
1200000000 -12.683728 -50.64883 -3.0754459 -81.119179 -3.0729051 -81.185776 -16.293215 55.21965
1210000000 -12.617111 -52.354736 -3.0681577 -83.257446 -3.0645015 -83.326454 -16.148226 52.163357
1220000000 -12.551119 -54.061325 -3.0588517 -85.390648 -3.0541556 -85.458466 -16.013969 49.177853
1230000000 -12.490129 -55.815853 -3.0499918 -87.503944 -3.0475473 -87.569435 -15.887466 46.278816
1240000000 -12.436498 -57.582001 -3.0416293 -89.60746 -3.0378556 -89.669205 -15.762622 43.488407
1250000000 -12.383788 -59.345634 -3.0322638 -91.697441 -3.0287743 -91.758728 -15.642974 40.807541
1260000000 -12.334449 -61.103794 -3.0242369 -93.779884 -3.0207405 -93.832878 -15.522715 38.157948
1270000000 -12.286286 -62.893818 -3.0158718 -95.838837 -3.0129454 -95.900215 -15.406618 35.577251
1280000000 -12.245504 -64.684807 -3.0071812 -97.895859 -3.0049689 -97.953995 -15.300747 32.987885
1290000000 -12.203312 -66.44278 -2.9995544 -99.942413 -2.9968269 -99.996567 -15.202258 30.523928
1300000000 -12.162199 -68.213486 -2.9928977 -101.98511 -2.9889333 -102.03564 -15.105546 28.126366
1310000000 -12.120399 -70.015381 -2.9856141 -104.00134 -2.9813466 -104.05664 -15.011237 25.798574
1320000000 -12.078053 -71.898407 -2.9770772 -106.01161 -2.9743359 -106.06452 -14.918373 23.488667
1330000000 -12.04842 -73.815361 -2.9681475 -108.0052 -2.9671617 -108.06042 -14.83406 21.198076
1340000000 -12.032347 -75.694305 -2.9590595 -109.99804 -2.9591517 -110.05259 -14.75595 18.976147
1350000000 -12.016018 -77.503326 -2.9513924 -111.98814 -2.9501712 -112.03669 -14.681646 16.807396
1360000000 -11.988382 -79.297951 -2.9445615 -113.96992 -2.9416351 -114.01568 -14.61644 14.695526
1370000000 -11.960073 -81.151802 -2.9374099 -115.93822 -2.936142 -115.98514 -14.546622 12.622688
1380000000 -11.934567 -83.073029 -2.9313641 -117.89234 -2.9296684 -117.94273 -14.488247 10.560194
1390000000 -11.920796 -85.02742 -2.9243226 -119.8447 -2.9219503 -119.89465 -14.43113 8.5125799
1400000000 -11.914396 -86.924507 -2.9169757 -121.79404 -2.9152229 -121.84055 -14.38143 6.5367064
1410000000 -11.902402 -88.811356 -2.9102559 -123.73706 -2.9071507 -123.77798 -14.334717 4.6003742
1420000000 -11.888223 -90.711845 -2.9041631 -125.66631 -2.9002047 -125.7084 -14.286237 2.6825516
1430000000 -11.878114 -92.665817 -2.8982747 -127.58733 -2.8940744 -127.62811 -14.243114 0.74229014
1440000000 -11.874363 -94.610527 -2.8924778 -129.49763 -2.8866601 -129.54315 -14.203488 -1.1731246
1450000000 -11.873426 -96.534966 -2.8851717 -131.4097 -2.8809016 -131.45306 -14.16783 -3.0609813
1460000000 -11.870473 -98.448273 -2.8787308 -133.31778 -2.8739707 -133.35747 -14.135078 -4.9158592
1470000000 -11.863469 -100.3702 -2.8728271 -135.21692 -2.8695037 -135.26248 -14.104451 -6.7221565
1480000000 -11.857909 -102.3623 -2.8665414 -137.11057 -2.8643289 -137.1515 -14.076494 -8.5161648
1490000000 -11.860855 -104.35716 -2.8604081 -138.99806 -2.8569663 -139.03563 -14.051519 -10.26555
1500000000 -11.865101 -106.35658 -2.8541398 -140.87982 -2.8511846 -140.91711 -14.029223 -12.017988
1510000000 -11.871678 -108.36832 -2.8470061 -142.76096 -2.8451164 -142.80064 -14.00787 -13.708565
1520000000 -11.880773 -110.40939 -2.8419936 -144.63594 -2.8392894 -144.6785 -13.987883 -15.382515
1530000000 -11.895327 -112.45923 -2.8378625 -146.50739 -2.8334951 -146.54979 -13.971018 -17.087511
1540000000 -11.910801 -114.48212 -2.832319 -148.37502 -2.8303196 -148.41264 -13.962517 -18.78525
1550000000 -11.92815 -116.48288 -2.8285892 -150.24646 -2.8273447 -150.28107 -13.965804 -20.456324
1560000000 -11.936205 -118.51537 -2.8258715 -152.11154 -2.823261 -152.14064 -13.969567 -22.087484
1570000000 -11.936899 -120.61028 -2.8228843 -153.96733 -2.819556 -153.99829 -13.973827 -23.69323
1580000000 -11.945793 -122.78179 -2.8215833 -155.8203 -2.8172557 -155.84784 -13.977208 -25.330931
1590000000 -11.964111 -124.98341 -2.8210566 -157.65875 -2.8177366 -157.6931 -13.992034 -26.986294
1600000000 -11.981714 -127.19046 -2.8210151 -159.49864 -2.8177338 -159.52986 -14.013604 -28.667555
1610000000 -11.998543 -129.407 -2.8233593 -161.3382 -2.818361 -161.36418 -14.045011 -30.321222
1620000000 -12.01122 -131.69499 -2.827251 -163.16144 -2.8216436 -163.19185 -14.078964 -31.944057
1630000000 -12.030748 -134.04225 -2.8313832 -164.97997 -2.8261833 -165.0097 -14.117037 -33.593456
1640000000 -12.054736 -136.43358 -2.8395832 -166.77673 -2.834517 -166.80159 -14.165232 -35.301807
1650000000 -12.079022 -138.88524 -2.849308 -168.55566 -2.8436756 -168.57387 -14.233881 -37.012833
1660000000 -12.105888 -141.40466 -2.8596101 -170.30003 -2.8548415 -170.31641 -14.327482 -38.69381
1670000000 -12.141887 -144.08813 -2.8730376 -171.9951 -2.8632362 -172.02039 -14.445659 -40.255234
1680000000 -12.202398 -146.87506 -2.8809316 -173.64534 -2.8720028 -173.67601 -14.580257 -41.627937
1690000000 -12.29795 -149.67845 -2.8826587 -175.25308 -2.8769789 -175.28156 -14.729643 -42.816307
1700000000 -12.42653 -152.40898 -2.877728 -176.83745 -2.8703701 -176.86211 -14.884757 -43.767883
1710000000 -12.571112 -154.95399 -2.8622262 -178.42627 -2.85391 -178.44193 -15.034041 -44.470348
1720000000 -12.720238 -157.33273 -2.8375218 179.96484 -2.8289173 179.95178 -15.161335 -44.868736
1730000000 -12.861423 -159.61711 -2.8090017 178.30109 -2.7980413 178.29053 -15.248795 -45.182587
1740000000 -12.999117 -161.79378 -2.7761369 176.59131 -2.7665939 176.57024 -15.300082 -45.463615
1750000000 -13.128571 -163.85344 -2.7455294 174.82956 -2.7348373 174.81035 -15.317913 -45.851677
1760000000 -13.237496 -165.86147 -2.7200129 173.03494 -2.7098517 173.01837 -15.326027 -46.361649
1770000000 -13.32205 -167.88014 -2.6973424 171.22916 -2.6858251 171.21304 -15.329758 -46.998173
1780000000 -13.390533 -169.98125 -2.6781526 169.41411 -2.6657193 169.39981 -15.332927 -47.715565
1790000000 -13.454235 -172.18329 -2.6616032 167.59924 -2.6501012 167.58833 -15.341883 -48.499016
1800000000 -13.522816 -174.41299 -2.6478369 165.7919 -2.6334486 165.77124 -15.351477 -49.296333
1810000000 -13.58719 -176.65486 -2.6356916 163.97455 -2.6211989 163.9554 -15.371286 -50.115486
1820000000 -13.645403 -178.91473 -2.6257372 162.16689 -2.6106389 162.14259 -15.387912 -50.906456
1830000000 -13.697941 178.78267 -2.6154118 160.36295 -2.6007285 160.33757 -15.408148 -51.704254
1840000000 -13.75203 176.40317 -2.6065772 158.564 -2.5923445 158.53773 -15.428227 -52.529819
1850000000 -13.807308 174.02237 -2.5984948 156.76932 -2.5844462 156.74536 -15.461521 -53.357704
1860000000 -13.859877 171.59972 -2.592756 154.97253 -2.5784631 154.95728 -15.497383 -54.113331
1870000000 -13.91058 169.14296 -2.5868909 153.18712 -2.5700805 153.16418 -15.538435 -54.849724
1880000000 -13.961197 166.60687 -2.5809355 151.40973 -2.5665135 151.38649 -15.573616 -55.528111
1890000000 -14.022498 164.01605 -2.5753815 149.63593 -2.5612278 149.60452 -15.609936 -56.217281
1900000000 -14.087092 161.46083 -2.5696061 147.86128 -2.5555696 147.83046 -15.649538 -56.910461
1910000000 -14.146771 158.94806 -2.5629327 146.08429 -2.5510819 146.06345 -15.694327 -57.622688
1920000000 -14.200194 156.41991 -2.5617533 144.31725 -2.546392 144.29369 -15.747488 -58.24099
1930000000 -14.235689 153.78584 -2.5600328 142.55444 -2.5428765 142.52647 -15.797997 -58.787636
1940000000 -14.275877 151.05363 -2.5573797 140.80249 -2.5402122 140.76563 -15.836778 -59.309845
1950000000 -14.325499 148.29056 -2.5543492 139.04637 -2.5392671 139.0139 -15.87061 -59.867893
1960000000 -14.376473 145.58147 -2.5496166 137.29778 -2.5360985 137.26875 -15.906609 -60.445885
1970000000 -14.423719 142.84705 -2.5467646 135.55124 -2.53282 135.52472 -15.947085 -61.031498
1980000000 -14.460084 140.10222 -2.5439816 133.80215 -2.5285897 133.78185 -15.990771 -61.518826
1990000000 -14.50246 137.31047 -2.5398757 132.06296 -2.526315 132.03239 -16.022104 -61.970627
2000000000 -14.546434 134.48502 -2.5356565 130.30171 -2.5240762 130.30185 -16.045059 -62.425129
2010000000 -14.582973 131.75638 -2.5345364 128.55141 -2.5218763 128.55267 -16.066366 -62.880436
2020000000 -14.612426 129.04565 -2.532948 126.80669 -2.5202107 126.8102 -16.082769 -63.319862
2030000000 -14.629916 126.25163 -2.5329292 125.05991 -2.5193315 125.07425 -16.101393 -63.740486
2040000000 -14.647222 123.4114 -2.5304575 123.32782 -2.5174453 123.33723 -16.115982 -64.079239
2050000000 -14.661893 120.48618 -2.5316458 121.59747 -2.5168421 121.60189 -16.128443 -64.444595
2060000000 -14.684101 117.58496 -2.5305421 119.86695 -2.5179489 119.87469 -16.126959 -64.819962
2070000000 -14.703896 114.71522 -2.5301418 118.13005 -2.5174603 118.14555 -16.137621 -65.217636
2080000000 -14.714305 111.79015 -2.5302358 116.39881 -2.5153182 116.41635 -16.147713 -65.556839
2090000000 -14.722672 108.83786 -2.528954 114.67053 -2.5168166 114.68662 -16.158922 -65.857681
2100000000 -14.740633 105.86605 -2.5287192 112.94416 -2.5154929 112.95073 -16.168522 -66.099113
2110000000 -14.754427 102.97301 -2.5299959 111.21416 -2.517046 111.22919 -16.167519 -66.32972
2120000000 -14.761125 100.15003 -2.5312994 109.48819 -2.5196295 109.50691 -16.159849 -66.592537
2130000000 -14.74875 97.325592 -2.5345755 107.77518 -2.5217407 107.78452 -16.149843 -66.861496
2140000000 -14.730366 94.436874 -2.5343995 106.06076 -2.5246065 106.06692 -16.139713 -67.106766
2150000000 -14.714108 91.522224 -2.5380352 104.35586 -2.5267317 104.35756 -16.118862 -67.389534
2160000000 -14.70078 88.640266 -2.5394063 102.64887 -2.5298243 102.64371 -16.095449 -67.663673
2170000000 -14.683289 85.826813 -2.5405455 100.93871 -2.5324168 100.94179 -16.06863 -67.981712
2180000000 -14.654385 83.001534 -2.5446451 99.235092 -2.5370419 99.241447 -16.038742 -68.317932
2190000000 -14.6259 80.163315 -2.5468962 97.534935 -2.5389869 97.54882 -16.007338 -68.661102
2200000000 -14.60261 77.312393 -2.5490868 95.841682 -2.5398545 95.852058 -15.973763 -69.053879
2210000000 -14.580898 74.55645 -2.5507782 94.144897 -2.5416391 94.153351 -15.936696 -69.407127
2220000000 -14.551414 71.86528 -2.5519378 92.443878 -2.5457771 92.465637 -15.895103 -69.837349
2230000000 -14.508463 69.16404 -2.5571313 90.747421 -2.5494552 90.774925 -15.858103 -70.229645
2240000000 -14.463639 66.419128 -2.5594943 89.056877 -2.5527084 89.07962 -15.815135 -70.616562
2250000000 -14.423649 63.646919 -2.5642161 87.36647 -2.5554883 87.393967 -15.766097 -71.02742
2260000000 -14.391095 60.95026 -2.5666544 85.682663 -2.5596936 85.712418 -15.714181 -71.497955
2270000000 -14.351002 58.310364 -2.5689485 83.995628 -2.5638106 84.025795 -15.668664 -71.956169
2280000000 -14.297729 55.69265 -2.5732903 82.312584 -2.5661843 82.342522 -15.617342 -72.435127
2290000000 -14.24055 53.0298 -2.5769339 80.631027 -2.5705442 80.659538 -15.565686 -72.952972
2300000000 -14.195439 50.340099 -2.5815697 78.954132 -2.5726061 78.980431 -15.509372 -73.448792
2310000000 -14.157595 47.696064 -2.5849371 77.277473 -2.5769744 77.297203 -15.45945 -73.982086
2320000000 -14.117459 45.199127 -2.5882638 75.596802 -2.5810585 75.617271 -15.408918 -74.525818
2330000000 -14.065853 42.770588 -2.590735 73.912292 -2.5858567 73.944542 -15.35638 -75.073441
2340000000 -14.002831 40.323021 -2.5956728 72.23484 -2.588181 72.273392 -15.305254 -75.592903
2350000000 -13.940704 37.801517 -2.6004021 70.564507 -2.593678 70.597839 -15.248587 -76.09095
2360000000 -13.884043 35.295387 -2.604954 68.898003 -2.5969055 68.926575 -15.188216 -76.6539
2370000000 -13.839907 32.82354 -2.6108375 67.231667 -2.6029406 67.262138 -15.126974 -77.273247
2380000000 -13.792781 30.432608 -2.6166995 65.569992 -2.6077578 65.601379 -15.073204 -77.946716
2390000000 -13.744065 28.019951 -2.6221435 63.905731 -2.6133137 63.944996 -15.020843 -78.610741
2400000000 -13.701291 25.665314 -2.6279728 62.252441 -2.6183259 62.29438 -14.976224 -79.266235
2410000000 -13.660277 23.350143 -2.6316502 60.597946 -2.6219335 60.637978 -14.924305 -79.924812
2420000000 -13.617273 21.1306 -2.6364317 58.948551 -2.6260033 58.989761 -14.867167 -80.623993
2430000000 -13.561961 18.936262 -2.6414509 57.297127 -2.6307352 57.34594 -14.815584 -81.33094
2440000000 -13.496142 16.686714 -2.6473203 55.652042 -2.6347063 55.700771 -14.76733 -82.104836
2450000000 -13.436627 14.380367 -2.6515808 54.008934 -2.6370845 54.055199 -14.721571 -82.901932
2460000000 -13.388227 12.058569 -2.6537604 52.36808 -2.640197 52.404499 -14.676921 -83.650291
2470000000 -13.351799 9.8543444 -2.6557033 50.716763 -2.6447005 50.746853 -14.628417 -84.393806
2480000000 -13.310535 7.7270179 -2.6594467 49.061726 -2.6477256 49.09531 -14.575371 -85.167381
2490000000 -13.258754 5.6455345 -2.6650684 47.412296 -2.6529677 47.448441 -14.52018 -85.991417
2500000000 -13.205228 3.4988098 -2.6719749 45.763634 -2.6572301 45.797035 -14.46328 -86.817596
2510000000 -13.154719 1.366043 -2.6753097 44.123013 -2.6611958 44.153282 -14.408758 -87.68779
2520000000 -13.108083 -0.73641986 -2.6810229 42.47802 -2.6679082 42.515255 -14.362302 -88.551788
2530000000 -13.054105 -2.8202577 -2.6860659 40.835526 -2.6727877 40.87471 -14.315916 -89.394104
2540000000 -13.006126 -4.9136868 -2.6917269 39.200886 -2.6774261 39.240528 -14.272524 -90.268509
2550000000 -12.962915 -7.0583978 -2.6971636 37.569748 -2.6829827 37.610981 -14.2298 -91.144211
2560000000 -12.934946 -9.1788406 -2.6993148 35.945278 -2.686327 35.978382 -14.190635 -92.033661
2570000000 -12.918336 -11.193798 -2.7028089 34.309998 -2.6906197 34.346928 -14.157272 -92.946251
2580000000 -12.892548 -13.093496 -2.7067714 32.66679 -2.6950908 32.711697 -14.12747 -93.855095
2590000000 -12.85489 -14.98 -2.7110116 31.024481 -2.6984863 31.076578 -14.099444 -94.755219
2600000000 -12.81307 -16.942177 -2.7163293 29.393064 -2.7031765 29.438156 -14.072524 -95.695915
2610000000 -12.781656 -18.941605 -2.7209487 27.773869 -2.7064638 27.803972 -14.045166 -96.65461
2620000000 -12.763935 -20.915722 -2.7251682 26.144154 -2.7122805 26.172697 -14.018566 -97.663368
2630000000 -12.748232 -22.824608 -2.7312112 24.512857 -2.7190132 24.54841 -13.999444 -98.69278
2640000000 -12.727725 -24.719358 -2.7350738 22.887564 -2.7216771 22.93005 -13.98058 -99.718712
2650000000 -12.706124 -26.64176 -2.7412317 21.268532 -2.7253942 21.308336 -13.969641 -100.73666
2660000000 -12.699662 -28.573511 -2.7449515 19.649019 -2.7302687 19.688875 -13.946834 -101.74865
2670000000 -12.699685 -30.420086 -2.7497416 18.033644 -2.7315471 18.059652 -13.930086 -102.7658
2680000000 -12.694957 -32.181343 -2.7533793 16.4112 -2.7370417 16.440434 -13.910887 -103.82429
2690000000 -12.683618 -33.913338 -2.7559407 14.784676 -2.7401712 14.818827 -13.895227 -104.90856
2700000000 -12.661521 -35.715866 -2.7610464 13.164838 -2.7448094 13.198838 -13.892609 -106.01272
2710000000 -12.647909 -37.586021 -2.7660856 11.548162 -2.7472839 11.581383 -13.892303 -107.05591
2720000000 -12.64959 -39.450867 -2.7685153 9.9347935 -2.7521343 9.9650297 -13.895624 -108.04989
2730000000 -12.657527 -41.243717 -2.7709634 8.3190489 -2.7547536 8.3527794 -13.895661 -109.03605
2740000000 -12.667268 -43.013226 -2.7751341 6.7004805 -2.7578168 6.7410254 -13.89327 -110.05405
2750000000 -12.672984 -44.793343 -2.778496 5.0882812 -2.7594428 5.1318936 -13.896363 -111.12589
2760000000 -12.688069 -46.575645 -2.7830229 3.4780068 -2.7619522 3.5182452 -13.909817 -112.1995
2770000000 -12.712362 -48.331528 -2.7865014 1.8700922 -2.7637272 1.9006581 -13.931361 -113.25793
2780000000 -12.737789 -50.014526 -2.7875428 0.25038576 -2.7661445 0.28542453 -13.949552 -114.30816
2790000000 -12.755508 -51.656197 -2.7887096 -1.3716389 -2.7695906 -1.3351872 -13.968969 -115.37322
2800000000 -12.768489 -53.349277 -2.7930734 -2.9886076 -2.7731993 -2.9478319 -13.994633 -116.47182
2810000000 -12.790321 -55.117569 -2.7977803 -4.59479 -2.7755096 -4.5504832 -14.020939 -117.60945
2820000000 -12.821341 -56.878983 -2.8001199 -6.2028093 -2.7781327 -6.1520619 -14.054127 -118.72874
2830000000 -12.861332 -58.577744 -2.8021457 -7.8071985 -2.7789042 -7.7643695 -14.088554 -119.82332
2840000000 -12.899577 -60.205784 -2.8026044 -9.4178982 -2.7815471 -9.3770332 -14.118801 -120.88377
2850000000 -12.93699 -61.860729 -2.8043351 -11.024784 -2.7823758 -10.989411 -14.146674 -121.96304
2860000000 -12.973235 -63.536304 -2.8069446 -12.630695 -2.7822783 -12.60551 -14.173559 -123.07885
2870000000 -13.018268 -65.204994 -2.8079185 -14.237113 -2.7841539 -14.22635 -14.210468 -124.20433
2880000000 -13.070881 -66.814636 -2.8086047 -15.849933 -2.7879183 -15.837571 -14.25255 -125.31727
2890000000 -13.118551 -68.396065 -2.8086722 -17.464987 -2.7873864 -17.454136 -14.300925 -126.39884
2900000000 -13.162127 -70.00592 -2.8095851 -19.087141 -2.7884693 -19.071941 -14.357652 -127.45938
2910000000 -13.215805 -71.659782 -2.811542 -20.699844 -2.7907376 -20.684925 -14.409916 -128.45262
2920000000 -13.275898 -73.317017 -2.8111296 -22.313078 -2.7907715 -22.301601 -14.468784 -129.48067
2930000000 -13.344145 -74.907188 -2.8118722 -23.935568 -2.7898369 -23.917425 -14.528516 -130.50616
2940000000 -13.416392 -76.492706 -2.8111901 -25.554695 -2.7907784 -25.5345 -14.59495 -131.55296
2950000000 -13.488132 -78.100029 -2.8119833 -27.173368 -2.7906451 -27.15316 -14.663067 -132.61955
2960000000 -13.566734 -79.701584 -2.8140662 -28.785231 -2.7903466 -28.776758 -14.740665 -133.69124
2970000000 -13.657306 -81.272324 -2.8140285 -30.401855 -2.7912691 -30.391985 -14.822736 -134.73941
2980000000 -13.748315 -82.759933 -2.8120859 -32.023102 -2.7915819 -32.014301 -14.9066 -135.78494
2990000000 -13.831346 -84.234612 -2.8131101 -33.647415 -2.7920823 -33.633896 -14.993909 -136.83467
3000000000 -13.906186 -85.777519 -2.8124454 -35.27594 -2.7924805 -35.257435 -15.079453 -137.9175
3010000000 -13.996664 -87.409012 -2.8137507 -36.893818 -2.793838 -36.876045 -15.173679 -139.00729
3020000000 -14.105141 -89.05117 -2.8126245 -38.516212 -2.7917314 -38.49852 -15.270158 -140.08336
3030000000 -14.22973 -90.558067 -2.8137779 -40.131359 -2.7923763 -40.126511 -15.368631 -141.10217
