!Agilent Technologies,N5224A,MY51441093,A.09.90.21
!Agilent N5224A: A.09.90.21
!Date: Wednesday, October 01, 2025 16:37:13
!Correction: S11(Full 2 Port(1,2)) 
!S21(Full 2 Port(1,2)) 
!S12(Full 2 Port(1,2)) 
!S22(Full 2 Port(1,2)) 
!S2P File: Measurements: S11, S21, S12, S22:
# Hz S  dB   R 50
1000000000 -8.4849358 -54.704601 -4.1410894 -61.526428 -4.1177588 -61.539944 -8.6959696 131.72694
1010000000 -8.5399723 -56.889797 -4.0838375 -63.771107 -4.0614209 -63.784786 -8.8620663 129.21819
1020000000 -8.5897484 -59.073673 -4.0291524 -66.001953 -4.0042071 -66.031731 -9.0272789 126.70197
1030000000 -8.6401539 -61.278267 -3.9770658 -68.210304 -3.9506471 -68.262032 -9.1925097 124.17957
1040000000 -8.698534 -63.471733 -3.9245532 -70.40461 -3.9003081 -70.483589 -9.3567266 121.64355
1050000000 -8.7581797 -65.6231 -3.8709402 -72.597618 -3.8517661 -72.689743 -9.519556 119.12662
1060000000 -8.8180971 -67.74379 -3.8202868 -74.792763 -3.8037374 -74.881172 -9.6803951 116.60198
1070000000 -8.874197 -69.86071 -3.773417 -76.969971 -3.7587032 -77.069145 -9.8424101 114.10255
1080000000 -8.9346752 -71.967354 -3.7267907 -79.141876 -3.7143993 -79.24366 -9.9984894 111.58646
1090000000 -8.9976377 -74.059586 -3.6820216 -81.292084 -3.6709943 -81.406792 -10.15361 109.06254
1100000000 -9.0602779 -76.123711 -3.6369612 -83.453682 -3.6313922 -83.555534 -10.311161 106.52988
1110000000 -9.1195612 -78.156448 -3.5957172 -85.605637 -3.592804 -85.698463 -10.470569 104.00929
1120000000 -9.1785002 -80.190659 -3.5569155 -87.746651 -3.5557933 -87.832352 -10.626663 101.5119
1130000000 -9.2346497 -82.248528 -3.5218074 -89.86808 -3.5190461 -89.946846 -10.778769 99.018311
1140000000 -9.2966404 -84.312874 -3.4859564 -91.979378 -3.4839199 -92.055466 -10.928753 96.52858
1150000000 -9.3607674 -86.360092 -3.4510057 -94.078049 -3.450115 -94.145454 -11.075929 94.033302
1160000000 -9.4262829 -88.369255 -3.4169266 -96.166267 -3.4170973 -96.227783 -11.224575 91.512306
1170000000 -9.491807 -90.386086 -3.386498 -98.250748 -3.3816597 -98.309074 -11.370353 89.056847
1180000000 -9.556304 -92.368347 -3.3550365 -100.32249 -3.3506134 -100.38152 -11.513754 86.589073
1190000000 -9.6223879 -94.350754 -3.3254297 -102.38522 -3.3183992 -102.45027 -11.648331 84.149162
1200000000 -9.6859579 -96.313431 -3.2946258 -104.43389 -3.291306 -104.50414 -11.779837 81.677643
1210000000 -9.7490969 -98.281181 -3.2674842 -106.4742 -3.2625546 -106.54194 -11.913476 79.220001
1220000000 -9.8103733 -100.24422 -3.238636 -108.51836 -3.2342143 -108.58578 -12.048653 76.774979
1230000000 -9.8744049 -102.22284 -3.2110176 -110.54819 -3.2071526 -110.60612 -12.179295 74.366531
1240000000 -9.9429083 -104.19316 -3.1853054 -112.56573 -3.1810031 -112.63101 -12.304037 71.977242
1250000000 -10.009524 -106.1554 -3.1610641 -114.58213 -3.1566699 -114.64272 -12.424637 69.602638
1260000000 -10.076123 -108.10788 -3.1357291 -116.58853 -3.1324272 -116.64494 -12.542452 67.210861
1270000000 -10.141795 -110.07558 -3.1125355 -118.58348 -3.1079156 -118.64285 -12.65881 64.826118
1280000000 -10.211229 -112.02836 -3.0889339 -120.57375 -3.0849473 -120.63695 -12.776736 62.47493
1290000000 -10.282512 -113.94814 -3.0678654 -122.56525 -3.0639675 -122.62858 -12.889824 60.155678
1300000000 -10.348081 -115.87269 -3.0455334 -124.55462 -3.0412257 -124.60848 -12.995828 57.862297
1310000000 -10.409095 -117.82026 -3.024565 -126.52905 -3.0224326 -126.57758 -13.101718 55.565178
1320000000 -10.47128 -119.8271 -3.0068192 -128.48975 -3.0029953 -128.53351 -13.206237 53.295391
1330000000 -10.539709 -121.84832 -2.9864206 -130.43813 -2.9839048 -130.49019 -13.311202 51.05109
1340000000 -10.620245 -123.8567 -2.9666138 -132.38757 -2.9636691 -132.44412 -13.412463 48.84494
1350000000 -10.697667 -125.78318 -2.9471221 -134.33162 -2.9454713 -134.39066 -13.508506 46.680294
1360000000 -10.765594 -127.70493 -2.9303629 -136.28613 -2.9266512 -136.33186 -13.60205 44.538124
1370000000 -10.829009 -129.6653 -2.9136977 -138.22499 -2.9126379 -138.26517 -13.69285 42.394161
1380000000 -10.891587 -131.67856 -2.8978102 -140.15282 -2.8954282 -140.19576 -13.78686 40.295425
1390000000 -10.963236 -133.71538 -2.8828619 -142.07314 -2.8792946 -142.12128 -13.879694 38.210728
1400000000 -11.043419 -135.72498 -2.867353 -143.99031 -2.8644042 -144.04311 -13.964659 36.173321
1410000000 -11.114527 -137.70433 -2.8520677 -145.911 -2.8499377 -145.955 -14.047217 34.161743
1420000000 -11.18258 -139.68961 -2.8400335 -147.82233 -2.8364375 -147.86215 -14.132879 32.127102
1430000000 -11.249996 -141.71172 -2.8266425 -149.72241 -2.8222606 -149.76399 -14.218571 30.108971
1440000000 -11.325216 -143.74193 -2.8141541 -151.62148 -2.8090634 -151.66058 -14.303875 28.133989
1450000000 -11.400375 -145.7388 -2.800318 -153.51558 -2.7963336 -153.55753 -14.38845 26.203161
1460000000 -11.4707 -147.73161 -2.7877393 -155.40721 -2.7856317 -155.45268 -14.468536 24.273542
1470000000 -11.535982 -149.72336 -2.7775376 -157.29718 -2.7745867 -157.34236 -14.545055 22.395849
1480000000 -11.602977 -151.78152 -2.7671983 -159.18007 -2.7634442 -159.21812 -14.617849 20.558147
1490000000 -11.672359 -153.86447 -2.7571247 -161.05458 -2.752708 -161.09666 -14.688614 18.752811
1500000000 -11.743731 -155.93524 -2.7456787 -162.92734 -2.7432861 -162.97026 -14.759992 16.957567
1510000000 -11.817954 -158.00569 -2.7351878 -164.79927 -2.7339377 -164.84207 -14.824689 15.207114
1520000000 -11.888976 -160.1105 -2.7273588 -166.67036 -2.7249022 -166.71039 -14.889112 13.473222
1530000000 -11.961765 -162.22357 -2.7179906 -168.53561 -2.7164652 -168.57678 -14.95935 11.739712
1540000000 -12.040778 -164.29846 -2.710954 -170.4001 -2.7085083 -170.43935 -15.031507 10.067898
1550000000 -12.115938 -166.35789 -2.7051702 -172.26939 -2.7017336 -172.3028 -15.109633 8.4847517
1560000000 -12.181402 -168.41417 -2.6986189 -174.1322 -2.6958022 -174.16394 -15.182569 6.9258285
1570000000 -12.233776 -170.51654 -2.6942437 -175.99559 -2.6904211 -176.02145 -15.251239 5.3783674
1580000000 -12.291806 -172.68558 -2.6912286 -177.84619 -2.6866281 -177.87492 -15.32268 3.8127794
1590000000 -12.354222 -174.88512 -2.6894636 -179.694 -2.6845956 -179.72533 -15.413193 2.3020434
1600000000 -12.413455 -177.04794 -2.6867433 178.45808 -2.6823401 178.42891 -15.501572 0.85078812
1610000000 -12.468684 -179.2001 -2.6872549 176.61308 -2.6820583 176.57809 -15.594365 -0.52635026
1620000000 -12.510583 178.63402 -2.6895692 174.77037 -2.6854157 174.73889 -15.683936 -1.8529828
1630000000 -12.555979 176.41341 -2.6950297 172.9337 -2.689961 172.90552 -15.780802 -3.15781
1640000000 -12.590945 174.21387 -2.7027295 171.11578 -2.6968729 171.08873 -15.892303 -4.4022403
1650000000 -12.615859 171.99527 -2.7124667 169.30508 -2.705915 169.28662 -16.01399 -5.4638057
1660000000 -12.621599 169.71715 -2.7261505 167.52663 -2.7191062 167.50781 -16.134413 -6.2743869
1670000000 -12.609981 167.28035 -2.7420812 165.7863 -2.7332735 165.76443 -16.24457 -6.8591075
1680000000 -12.600577 164.64423 -2.7572289 164.09839 -2.749295 164.06509 -16.321642 -7.2136078
1690000000 -12.602219 161.85919 -2.7693584 162.46004 -2.7610729 162.42975 -16.367146 -7.4321117
1700000000 -12.619473 158.95706 -2.7726409 160.85802 -2.7653425 160.8354 -16.366894 -7.5357461
1710000000 -12.652488 155.98276 -2.7685733 159.27376 -2.7608221 159.25821 -16.318148 -7.6556473
1720000000 -12.701455 152.97035 -2.7566526 157.68053 -2.7472184 157.66805 -16.218493 -7.9288979
1730000000 -12.767041 149.92238 -2.7358539 156.04837 -2.7258041 156.03429 -16.099489 -8.5246668
1740000000 -12.859755 146.93507 -2.7127609 154.38017 -2.7024002 154.35899 -15.975194 -9.3751698
1750000000 -12.966619 144.0793 -2.6889334 152.6637 -2.6778674 152.64337 -15.866308 -10.47179
1760000000 -13.06781 141.36002 -2.6666343 150.91545 -2.6577561 150.90063 -15.77828 -11.661538
1770000000 -13.156247 138.73485 -2.6482267 149.14781 -2.63728 149.12994 -15.713428 -12.899309
1780000000 -13.233215 136.10359 -2.6324902 147.36443 -2.6206419 147.35394 -15.661402 -14.144531
1790000000 -13.308341 133.46397 -2.6207778 145.5799 -2.6068628 145.56894 -15.621501 -15.361562
1800000000 -13.384252 130.85779 -2.6091955 143.79897 -2.5931809 143.77518 -15.585075 -16.560852
1810000000 -13.455167 128.28957 -2.5986531 142.01099 -2.5834868 141.98651 -15.554969 -17.713181
1820000000 -13.515892 125.75578 -2.5896976 140.21854 -2.5746262 140.19855 -15.521 -18.838303
1830000000 -13.568191 123.21333 -2.5828431 138.43289 -2.5674756 138.40953 -15.493385 -19.939175
1840000000 -13.61812 120.64315 -2.5784733 136.65077 -2.5619769 136.63275 -15.467278 -21.059332
1850000000 -13.667543 118.08269 -2.57287 134.8745 -2.5573273 134.85368 -15.449629 -22.085943
1860000000 -13.70742 115.52215 -2.5694635 133.09695 -2.5542901 133.07397 -15.425734 -23.067844
1870000000 -13.741218 112.94727 -2.5674982 131.32346 -2.5500586 131.30351 -15.396389 -23.999239
1880000000 -13.771322 110.31773 -2.5644021 129.56105 -2.5488074 129.53653 -15.364093 -24.959206
1890000000 -13.80582 107.64739 -2.5629158 127.80008 -2.5471687 127.77474 -15.335917 -25.900137
1900000000 -13.847798 105.03215 -2.5606062 126.04393 -2.5453203 126.01865 -15.309101 -26.851721
1910000000 -13.875102 102.49397 -2.5588834 124.28621 -2.5449901 124.26093 -15.285377 -27.747749
1920000000 -13.897226 99.967171 -2.5599253 122.53183 -2.5437238 122.50262 -15.257031 -28.600225
1930000000 -13.898778 97.406219 -2.5617914 120.78085 -2.5448067 120.74943 -15.216527 -29.446939
1940000000 -13.8982 94.752853 -2.5634694 119.04127 -2.5481622 119.00744 -15.174991 -30.354143
1950000000 -13.905974 92.083107 -2.5657163 117.3084 -2.5494058 117.27647 -15.136638 -31.303249
1960000000 -13.916659 89.486916 -2.5658729 115.57693 -2.5492194 115.55079 -15.101986 -32.232327
1970000000 -13.917254 86.898056 -2.5675662 113.84702 -2.5507851 113.82039 -15.069571 -33.12524
1980000000 -13.91038 84.325661 -2.5675404 112.11846 -2.5502734 112.09319 -15.024362 -33.973751
1990000000 -13.904314 81.723381 -2.5679176 110.39288 -2.5522707 110.36889 -14.975629 -34.868286
2000000000 -13.901977 79.129395 -2.5693135 108.65954 -2.5549474 108.66006 -14.923957 -35.815372
2010000000 -13.896136 76.628555 -2.5700762 106.92941 -2.5556223 106.93024 -14.87129 -36.766224
2020000000 -13.883648 74.166222 -2.5724509 105.20241 -2.5579374 105.20937 -14.818664 -37.718212
2030000000 -13.852944 71.674812 -2.5756392 103.48219 -2.5617936 103.49529 -14.763892 -38.650799
2040000000 -13.826648 69.141663 -2.5782571 101.76784 -2.5649338 101.77612 -14.705122 -39.560806
2050000000 -13.793647 66.556625 -2.5818918 100.06262 -2.5674868 100.06139 -14.649175 -40.499401
2060000000 -13.769317 64.003731 -2.5856705 98.352379 -2.572104 98.359772 -14.592666 -41.489708
2070000000 -13.742474 61.474163 -2.5877578 96.636627 -2.5733712 96.653366 -14.541942 -42.432098
2080000000 -13.710303 58.94392 -2.5912549 94.926132 -2.5764592 94.940865 -14.491431 -43.342716
2090000000 -13.677777 56.391434 -2.594687 93.221916 -2.5809917 93.232002 -14.438237 -44.21682
2100000000 -13.65491 53.846851 -2.5995753 91.518372 -2.5857036 91.522079 -14.379262 -45.085384
2110000000 -13.632954 51.383591 -2.6040938 89.812279 -2.5907917 89.823242 -14.319801 -46.004501
2120000000 -13.606674 49.006432 -2.6091259 88.11055 -2.5963151 88.123207 -14.260131 -46.937851
2130000000 -13.568628 46.675293 -2.6141677 86.419502 -2.601089 86.43042 -14.203434 -47.903633
2140000000 -13.524576 44.290859 -2.6187069 84.728783 -2.6077459 84.734116 -14.141684 -48.841877
2150000000 -13.484483 41.89819 -2.6255574 83.044777 -2.6132832 83.051109 -14.084168 -49.835968
2160000000 -13.449733 39.536564 -2.6295063 81.369598 -2.6185923 81.364609 -14.025183 -50.837425
2170000000 -13.413345 37.245064 -2.6337247 79.681053 -2.6254106 79.683762 -13.969439 -51.861927
2180000000 -13.372411 34.964928 -2.6407259 78.006828 -2.6316717 78.014847 -13.919321 -52.899715
2190000000 -13.331885 32.664841 -2.6449356 76.334396 -2.6353841 76.346092 -13.864259 -53.952908
2200000000 -13.297502 30.34568 -2.6511183 74.668106 -2.6403928 74.681099 -13.816 -55.007938
2210000000 -13.269321 28.111797 -2.6543298 72.998764 -2.6463776 73.011284 -13.765718 -56.048058
2220000000 -13.235253 25.93786 -2.6578994 71.326035 -2.6503644 71.346512 -13.719022 -57.143383
2230000000 -13.192893 23.764067 -2.6640508 69.652084 -2.6567907 69.681931 -13.670731 -58.203224
2240000000 -13.145535 21.551304 -2.6686897 67.98584 -2.661154 68.011078 -13.620376 -59.263901
2250000000 -13.109518 19.302921 -2.6754112 66.326408 -2.6670845 66.351593 -13.570975 -60.350082
2260000000 -13.079209 17.128517 -2.6800389 64.67025 -2.6724229 64.694962 -13.52457 -61.467815
2270000000 -13.044991 14.999451 -2.6846788 63.002712 -2.6792376 63.039635 -13.479669 -62.555523
2280000000 -13.005099 12.897335 -2.6906109 61.346581 -2.6844168 61.379414 -13.436466 -63.656456
2290000000 -12.959867 10.736738 -2.6954226 59.69392 -2.6886902 59.722275 -13.391354 -64.786263
2300000000 -12.929657 8.5818167 -2.7010343 58.047066 -2.6928058 58.069675 -13.348776 -65.902603
2310000000 -12.905457 6.4548798 -2.7039914 56.395821 -2.6975932 56.415806 -13.308475 -67.033356
2320000000 -12.882273 4.4463549 -2.709131 54.741325 -2.7013807 54.762089 -13.273005 -68.167412
2330000000 -12.851295 2.4941201 -2.7128654 53.087662 -2.7082131 53.113297 -13.240026 -69.281944
2340000000 -12.809227 0.51828498 -2.7189484 51.432346 -2.7112846 51.468483 -13.205477 -70.371094
2350000000 -12.77182 -1.5286404 -2.7236056 49.786877 -2.7179093 49.816608 -13.166741 -71.459099
2360000000 -12.742368 -3.5694056 -2.729528 48.142467 -2.7217424 48.172226 -13.133107 -72.585442
2370000000 -12.72009 -5.5871983 -2.7342839 46.498451 -2.7267346 46.533852 -13.101023 -73.750061
2380000000 -12.698621 -7.5599265 -2.7403398 44.853035 -2.7307792 44.892906 -13.077491 -74.902359
2390000000 -12.677882 -9.5568609 -2.7454183 43.213871 -2.7366726 43.255116 -13.051953 -76.041061
2400000000 -12.665759 -11.508125 -2.7502694 41.581474 -2.7402449 41.620087 -13.029708 -77.177391
2410000000 -12.658034 -13.422964 -2.7546442 39.953846 -2.7450004 39.986038 -13.005527 -78.327126
2420000000 -12.647936 -15.250848 -2.7591367 38.325485 -2.7497666 38.363018 -12.984091 -79.534103
2430000000 -12.627088 -17.063629 -2.7629354 36.689922 -2.7536709 36.73745 -12.963821 -80.715393
2440000000 -12.594974 -18.91375 -2.7669399 35.064823 -2.7562668 35.121426 -12.95006 -81.899269
2450000000 -12.57352 -20.843534 -2.7703683 33.441566 -2.7580192 33.491917 -12.941291 -83.101837
2460000000 -12.563733 -22.764793 -2.7738895 31.821589 -2.7610822 31.8566 -12.92798 -84.262802
2470000000 -12.561673 -24.599476 -2.7752669 30.185421 -2.7634234 30.215029 -12.910874 -85.423576
2480000000 -12.553855 -26.371344 -2.7777467 28.548317 -2.7647214 28.579386 -12.891374 -86.620247
2490000000 -12.53728 -28.120932 -2.7808959 26.909496 -2.7684772 26.950266 -12.878168 -87.842773
2500000000 -12.522353 -29.926748 -2.7857807 25.276648 -2.7712309 25.30982 -12.8608 -89.071007
2510000000 -12.512273 -31.732956 -2.7879732 23.649733 -2.775784 23.681639 -12.848907 -90.308113
2520000000 -12.505283 -33.505966 -2.7925887 22.019936 -2.7792485 22.051327 -12.843261 -91.522881
2530000000 -12.491392 -35.280804 -2.7968082 20.38908 -2.7817595 20.428709 -12.836001 -92.721848
2540000000 -12.483657 -37.085918 -2.7988961 18.771139 -2.7858822 18.81175 -12.83323 -93.933334
2550000000 -12.486234 -38.919968 -2.8036475 17.151215 -2.7898538 17.191183 -12.834518 -95.148941
2560000000 -12.502065 -40.735195 -2.8047333 15.537142 -2.7910321 15.568383 -12.83804 -96.355484
2570000000 -12.524734 -42.448456 -2.8043094 13.912977 -2.793236 13.946204 -12.847197 -97.570587
2580000000 -12.539166 -44.066044 -2.8055885 12.277132 -2.7932947 12.317893 -12.856462 -98.779732
2590000000 -12.542335 -45.698418 -2.808269 10.637456 -2.7948103 10.687757 -12.86919 -99.983559
2600000000 -12.544345 -47.423862 -2.8111753 9.0116835 -2.7975724 9.0560112 -12.88514 -101.20625
2610000000 -12.558784 -49.178055 -2.8147194 7.3972416 -2.7984726 7.4273734 -12.897154 -102.46156
2620000000 -12.585033 -50.910282 -2.8162041 5.7730975 -2.8036644 5.8030977 -12.918319 -103.75368
2630000000 -12.61193 -52.577686 -2.8179269 4.1410289 -2.8061073 4.1827569 -12.943913 -105.01993
2640000000 -12.634116 -54.254803 -2.8206635 2.5178518 -2.8064024 2.5667911 -12.967496 -106.28753
2650000000 -12.656774 -55.970081 -2.8222046 0.89943475 -2.8087101 0.94393677 -12.997766 -107.53519
2660000000 -12.694249 -57.66972 -2.8242667 -0.71442038 -2.8105323 -0.67398959 -13.017595 -108.79557
2670000000 -12.740136 -59.309444 -2.8263605 -2.3339436 -2.8093567 -2.3106992 -13.042201 -110.06452
2680000000 -12.781265 -60.866482 -2.8263862 -3.9593334 -2.8120749 -3.929868 -13.070803 -111.35851
2690000000 -12.812637 -62.405609 -2.8275845 -5.5925756 -2.8117294 -5.5570245 -13.101893 -112.66782
2700000000 -12.837254 -64.033363 -2.8291769 -7.2169881 -2.8129618 -7.1823745 -13.144477 -113.93948
2710000000 -12.874061 -65.724403 -2.8326919 -8.8391113 -2.8137453 -8.8021584 -13.189594 -115.16779
2720000000 -12.925076 -67.405495 -2.8320684 -10.455073 -2.8147388 -10.423236 -13.233523 -116.34676
2730000000 -12.980478 -69.003632 -2.8329108 -12.079018 -2.8146017 -12.048995 -13.276095 -117.54641
2740000000 -13.036486 -70.589088 -2.8326693 -13.706543 -2.8157828 -13.661466 -13.319438 -118.77053
2750000000 -13.092417 -72.208206 -2.8336828 -15.327358 -2.8153715 -15.284536 -13.370604 -120.03242
2760000000 -13.158476 -73.821686 -2.8342559 -16.950148 -2.8141472 -16.907379 -13.429431 -121.27048
2770000000 -13.232777 -75.392845 -2.832844 -18.573521 -2.8127959 -18.538662 -13.495098 -122.48879
2780000000 -13.307085 -76.90966 -2.833164 -20.199881 -2.8124056 -20.168476 -13.555543 -123.70795
2790000000 -13.37 -78.399193 -2.8325605 -21.839493 -2.8127031 -21.804714 -13.618488 -124.962
2800000000 -13.431862 -79.965698 -2.8341439 -23.473337 -2.8137276 -23.429783 -13.689214 -126.21475
2810000000 -13.50559 -81.602814 -2.8362727 -25.095345 -2.8133671 -25.053101 -13.762831 -127.50217
2820000000 -13.589331 -83.230232 -2.8346155 -26.72378 -2.8131893 -26.67001 -13.841851 -128.75937
2830000000 -13.683057 -84.763481 -2.8345935 -28.341663 -2.8132801 -28.305399 -13.917478 -129.98557
2840000000 -13.772951 -86.270096 -2.8320177 -29.975525 -2.8111753 -29.937408 -13.991077 -131.19722
2850000000 -13.860821 -87.79335 -2.8318968 -31.605967 -2.8107326 -31.56823 -14.062992 -132.42496
2860000000 -13.954 -89.343468 -2.8318281 -33.233379 -2.809006 -33.205376 -14.139538 -133.69493
2870000000 -14.056238 -90.896057 -2.8300502 -34.861019 -2.8071213 -34.849171 -14.225694 -134.96918
2880000000 -14.165056 -92.361145 -2.8289723 -36.499241 -2.806319 -36.485737 -14.317361 -136.19786
2890000000 -14.270016 -93.82325 -2.8266008 -38.134407 -2.8057048 -38.127026 -14.41626 -137.36841
2900000000 -14.372019 -95.317764 -2.8274505 -39.780029 -2.804837 -39.769695 -14.521379 -138.52219
2910000000 -14.489058 -96.871628 -2.8271909 -41.414246 -2.8055232 -41.404106 -14.622606 -139.63602
2920000000 -14.6132 -98.413254 -2.8248453 -43.054214 -2.8042445 -43.047749 -14.730198 -140.76578
2930000000 -14.747396 -99.873878 -2.8232634 -44.698872 -2.8018222 -44.690559 -14.840977 -141.90645
2940000000 -14.884717 -101.32623 -2.8211396 -46.348938 -2.7996821 -46.333717 -14.958669 -143.06081
2950000000 -15.023416 -102.82511 -2.8201225 -47.995258 -2.7971575 -47.978905 -15.082418 -144.23788
2960000000 -15.173635 -104.29636 -2.8198175 -49.6376 -2.7963169 -49.630245 -15.21431 -145.3842
2970000000 -15.332617 -105.72021 -2.8180346 -51.286762 -2.7951105 -51.276588 -15.350753 -146.5159
2980000000 -15.492494 -107.05885 -2.815794 -52.938686 -2.794297 -52.929909 -15.483891 -147.64574
2990000000 -15.640657 -108.42637 -2.8143387 -54.595592 -2.792918 -54.580738 -15.626068 -148.78793
3000000000 -15.789217 -109.88384 -2.813308 -56.246819 -2.7913907 -56.233273 -15.766523 -149.95201
3010000000 -15.959702 -111.42311 -2.8129234 -57.898346 -2.7914865 -57.885807 -15.918311 -151.08948
3020000000 -16.156858 -112.93045 -2.8111308 -59.552326 -2.7900996 -59.535774 -16.073137 -152.18768
3030000000 -16.365604 -114.2569 -2.8092456 -61.198231 -2.787936 -61.19566 -16.224455 -153.25307
