!Agilent Technologies,N5224A,MY51441093,A.09.90.21
!Agilent N5224A: A.09.90.21
!Date: Wednesday, October 01, 2025 16:37:37
!Correction: S11(Full 2 Port(1,2)) 
!S21(Full 2 Port(1,2)) 
!S12(Full 2 Port(1,2)) 
!S22(Full 2 Port(1,2)) 
!S2P File: Measurements: S11, S21, S12, S22:
# Hz S  dB   R 50
1000000000 -10.588256 -76.932076 -2.735287 -107.94096 -2.7115388 -107.95089 -12.493871 15.57179
1010000000 -10.576619 -78.911331 -2.7272182 -109.75838 -2.7020092 -109.78023 -12.494932 13.903067
1020000000 -10.56415 -80.935417 -2.7155197 -111.57086 -2.6902707 -111.61613 -12.495551 12.248047
1030000000 -10.565038 -82.966637 -2.703896 -113.37735 -2.680454 -113.4351 -12.497224 10.606287
1040000000 -10.569833 -84.949341 -2.6917551 -115.19034 -2.6696036 -115.26264 -12.499582 8.9601364
1050000000 -10.575908 -86.902969 -2.6800356 -117.00755 -2.6615188 -117.0837 -12.507534 7.3567748
1060000000 -10.579373 -88.857872 -2.6697593 -118.80953 -2.6526461 -118.90126 -12.513038 5.7521572
1070000000 -10.583102 -90.847504 -2.6578867 -120.60811 -2.643182 -120.71944 -12.523142 4.1986947
1080000000 -10.592219 -92.822571 -2.6468484 -122.41036 -2.6369812 -122.52261 -12.531351 2.6487651
1090000000 -10.603739 -94.756416 -2.6357517 -124.2034 -2.6308033 -124.32104 -12.539849 1.1034653
1100000000 -10.613986 -96.690552 -2.6265521 -126.00777 -2.623806 -126.10413 -12.553075 -0.4531883
1110000000 -10.616578 -98.658424 -2.6180117 -127.79552 -2.617317 -127.88819 -12.570952 -1.9768134
1120000000 -10.623912 -100.65446 -2.6107371 -129.57704 -2.6091669 -129.66185 -12.589615 -3.4557481
1130000000 -10.639846 -102.67695 -2.6038456 -131.35086 -2.6016648 -131.43552 -12.60379 -4.9197774
1140000000 -10.661523 -104.68401 -2.5953155 -133.12808 -2.5955479 -133.20354 -12.617816 -6.3601303
1150000000 -10.684266 -106.66616 -2.5877833 -134.90413 -2.5857463 -134.968 -12.630343 -7.8149819
1160000000 -10.704658 -108.62526 -2.5801649 -136.67093 -2.5794735 -136.72972 -12.649224 -9.3058109
1170000000 -10.726625 -110.60345 -2.5747302 -138.43436 -2.5722113 -138.49661 -12.675751 -10.697275
1180000000 -10.746411 -112.56528 -2.5676141 -140.18585 -2.5656939 -140.24902 -12.697416 -12.089918
1190000000 -10.77002 -114.52123 -2.5630367 -141.93877 -2.5584145 -142.00296 -12.714809 -13.425177
1200000000 -10.793552 -116.46931 -2.5564413 -143.68219 -2.5527058 -143.74663 -12.730327 -14.792802
1210000000 -10.813917 -118.48008 -2.5511112 -145.42322 -2.5481477 -145.48395 -12.755007 -16.156338
1220000000 -10.838505 -120.48465 -2.5450354 -147.16333 -2.5408597 -147.22701 -12.782823 -17.522943
1230000000 -10.867702 -122.48488 -2.5382366 -148.90198 -2.5351789 -148.96629 -12.813392 -18.83227
1240000000 -10.900302 -124.47163 -2.5317924 -150.63904 -2.5283883 -150.70544 -12.839699 -20.10528
1250000000 -10.931419 -126.45195 -2.5262659 -152.37256 -2.522969 -152.43546 -12.863171 -21.367933
1260000000 -10.963936 -128.44539 -2.5211015 -154.10922 -2.5163939 -154.16568 -12.88654 -22.665211
1270000000 -10.996545 -130.46581 -2.5142956 -155.83699 -2.5105104 -155.89571 -12.914901 -23.940096
1280000000 -11.034587 -132.45134 -2.5104055 -157.56473 -2.5062315 -157.62349 -12.950506 -25.196302
1290000000 -11.066429 -134.42754 -2.5053809 -159.2906 -2.502532 -159.34688 -12.984585 -26.410498
1300000000 -11.096539 -136.4259 -2.5012853 -161.01688 -2.4970546 -161.06975 -13.013361 -27.602571
1310000000 -11.126257 -138.49567 -2.4963088 -162.73236 -2.4916706 -162.7847 -13.043472 -28.794319
1320000000 -11.166177 -140.60371 -2.4913943 -164.44136 -2.4880495 -164.50009 -13.077098 -29.998219
1330000000 -11.215497 -142.68428 -2.4844766 -166.15533 -2.4835396 -166.21422 -13.117203 -31.178066
1340000000 -11.269999 -144.71158 -2.478817 -167.8764 -2.4764416 -167.92618 -13.156902 -32.313133
1350000000 -11.311652 -146.67874 -2.4744027 -169.59384 -2.4728069 -169.64536 -13.197406 -33.446239
1360000000 -11.342706 -148.70464 -2.4728422 -171.30785 -2.4688313 -171.35347 -13.235474 -34.532581
1370000000 -11.377703 -150.80994 -2.4687808 -173.01294 -2.4656692 -173.0592 -13.271485 -35.665398
1380000000 -11.421729 -152.94919 -2.4663174 -174.71677 -2.4628382 -174.7664 -13.317283 -36.760544
1390000000 -11.473512 -155.0609 -2.4606724 -176.42157 -2.4594522 -176.47279 -13.363382 -37.866161
1400000000 -11.525617 -157.12344 -2.4582062 -178.1329 -2.4560065 -178.17735 -13.406488 -38.907608
1410000000 -11.568552 -159.18631 -2.4552805 -179.84129 -2.4525449 -179.87979 -13.445163 -39.959164
1420000000 -11.612825 -161.28696 -2.4526877 178.46259 -2.4491479 178.41675 -13.487974 -41.049473
1430000000 -11.658775 -163.42276 -2.4503658 176.76701 -2.4465249 176.72273 -13.532622 -42.122059
1440000000 -11.71234 -165.52753 -2.448071 175.06987 -2.4432406 175.02284 -13.581612 -43.18652
1450000000 -11.762458 -167.6006 -2.445878 173.36612 -2.4416986 173.32076 -13.63317 -44.21376
1460000000 -11.806213 -169.68231 -2.442883 171.66673 -2.4401009 171.62563 -13.675861 -45.206745
1470000000 -11.847804 -171.80203 -2.4422045 169.97058 -2.4393902 169.92859 -13.722791 -46.193737
1480000000 -11.896031 -173.97729 -2.4413009 168.27756 -2.4379451 168.23607 -13.770096 -47.169376
1490000000 -11.947738 -176.16254 -2.4390695 166.58516 -2.4359677 166.54259 -13.819828 -48.102978
1500000000 -12.001476 -178.33307 -2.4369977 164.89175 -2.4351451 164.84674 -13.868181 -49.030056
1510000000 -12.056362 179.5173 -2.4358509 163.19261 -2.4357409 163.14789 -13.915561 -49.939747
1520000000 -12.114427 177.33937 -2.4352746 161.49371 -2.433131 161.45326 -13.963635 -50.866825
1530000000 -12.174109 175.1555 -2.4358165 159.7925 -2.4332368 159.7581 -14.018929 -51.795479
1540000000 -12.23077 173.03619 -2.4364448 158.09152 -2.4344647 158.05743 -14.084829 -52.70607
1550000000 -12.284832 170.94016 -2.4388058 156.38664 -2.4354148 156.35352 -14.153085 -53.537586
1560000000 -12.327318 168.80518 -2.4404879 154.68173 -2.4373806 154.65039 -14.217896 -54.365856
1570000000 -12.36536 166.60753 -2.4436228 152.98203 -2.4390717 152.94899 -14.280206 -55.187946
1580000000 -12.413486 164.39252 -2.4464023 151.28203 -2.4427819 151.25304 -14.347305 -56.045834
1590000000 -12.468459 162.20021 -2.4509122 149.58156 -2.4475524 149.54913 -14.429813 -56.890923
1600000000 -12.516048 160.07561 -2.4576256 147.87802 -2.4539833 147.84604 -14.516474 -57.653996
1610000000 -12.559999 157.96516 -2.4655759 146.16914 -2.4600875 146.13754 -14.602057 -58.36256
1620000000 -12.592086 155.85022 -2.4768336 144.46619 -2.4705148 144.43547 -14.686699 -59.04678
1630000000 -12.624768 153.76425 -2.4882476 142.76843 -2.4839563 142.73749 -14.777142 -59.715332
1640000000 -12.64566 151.72539 -2.5041347 141.0757 -2.5004363 141.05626 -14.884619 -60.295341
1650000000 -12.649208 149.71085 -2.5233998 139.3981 -2.5182929 139.38068 -14.998305 -60.705738
1660000000 -12.627018 147.66275 -2.5460663 137.75212 -2.5414364 137.73125 -15.11305 -60.879616
1670000000 -12.587355 145.47548 -2.5733776 136.15175 -2.5644395 136.12102 -15.208717 -60.86697
1680000000 -12.540083 143.14392 -2.5976124 134.60078 -2.5911832 134.56712 -15.273151 -60.639008
1690000000 -12.487255 140.69423 -2.6207883 133.10515 -2.6148951 133.07663 -15.305311 -60.320549
1700000000 -12.432501 138.09982 -2.6362147 131.65672 -2.628643 131.63342 -15.289195 -59.952484
1710000000 -12.376925 135.30174 -2.6424243 130.22682 -2.633544 130.21899 -15.230258 -59.65744
1720000000 -12.340691 132.33907 -2.6370838 128.80472 -2.6298423 128.79498 -15.127889 -59.597328
1730000000 -12.331465 129.23262 -2.6234219 127.34201 -2.6143925 127.32423 -15.010711 -59.854286
1740000000 -12.36147 126.19142 -2.6042218 125.83378 -2.5954423 125.81221 -14.893205 -60.399815
1750000000 -12.410688 123.26787 -2.5842197 124.27 -2.574542 124.25068 -14.798187 -61.17041
1760000000 -12.460714 120.47128 -2.5651813 122.66399 -2.5573771 122.65768 -14.726699 -62.049694
1770000000 -12.504682 117.74433 -2.5488551 121.03944 -2.5377474 121.02269 -14.675077 -62.954491
1780000000 -12.550696 115.01791 -2.535768 119.38972 -2.5242829 119.37877 -14.640625 -63.892235
1790000000 -12.604305 112.32868 -2.5255632 117.73631 -2.5121832 117.72447 -14.617095 -64.790688
1800000000 -12.659247 109.72749 -2.515744 116.07674 -2.5012748 116.05571 -14.599075 -65.673424
1810000000 -12.710481 107.20177 -2.5078692 114.40511 -2.4936898 114.38026 -14.584854 -66.526962
1820000000 -12.75039 104.71602 -2.501853 112.73737 -2.4879143 112.70995 -14.572368 -67.374542
1830000000 -12.790342 102.21884 -2.498769 111.06694 -2.4841702 111.04704 -14.56739 -68.185814
1840000000 -12.824344 99.728607 -2.4955599 109.4 -2.4796054 109.37989 -14.565459 -69.028564
1850000000 -12.858645 97.267166 -2.4934809 107.7287 -2.4774811 107.71573 -14.572434 -69.789101
1860000000 -12.887716 94.810181 -2.4928584 106.06556 -2.4771512 106.04604 -14.571095 -70.506989
1870000000 -12.911398 92.336899 -2.492527 104.40505 -2.4756556 104.38397 -14.570347 -71.202637
1880000000 -12.937931 89.845718 -2.492079 102.74883 -2.477248 102.72168 -14.56617 -71.945457
1890000000 -12.971245 87.359291 -2.4924934 101.09245 -2.4783614 101.06491 -14.565633 -72.689125
1900000000 -13.002182 84.964088 -2.492296 99.4347 -2.4781885 99.409386 -14.570203 -73.427551
1910000000 -13.023847 82.618065 -2.4936526 97.774963 -2.4795113 97.754631 -14.576794 -74.128563
1920000000 -13.033807 80.277596 -2.4969838 96.121643 -2.4809263 96.099327 -14.575108 -74.802986
1930000000 -13.033236 77.880417 -2.5020206 94.47538 -2.4846225 94.44281 -14.56712 -75.500008
1940000000 -13.039083 75.42141 -2.5049496 92.841339 -2.488831 92.801468 -14.557088 -76.242889
1950000000 -13.050766 73.007195 -2.5070014 91.200012 -2.4923112 91.17189 -14.550368 -77.04026
1960000000 -13.063849 70.672874 -2.5088804 89.562294 -2.4935896 89.534386 -14.549614 -77.802956
1970000000 -13.067267 68.337135 -2.5113544 87.925423 -2.4955218 87.896988 -14.54632 -78.56237
1980000000 -13.068155 65.992966 -2.5143054 86.286263 -2.4981699 86.261612 -14.539013 -79.245453
1990000000 -13.071507 63.648457 -2.5166442 84.653839 -2.5017674 84.624527 -14.524053 -79.992973
2000000000 -13.078669 61.331245 -2.5184226 83.005959 -2.5071046 83.006165 -14.508122 -80.784546
2010000000 -13.077866 59.107807 -2.5214248 81.358902 -2.5087204 81.363564 -14.493454 -81.576637
2020000000 -13.068321 56.895351 -2.5253696 79.723999 -2.5117886 79.73764 -14.480087 -82.342224
2030000000 -13.050967 54.607346 -2.5312436 78.089142 -2.5179663 78.102615 -14.467015 -83.118591
2040000000 -13.040665 52.294605 -2.5344 76.46637 -2.5216527 76.474777 -14.446376 -83.86544
2050000000 -13.028535 49.951942 -2.5381603 74.845169 -2.5265887 74.846794 -14.431528 -84.646057
2060000000 -13.021436 47.667004 -2.5433531 73.218254 -2.5301878 73.23143 -14.418002 -85.484108
2070000000 -13.01361 45.402153 -2.5462992 71.588043 -2.5331173 71.604546 -14.409874 -86.275696
2080000000 -13.003234 43.113865 -2.5498576 69.958969 -2.5364065 69.976616 -14.400851 -87.049553
2090000000 -12.996081 40.82671 -2.5543594 68.333916 -2.5414085 68.347847 -14.391562 -87.81279
2100000000 -12.999077 38.577747 -2.5585024 66.70594 -2.5452805 66.712425 -14.3752 -88.577377
2110000000 -13.000391 36.416393 -2.563731 65.077751 -2.5515501 65.091728 -14.360289 -89.401634
2120000000 -12.993205 34.319782 -2.5677166 63.448975 -2.5572014 63.466015 -14.351826 -90.253502
2130000000 -12.979949 32.22773 -2.5743401 61.829994 -2.5625839 61.843246 -14.34194 -91.120544
2140000000 -12.965165 30.065233 -2.5796988 60.212955 -2.5684457 60.220413 -14.329339 -91.968117
2150000000 -12.957195 27.932732 -2.5860603 58.605381 -2.5744545 58.607334 -14.319911 -92.865044
2160000000 -12.952113 25.855801 -2.5899918 56.992508 -2.5796232 56.993168 -14.309887 -93.775124
2170000000 -12.94455 23.811104 -2.5954261 55.37801 -2.5861206 55.383266 -14.301936 -94.7071
2180000000 -12.936018 21.775496 -2.6015556 53.773159 -2.5925853 53.780888 -14.29832 -95.673309
2190000000 -12.930876 19.706541 -2.6045396 52.166061 -2.5955284 52.180885 -14.290594 -96.642464
2200000000 -12.932837 17.669292 -2.6082668 50.561214 -2.6008043 50.573811 -14.290455 -97.614273
2210000000 -12.933911 15.697734 -2.6119905 48.949753 -2.6055565 48.963402 -14.288777 -98.585861
2220000000 -12.92951 13.764955 -2.6140935 47.339249 -2.6107585 47.361698 -14.289575 -99.607658
2230000000 -12.919035 11.791442 -2.6218665 45.730267 -2.6152537 45.753059 -14.293765 -100.58304
2240000000 -12.911993 9.7824373 -2.6271939 44.128593 -2.61924 44.152691 -14.294454 -101.58029
2250000000 -12.914658 7.7758965 -2.6315856 42.523144 -2.6238635 42.551125 -14.293291 -102.57666
2260000000 -12.920266 5.8650041 -2.6353304 40.924889 -2.629513 40.955578 -14.300096 -103.63638
2270000000 -12.921202 3.9824512 -2.6389503 39.313667 -2.6329572 39.35165 -14.306058 -104.66657
2280000000 -12.914285 2.0700064 -2.6432943 37.718182 -2.6359527 37.747032 -14.312882 -105.69783
2290000000 -12.912121 0.11448147 -2.6465638 36.121025 -2.6408868 36.144875 -14.319873 -106.75446
2300000000 -12.923324 -1.8049612 -2.6497684 34.519695 -2.6426003 34.539276 -14.328179 -107.82299
2310000000 -12.938806 -3.641433 -2.6513321 32.911797 -2.6466162 32.93338 -14.341907 -108.90764
2320000000 -12.949804 -5.3928242 -2.6569171 31.303513 -2.6487606 31.327848 -14.358752 -109.99518
2330000000 -12.946298 -7.1388817 -2.6594255 29.697069 -2.6535161 29.726934 -14.381304 -111.06733
2340000000 -12.939535 -8.9683733 -2.6643713 28.092567 -2.6557078 28.12471 -14.404133 -112.12936
2350000000 -12.945536 -10.828474 -2.6678448 26.498146 -2.660393 26.522007 -14.420794 -113.18925
2360000000 -12.961585 -12.667867 -2.6704314 24.894356 -2.6632006 24.921392 -14.445255 -114.30659
2370000000 -12.984975 -14.452056 -2.6748257 23.291788 -2.6672566 23.325283 -14.472685 -115.46748
2380000000 -13.003768 -16.208584 -2.6786866 21.68848 -2.6703765 21.725927 -14.513075 -116.63179
2390000000 -13.026552 -17.976725 -2.6823719 20.08976 -2.6715648 20.130894 -14.549589 -117.76462
2400000000 -13.05765 -19.674774 -2.6845474 18.496487 -2.6744525 18.532103 -14.590919 -118.90339
2410000000 -13.087451 -21.322409 -2.6869786 16.896524 -2.6779544 16.936666 -14.630524 -120.03739
2420000000 -13.111783 -22.927185 -2.6889052 15.297748 -2.6800785 15.342388 -14.669491 -121.25664
2430000000 -13.122885 -24.559078 -2.6917102 13.701094 -2.6818099 13.752437 -14.708116 -122.47905
2440000000 -13.134349 -26.263054 -2.6942351 12.109932 -2.6827364 12.162939 -14.761263 -123.685
2450000000 -13.165036 -28.009064 -2.6965525 10.517111 -2.6827013 10.562135 -14.814867 -124.94093
2460000000 -13.204841 -29.673922 -2.6956704 8.9164009 -2.6828854 8.9536638 -14.868965 -126.10799
2470000000 -13.24314 -31.223736 -2.6967475 7.3072867 -2.6852224 7.3410821 -14.917649 -127.30576
2480000000 -13.269444 -32.764072 -2.6973388 5.6954789 -2.6867008 5.7318144 -14.965593 -128.52051
2490000000 -13.294677 -34.308254 -2.7000589 4.0889301 -2.6871636 4.1254382 -15.019069 -129.778
2500000000 -13.321755 -35.917088 -2.7025685 2.4821703 -2.6883602 2.5154064 -15.073355 -131.04115
2510000000 -13.358221 -37.510632 -2.7029941 0.87618071 -2.6910009 0.9128679 -15.136174 -132.31494
2520000000 -13.395544 -39.056568 -2.7048392 -0.72788745 -2.6934371 -0.6924594 -15.206874 -133.55641
2530000000 -13.427601 -40.635853 -2.7076242 -2.3355329 -2.6938322 -2.2962015 -15.278317 -134.80443
2540000000 -13.471736 -42.224491 -2.7079835 -3.9355137 -2.6955147 -3.8982165 -15.356592 -136.07065
2550000000 -13.531513 -43.819359 -2.7091634 -5.5409212 -2.6964691 -5.5032969 -15.436944 -137.35826
2560000000 -13.602108 -45.31628 -2.7082872 -7.1491828 -2.6950536 -7.1123633 -15.525021 -138.66272
2570000000 -13.669256 -46.691578 -2.7071979 -8.7634029 -2.6968703 -8.7223186 -15.6222 -139.96156
2580000000 -13.719471 -48.025829 -2.7085423 -10.38872 -2.6960831 -10.34181 -15.719419 -141.2796
2590000000 -13.764119 -49.438816 -2.7096212 -12.006971 -2.6959298 -11.95894 -15.821592 -142.60207
2600000000 -13.816067 -50.946823 -2.7093565 -13.617511 -2.698997 -13.580249 -15.927687 -143.96107
2610000000 -13.890205 -52.428993 -2.7129133 -15.226123 -2.6977096 -15.19742 -16.030819 -145.35129
2620000000 -13.970713 -53.836823 -2.7110219 -16.845016 -2.6998997 -16.808966 -16.144154 -146.78862
2630000000 -14.044223 -55.195808 -2.7122483 -18.470013 -2.7002842 -18.427069 -16.265673 -148.23009
2640000000 -14.119097 -56.576065 -2.714045 -20.085403 -2.7002027 -20.037676 -16.389851 -149.64664
2650000000 -14.201305 -57.994583 -2.7138944 -21.698761 -2.7004972 -21.658583 -16.522371 -151.06531
2660000000 -14.299043 -59.324039 -2.7155552 -23.318266 -2.7005064 -23.279778 -16.638184 -152.46881
2670000000 -14.393516 -60.543343 -2.7158656 -24.940121 -2.700212 -24.911577 -16.768274 -153.90576
2680000000 -14.478148 -61.731491 -2.7161536 -26.563667 -2.7025766 -26.533136 -16.905014 -155.40674
2690000000 -14.554454 -62.934265 -2.7173693 -28.190556 -2.7013388 -28.157513 -17.053196 -156.91771
2700000000 -14.636429 -64.266853 -2.7173712 -29.811996 -2.7009232 -29.782225 -17.220709 -158.38667
2710000000 -14.741013 -65.593376 -2.7186832 -31.438925 -2.7009783 -31.401863 -17.397564 -159.79358
2720000000 -14.854662 -66.822563 -2.7177572 -33.064175 -2.7013741 -33.031487 -17.573626 -161.19351
2730000000 -14.967344 -67.934441 -2.7176204 -34.695202 -2.7004035 -34.659462 -17.750092 -162.58722
2740000000 -15.082009 -69.081818 -2.7188582 -36.329815 -2.7002561 -36.286499 -17.934166 -164.09575
2750000000 -15.194783 -70.216377 -2.7190723 -37.960865 -2.7003026 -37.919544 -18.132927 -165.67184
2760000000 -15.32476 -71.324036 -2.7202871 -39.594936 -2.6996257 -39.551285 -18.351757 -167.25439
2770000000 -15.457575 -72.310791 -2.7205806 -41.227276 -2.6987753 -41.194683 -18.57806 -168.79814
2780000000 -15.582103 -73.260689 -2.7200634 -42.865757 -2.6996837 -42.828133 -18.806459 -170.37907
2790000000 -15.692774 -74.240257 -2.7211759 -44.511375 -2.7009666 -44.468075 -19.034763 -171.9959
2800000000 -15.814166 -75.305336 -2.7231321 -46.149284 -2.7005453 -46.104694 -19.280483 -173.70032
2810000000 -15.962282 -76.379036 -2.7233276 -47.787479 -2.7019355 -47.742374 -19.533937 -175.44693
2820000000 -16.118523 -77.324257 -2.722775 -49.431793 -2.7023406 -49.377567 -19.807907 -177.17609
2830000000 -16.2728 -78.13092 -2.7243452 -51.071011 -2.7022293 -51.024014 -20.082767 -178.82936
2840000000 -16.415977 -78.913612 -2.7234216 -52.717766 -2.7026787 -52.672215 -20.365988 179.50084
2850000000 -16.562475 -79.722237 -2.7237422 -54.361092 -2.7024615 -54.325352 -20.652491 177.7798
2860000000 -16.719397 -80.521378 -2.72488 -56.001343 -2.7025373 -55.978149 -20.952677 175.90381
2870000000 -16.885935 -81.209549 -2.7254939 -57.652863 -2.70294 -57.636776 -21.289637 174.01471
2880000000 -17.043573 -81.776451 -2.7265794 -59.304081 -2.704834 -59.284931 -21.654964 172.11565
2890000000 -17.198864 -82.357933 -2.7281456 -60.954823 -2.7067094 -60.944912 -22.053896 170.25908
2900000000 -17.355356 -82.995354 -2.7288251 -62.617222 -2.706651 -62.603191 -22.475882 168.35048
2910000000 -17.539358 -83.571861 -2.7292676 -64.273537 -2.7084064 -64.25869 -22.905989 166.46036
2920000000 -17.727795 -83.995361 -2.7306659 -65.93206 -2.7091489 -65.922218 -23.371592 164.3981
2930000000 -17.906261 -84.289497 -2.7319853 -67.601135 -2.7087026 -67.584236 -23.860561 162.17744
2940000000 -18.085588 -84.556068 -2.7332447 -69.26889 -2.7111568 -69.248352 -24.383959 159.78009
2950000000 -18.271408 -84.787956 -2.7347825 -70.930931 -2.7127385 -70.911102 -24.94606 157.18451
2960000000 -18.461973 -84.908836 -2.7362654 -72.593536 -2.7147548 -72.580223 -25.550467 154.41301
2970000000 -18.646473 -84.903831 -2.7399993 -74.262848 -2.7179308 -74.242294 -26.201197 151.48615
2980000000 -18.80615 -84.807808 -2.7403729 -75.931435 -2.7199242 -75.9123 -26.872934 148.29626
2990000000 -18.968315 -84.797485 -2.7432148 -77.602135 -2.7227612 -77.584511 -27.613449 144.77463
3000000000 -19.143637 -84.83857 -2.745496 -79.271118 -2.7247751 -79.25779 -28.385155 140.77399
3010000000 -19.344757 -84.682884 -2.7473927 -80.93882 -2.7278612 -80.922264 -29.237215 136.25928
3020000000 -19.547863 -84.19117 -2.7512596 -82.616669 -2.7294061 -82.595581 -30.166283 131.19452
3030000000 -19.711399 -83.479233 -2.754425 -84.284836 -2.733808 -84.276436 -31.159395 125.52924
