!Agilent Technologies,N5224A,MY51441093,A.09.90.21
!Agilent N5224A: A.09.90.21
!Date: Wednesday, October 01, 2025 16:38:18
!Correction: S11(Full 2 Port(1,2)) 
!S21(Full 2 Port(1,2)) 
!S12(Full 2 Port(1,2)) 
!S22(Full 2 Port(1,2)) 
!S2P File: Measurements: S11, S21, S12, S22:
# Hz S  dB   R 50
1000000000 -1.6278603 148.98865 -29.829418 45.883495 -29.80348 45.844059 -2.1932127 -179.19547
1010000000 -1.663079 146.50572 -29.256794 42.632259 -29.232731 42.638573 -2.2828593 178.26595
1020000000 -1.6985531 143.99855 -28.694159 39.416924 -28.669241 39.376114 -2.3764083 175.67885
1030000000 -1.7326597 141.47563 -28.119972 36.162292 -28.094995 36.120663 -2.4787657 173.04344
1040000000 -1.7694718 138.94231 -27.545872 32.901363 -27.519657 32.806351 -2.5864232 170.36717
1050000000 -1.8080398 136.39728 -26.973099 29.615988 -26.951271 29.526789 -2.7010958 167.64832
1060000000 -1.8462666 133.84369 -26.392134 26.325459 -26.379225 26.224493 -2.8232102 164.8952
1070000000 -1.8841403 131.27025 -25.817684 23.009108 -25.802477 22.879881 -2.9518092 162.1012
1080000000 -1.923522 128.68234 -25.236544 19.641388 -25.222279 19.552145 -3.0878034 159.26434
1090000000 -1.9627277 126.08129 -24.652 16.252821 -24.640896 16.148527 -3.232429 156.36604
1100000000 -2.0036552 123.45457 -24.067312 12.83027 -24.057888 12.730424 -3.3879313 153.41177
1110000000 -2.0472431 120.8175 -23.484686 9.3513937 -23.480301 9.2594614 -3.5540311 150.39351
1120000000 -2.0920432 118.1544 -22.90317 5.823267 -22.900337 5.733357 -3.7327645 147.33192
1130000000 -2.1394184 115.47797 -22.326141 2.2740316 -22.321026 2.2127383 -3.9264596 144.20934
1140000000 -2.1902173 112.77865 -21.753166 -1.319088 -21.744772 -1.3723243 -4.1344914 141.03755
1150000000 -2.242342 110.06911 -21.176472 -4.9511375 -21.165745 -5.0096006 -4.3574796 137.81288
1160000000 -2.2987111 107.33775 -20.601393 -8.6336756 -20.594379 -8.7096767 -4.5954204 134.51532
1170000000 -2.3569586 104.60069 -20.0308 -12.367044 -20.026541 -12.43498 -4.8506927 131.16206
1180000000 -2.420069 101.83664 -19.463106 -16.143003 -19.456781 -16.204607 -5.1266131 127.72867
1190000000 -2.4867418 99.067375 -18.899414 -19.96484 -18.888298 -20.017933 -5.4237561 124.21811
1200000000 -2.5526319 96.273537 -18.334995 -23.858372 -18.3235 -23.913277 -5.7487378 120.63074
1210000000 -2.6267343 93.469147 -17.779909 -27.823622 -17.77136 -27.895424 -6.1022072 116.96899
1220000000 -2.702811 90.652229 -17.230417 -31.837736 -17.222717 -31.931961 -6.4854937 113.22015
1230000000 -2.7843153 87.82106 -16.68895 -35.920525 -16.681921 -36.005272 -6.9054546 109.39339
1240000000 -2.8677573 84.971603 -16.15349 -40.066051 -16.148321 -40.129269 -7.3648787 105.48749
1250000000 -2.9608562 82.126389 -15.628403 -44.257038 -15.62104 -44.308117 -7.8673015 101.50043
1260000000 -3.0576899 79.265511 -15.11036 -48.524025 -15.101621 -48.581188 -8.4209681 97.415421
1270000000 -3.1602645 76.402985 -14.602303 -52.8381 -14.592501 -52.90559 -9.0334911 93.232605
1280000000 -3.2689631 73.546852 -14.105543 -57.216351 -14.097433 -57.287651 -9.7164068 88.932396
1290000000 -3.3846257 70.689552 -13.621677 -61.656063 -13.614744 -61.718773 -10.477728 84.539749
1300000000 -3.504987 67.837677 -13.149054 -66.146698 -13.142755 -66.204758 -11.332323 80.012299
1310000000 -3.6323709 64.996567 -12.690266 -70.687241 -12.683452 -70.736977 -12.301571 75.363976
1320000000 -3.7679214 62.169872 -12.248856 -75.255074 -12.2394 -75.310783 -13.410239 70.545212
1330000000 -3.9117234 59.360737 -11.821206 -79.865952 -11.813232 -79.928947 -14.698454 65.521294
1340000000 -4.0592523 56.595127 -11.407486 -84.502731 -11.401554 -84.568375 -16.219223 60.193733
1350000000 -4.2126122 53.853077 -11.010666 -89.178711 -11.004262 -89.235664 -18.065968 54.384521
1360000000 -4.3721848 51.147961 -10.631375 -93.862579 -10.624919 -93.915382 -20.406538 47.70126
1370000000 -4.5364027 48.465992 -10.269255 -98.575294 -10.260333 -98.626541 -23.541021 39.103107
1380000000 -4.7052989 45.831875 -9.9248028 -103.27499 -9.9150982 -103.33046 -28.230944 24.482702
1390000000 -4.8779225 43.239677 -9.5941601 -107.97836 -9.587369 -108.03389 -35.355019 -22.53936
1400000000 -5.0525956 40.698463 -9.2822428 -112.67322 -9.2773094 -112.71714 -31.633316 -104.23807
1410000000 -5.2287502 38.184521 -8.9860716 -117.34777 -8.9802113 -117.3922 -25.913446 -127.28675
1420000000 -5.4098406 35.712769 -8.7091074 -121.99972 -8.7020464 -122.04746 -22.390938 -137.77625
1430000000 -5.5933495 33.307652 -8.44695 -126.61703 -8.4390507 -126.66502 -19.942827 -145.03593
1440000000 -5.7757282 30.939405 -8.2006407 -131.19872 -8.19209 -131.25238 -18.10113 -151.07179
1450000000 -5.9573398 28.620768 -7.9699879 -135.73593 -7.9611459 -135.78325 -16.655649 -156.48207
1460000000 -6.1352234 26.335117 -7.7505589 -140.22606 -7.7437429 -140.26125 -15.482987 -161.50359
1470000000 -6.3151908 24.079374 -7.5454025 -144.65004 -7.5375915 -144.70695 -14.508551 -166.27301
1480000000 -6.4905906 21.867235 -7.3508406 -149.03394 -7.3425665 -149.08475 -13.688134 -170.87543
1490000000 -6.6625671 19.68083 -7.1668096 -153.36333 -7.1595945 -153.41447 -12.993403 -175.34607
1500000000 -6.8332696 17.512098 -6.992753 -157.63489 -6.9880562 -157.69254 -12.397758 -179.68221
1510000000 -7.0001225 15.357928 -6.8293147 -161.86021 -6.8256297 -161.90025 -11.888105 176.07001
1520000000 -7.1670241 13.22831 -6.6766133 -166.02284 -6.6712656 -166.06647 -11.45056 171.9158
1530000000 -7.3276076 11.124117 -6.5330319 -170.12805 -6.5264807 -170.16638 -11.070853 167.88184
1540000000 -7.4855609 9.0118475 -6.3971319 -174.1613 -6.3915906 -174.2052 -10.743397 163.91734
1550000000 -7.6423044 6.8909917 -6.2685156 -178.13219 -6.2614775 -178.17366 -10.457772 160.0238
1560000000 -7.8000755 4.7726235 -6.1436944 177.95 -6.137619 177.91054 -10.214532 156.19868
1570000000 -7.9576101 2.6708353 -6.0232105 174.08252 -6.0173769 174.04597 -10.007552 152.45329
1580000000 -8.1129522 0.58736455 -5.9099646 170.25816 -5.9044933 170.22792 -9.834878 148.78566
1590000000 -8.2663221 -1.498695 -5.8032975 166.49956 -5.7963467 166.46254 -9.6872911 145.18915
1600000000 -8.419549 -3.6073837 -5.7010727 162.79466 -5.6942282 162.75185 -9.5663223 141.6506
1610000000 -8.5718212 -5.7269325 -5.6016793 159.13887 -5.5955434 159.09439 -9.4711628 138.16319
1620000000 -8.7283602 -7.8516202 -5.5062509 155.52513 -5.4984741 155.49628 -9.4017267 134.74364
1630000000 -8.8830204 -9.9733257 -5.4154401 151.96271 -5.4068022 151.9377 -9.3518 131.40398
1640000000 -9.0413284 -12.126095 -5.3268867 148.4548 -5.3192692 148.42087 -9.3196764 128.1221
1650000000 -9.2027178 -14.299908 -5.2422123 144.99185 -5.2340865 144.95461 -9.302702 124.88333
1660000000 -9.3713217 -16.461596 -5.1575131 141.57053 -5.1506133 141.52954 -9.2999811 121.67757
1670000000 -9.5405512 -18.60552 -5.077209 138.17401 -5.0691695 138.14661 -9.3157291 118.52052
1680000000 -9.7095032 -20.739599 -4.9985223 134.81308 -4.9898324 134.80241 -9.3474293 115.39758
1690000000 -9.8781528 -22.891876 -4.9250917 131.49532 -4.9129333 131.48241 -9.3895245 112.35237
1700000000 -10.055118 -25.10211 -4.8537507 128.23524 -4.8400764 128.19942 -9.4460478 109.35009
1710000000 -10.238075 -27.30073 -4.7822862 125.00416 -4.7706509 124.96033 -9.5095816 106.38331
1720000000 -10.430629 -29.461325 -4.7117529 121.79636 -4.7041121 121.76986 -9.5857201 103.46073
1730000000 -10.622142 -31.617857 -4.6436524 118.6153 -4.635241 118.60565 -9.6725903 100.57483
1740000000 -10.814545 -33.816608 -4.5788736 115.47849 -4.5676808 115.47392 -9.7687216 97.760475
1750000000 -11.015086 -36.051926 -4.5162621 112.37252 -4.5019479 112.36671 -9.8755035 94.997864
1760000000 -11.229741 -38.276093 -4.4533601 109.30049 -4.4381866 109.28167 -9.9901152 92.278496
1770000000 -11.453475 -40.472897 -4.3907757 106.25032 -4.376225 106.22013 -10.114154 89.604546
1780000000 -11.678776 -42.644821 -4.329237 103.22147 -4.3167324 103.1953 -10.246292 86.984421
1790000000 -11.906907 -44.837292 -4.2735648 100.21439 -4.2599854 100.19447 -10.387235 84.406921
1800000000 -12.142673 -47.071026 -4.2185555 97.25161 -4.2022557 97.230499 -10.537533 81.871803
1810000000 -12.389687 -49.327782 -4.163332 94.307899 -4.1483874 94.288223 -10.697049 79.383652
1820000000 -12.649686 -51.554382 -4.1095328 91.389229 -4.0935483 91.363876 -10.864977 76.957626
1830000000 -12.915332 -53.768856 -4.0571775 88.489853 -4.0403881 88.473152 -11.03762 74.571716
1840000000 -13.186416 -55.998638 -4.006546 85.61171 -3.9875164 85.592255 -11.214541 72.259552
1850000000 -13.471334 -58.228073 -3.9559143 82.762619 -3.9371948 82.731339 -11.395655 69.97467
1860000000 -13.764124 -60.432381 -3.906786 79.930618 -3.8898275 79.894524 -11.588649 67.716393
1870000000 -14.065407 -62.649391 -3.8591537 77.112213 -3.843195 77.083923 -11.788767 65.533371
1880000000 -14.372185 -64.861198 -3.8136439 74.320229 -3.7981174 74.293365 -11.995943 63.450191
1890000000 -14.689301 -67.144585 -3.7717249 71.551773 -3.7555954 71.533669 -12.206552 61.436249
1900000000 -15.033506 -69.461258 -3.7290421 68.813591 -3.7114856 68.782959 -12.417375 59.474049
1910000000 -15.405137 -71.715576 -3.6867409 66.093788 -3.6703882 66.059753 -12.63525 57.565292
1920000000 -15.789352 -73.910095 -3.6453638 63.39167 -3.6288762 63.360504 -12.864268 55.739216
1930000000 -16.179907 -76.050461 -3.6050699 60.701149 -3.5877581 60.667061 -13.102542 53.973728
1940000000 -16.57695 -78.240982 -3.5676534 58.027424 -3.5493517 57.99963 -13.349463 52.350197
1950000000 -16.999128 -80.519348 -3.5319893 55.380802 -3.5126643 55.347351 -13.5984 50.848412
1960000000 -17.459908 -82.839615 -3.4967153 52.754822 -3.4796093 52.720463 -13.844003 49.39328
1970000000 -17.941771 -85.105156 -3.4591093 50.142487 -3.4443049 50.107361 -14.09299 48.000099
1980000000 -18.451305 -87.351997 -3.4263258 47.54565 -3.4108922 47.521221 -14.351277 46.671047
1990000000 -18.981653 -89.694839 -3.3941405 44.975155 -3.3770585 44.948147 -14.619448 45.455864
2000000000 -19.560532 -92.108871 -3.3618672 42.3993 -3.3456619 42.406837 -14.882406 44.372021
2010000000 -20.188593 -94.484467 -3.331043 39.857815 -3.315304 39.855293 -15.147828 43.386295
2020000000 -20.863951 -96.695183 -3.3004 37.328121 -3.2845714 37.324745 -15.408216 42.483208
2030000000 -21.566362 -98.846291 -3.2724714 34.807243 -3.2579005 34.806416 -15.672867 41.671272
2040000000 -22.302679 -101.17503 -3.2431407 32.305164 -3.2303803 32.313503 -15.941052 41.00893
2050000000 -23.100004 -103.58952 -3.2181978 29.822979 -3.2038307 29.827398 -16.197992 40.460564
2060000000 -23.996401 -106.11432 -3.1947203 27.357603 -3.1799035 27.363272 -16.441275 40.080566
2070000000 -24.988428 -108.67275 -3.1713772 24.904524 -3.1565704 24.91489 -16.678936 39.797436
2080000000 -26.087721 -111.36863 -3.1487782 22.468523 -3.132978 22.481831 -16.910225 39.60635
2090000000 -27.33054 -114.55801 -3.127007 20.050028 -3.1139512 20.064548 -17.127516 39.561111
2100000000 -28.807049 -118.30755 -3.1063652 17.652279 -3.0922074 17.660728 -17.342466 39.679546
2110000000 -30.625309 -122.70871 -3.0875685 15.268306 -3.0735543 15.277251 -17.536961 39.953049
2120000000 -32.908192 -127.92512 -3.0677891 12.899939 -3.0540962 12.90548 -17.70125 40.33474
2130000000 -35.801983 -135.51097 -3.0495136 10.545895 -3.0384324 10.549824 -17.849442 40.827534
2140000000 -39.641045 -149.89813 -3.0316429 8.2094593 -3.0203023 8.2094173 -17.986155 41.393009
2150000000 -44.065159 171.11903 -3.0174105 5.8804555 -3.0050902 5.8873672 -18.093676 42.052139
2160000000 -42.371082 112.63348 -3.0000627 3.5721099 -2.9890552 3.5745263 -18.176298 42.806004
2170000000 -37.931919 86.208359 -2.9853857 1.277337 -2.9752288 1.2772754 -18.234062 43.591732
2180000000 -34.587555 74.957985 -2.972223 -1.0017793 -2.961834 -1.0029428 -18.258801 44.393402
2190000000 -32.133015 68.745934 -2.9579618 -3.2728441 -2.9494543 -3.2674232 -18.262211 45.190308
2200000000 -30.150135 64.20504 -2.9471152 -5.5203972 -2.9377491 -5.5142574 -18.2358 45.909786
2210000000 -28.529783 60.262951 -2.9343696 -7.7576146 -2.926394 -7.7496815 -18.188623 46.627766
2220000000 -27.210224 56.774654 -2.9215596 -9.9824562 -2.9157209 -9.9682007 -18.1154 47.258789
2230000000 -26.11697 53.731121 -2.911098 -12.199634 -2.9029846 -12.173229 -18.027176 47.803715
2240000000 -25.162281 51.188187 -2.9000669 -14.403318 -2.8932717 -14.372746 -17.916128 48.292843
2250000000 -24.277962 48.913494 -2.8919919 -16.594807 -2.884716 -16.559584 -17.795464 48.685276
2260000000 -23.465349 46.629807 -2.8840649 -18.764593 -2.8742013 -18.739151 -17.647476 48.940136
2270000000 -22.728401 44.186501 -2.8730361 -20.927046 -2.8671808 -20.901924 -17.503319 49.101189
2280000000 -22.097494 42.012356 -2.8669188 -23.07926 -2.8583436 -23.053694 -17.345751 49.177174
2290000000 -21.508856 40.03978 -2.8588436 -25.217352 -2.8528469 -25.197138 -17.182238 49.135738
2300000000 -20.929428 38.073181 -2.8535903 -27.342197 -2.8457024 -27.315071 -17.006083 49.023487
2310000000 -20.369757 36.049011 -2.8491552 -29.45513 -2.8405077 -29.428793 -16.826777 48.823444
2320000000 -19.866568 33.833145 -2.8435032 -31.542187 -2.8353021 -31.522942 -16.642076 48.491711
2330000000 -19.431925 31.630674 -2.8370278 -33.624916 -2.8295612 -33.604355 -16.454536 48.066528
2340000000 -19.042379 29.644855 -2.8314478 -35.706142 -2.8237202 -35.679516 -16.267694 47.54998
2350000000 -18.666159 27.805056 -2.8273463 -37.768085 -2.8193791 -37.745338 -16.075428 47.033211
2360000000 -18.297392 26.027243 -2.8228841 -39.82272 -2.8135846 -39.795647 -15.884011 46.382275
2370000000 -17.944689 24.216158 -2.8204308 -41.860424 -2.8126731 -41.833309 -15.692066 45.66087
2380000000 -17.614471 22.425327 -2.8185179 -43.886635 -2.8075855 -43.854568 -15.502452 44.830494
2390000000 -17.301405 20.704243 -2.815414 -45.902077 -2.8056881 -45.864101 -15.322926 43.957672
2400000000 -16.989069 18.94898 -2.8136268 -47.902836 -2.8017335 -47.858616 -15.144752 43.071461
2410000000 -16.687193 17.120403 -2.8103144 -49.89259 -2.7970798 -49.845512 -14.969705 42.16526
2420000000 -16.414825 15.224257 -2.8078809 -51.864182 -2.7948699 -51.827503 -14.79141 41.202572
2430000000 -16.171486 13.370721 -2.8041782 -53.835384 -2.7919486 -53.79668 -14.617151 40.19751
2440000000 -15.941496 11.668148 -2.8011775 -55.802925 -2.7892087 -55.761024 -14.452475 39.04995
2450000000 -15.704292 10.003194 -2.800525 -57.762413 -2.7863905 -57.712318 -14.295431 37.917736
2460000000 -15.465329 8.2973394 -2.7989461 -59.711781 -2.7843394 -59.662251 -14.148571 36.742176
2470000000 -15.235797 6.4464054 -2.7983565 -61.640892 -2.7841032 -61.603046 -14.006952 35.60976
2480000000 -15.038382 4.5891743 -2.7951548 -63.562069 -2.7818136 -63.530403 -13.863767 34.400913
2490000000 -14.857795 2.8214302 -2.7938759 -65.477882 -2.7801952 -65.444229 -13.719252 33.141609
2500000000 -14.684694 1.1153582 -2.7931626 -67.384308 -2.7787702 -67.3573 -13.578287 31.871071
2510000000 -14.510679 -0.53391981 -2.7927675 -69.282776 -2.7771928 -69.250946 -13.442364 30.540188
2520000000 -14.348543 -2.1910269 -2.7931149 -71.175186 -2.7775803 -71.137032 -13.31316 29.190689
2530000000 -14.195898 -3.8011408 -2.7919436 -73.053169 -2.7765789 -73.027313 -13.187717 27.846909
2540000000 -14.044211 -5.3516636 -2.7900512 -74.933342 -2.7771015 -74.896385 -13.064052 26.469948
2550000000 -13.881874 -6.8788714 -2.7933846 -76.80143 -2.7789967 -76.759598 -12.944175 25.098797
2560000000 -13.717131 -8.4943819 -2.794385 -78.65448 -2.7791455 -78.606689 -12.826777 23.724268
2570000000 -13.5706 -10.221186 -2.7957838 -80.485489 -2.7810822 -80.447266 -12.712107 22.325691
2580000000 -13.445429 -11.944144 -2.7942579 -82.310898 -2.7804441 -82.283722 -12.606029 20.959993
2590000000 -13.335726 -13.57272 -2.7924213 -84.144257 -2.7799304 -84.103149 -12.498572 19.576042
2600000000 -13.228042 -15.098721 -2.7917745 -85.966042 -2.7789545 -85.927811 -12.396614 18.207777
2610000000 -13.113635 -16.594847 -2.7939239 -87.781418 -2.7792182 -87.741112 -12.295832 16.832314
2620000000 -13.000522 -18.166298 -2.7954037 -89.585167 -2.7806425 -89.546585 -12.200124 15.412242
2630000000 -12.898979 -19.757582 -2.7952306 -91.385292 -2.7805717 -91.347298 -12.112912 13.977929
2640000000 -12.804333 -21.285677 -2.7953815 -93.17601 -2.7816057 -93.136993 -12.030232 12.54967
2650000000 -12.711027 -22.790302 -2.7966485 -94.959694 -2.7820959 -94.918053 -11.956051 11.124926
2660000000 -12.61108 -24.317152 -2.7993028 -96.732986 -2.7842255 -96.689728 -11.878798 9.7329216
2670000000 -12.516582 -25.92436 -2.8016174 -98.490135 -2.784421 -98.459969 -11.805247 8.3273439
2680000000 -12.442159 -27.530588 -2.8028438 -100.23355 -2.785392 -100.21133 -11.728902 6.8730826
2690000000 -12.377861 -29.092218 -2.8006001 -101.98045 -2.7859302 -101.95901 -11.657007 5.3861232
2700000000 -12.314117 -30.52998 -2.7998343 -103.73436 -2.7836244 -103.70229 -11.594393 3.8812051
2710000000 -12.240788 -31.960405 -2.8017216 -105.48755 -2.7831676 -105.44019 -11.53536 2.4040537
2720000000 -12.166764 -33.457588 -2.802851 -107.21869 -2.7836766 -107.17341 -11.477562 0.9740628
2730000000 -12.098444 -34.98423 -2.8052816 -108.93787 -2.7832813 -108.90894 -11.420618 -0.44044363
2740000000 -12.042436 -36.489697 -2.8061798 -110.65027 -2.7859035 -110.62437 -11.361258 -1.8606852
2750000000 -11.985101 -37.961178 -2.805999 -112.3624 -2.786253 -112.33309 -11.304128 -3.2919583
2760000000 -11.931402 -39.437637 -2.8081408 -114.06404 -2.7860558 -114.02413 -11.251941 -4.7178578
2770000000 -11.878675 -40.972931 -2.8100893 -115.75854 -2.7857523 -115.71298 -11.208566 -6.1118717
2780000000 -11.839128 -42.502052 -2.8091249 -117.4416 -2.7848938 -117.40538 -11.16415 -7.4922061
2790000000 -11.812586 -43.992401 -2.8057845 -119.12631 -2.7838721 -119.09415 -11.119493 -8.8567028
2800000000 -11.78334 -45.405106 -2.8054299 -120.8134 -2.782722 -120.77542 -11.080686 -10.239006
2810000000 -11.747554 -46.800102 -2.8062878 -122.49854 -2.7818105 -122.45643 -11.046719 -11.642698
2820000000 -11.707183 -48.247566 -2.8066986 -124.17735 -2.7814322 -124.12016 -11.018318 -13.059504
2830000000 -11.673176 -49.740356 -2.8073442 -125.83241 -2.7817652 -125.79343 -10.993875 -14.434452
2840000000 -11.650323 -51.237827 -2.8058057 -127.4848 -2.7805383 -127.45196 -10.969621 -15.798855
2850000000 -11.63087 -52.677795 -2.8045328 -129.1353 -2.7815406 -129.10565 -10.943704 -17.152878
2860000000 -11.61088 -54.108337 -2.8042803 -130.78304 -2.7796333 -130.75922 -10.915239 -18.548769
2870000000 -11.589137 -55.575325 -2.8027651 -132.4214 -2.7789433 -132.40329 -10.892429 -19.953194
2880000000 -11.576941 -57.054111 -2.8024249 -134.0544 -2.7775187 -134.03947 -10.872279 -21.375616
2890000000 -11.572401 -58.511375 -2.7997961 -135.68416 -2.7755878 -135.68445 -10.854428 -22.788412
2900000000 -11.571445 -59.920937 -2.7974465 -137.32561 -2.7741702 -137.31918 -10.842938 -24.153814
2910000000 -11.564034 -61.294876 -2.7962513 -138.96022 -2.7727809 -138.95381 -10.829504 -25.496969
2920000000 -11.554392 -62.71175 -2.7943172 -140.59024 -2.7715359 -140.57948 -10.816352 -26.818548
2930000000 -11.553757 -64.157509 -2.7920008 -142.20844 -2.7685196 -142.19553 -10.802183 -28.136707
2940000000 -11.559602 -65.603165 -2.7897344 -143.82295 -2.7674949 -143.81126 -10.793504 -29.435694
2950000000 -11.563001 -67.026558 -2.788198 -145.44109 -2.7644804 -145.4196 -10.783854 -30.75288
2960000000 -11.569631 -68.456284 -2.7868278 -147.04816 -2.7617812 -147.02884 -10.7826 -32.045288
2970000000 -11.583538 -69.921188 -2.7855287 -148.64241 -2.7600198 -148.62476 -10.781858 -33.309578
2980000000 -11.608274 -71.40818 -2.782099 -150.23067 -2.7571535 -150.22513 -10.78548 -34.561165
2990000000 -11.64033 -72.81385 -2.7778049 -151.82071 -2.7542825 -151.82817 -10.79219 -35.835491
3000000000 -11.66825 -74.147766 -2.7724948 -153.4281 -2.7523563 -153.42163 -10.800229 -37.111618
3010000000 -11.686855 -75.497978 -2.7697489 -155.0293 -2.7500315 -155.00461 -10.814176 -38.390942
3020000000 -11.700719 -76.91082 -2.7688122 -156.62045 -2.7478352 -156.5966 -10.832893 -39.656063
3030000000 -11.723868 -78.400017 -2.7682841 -158.19093 -2.7444561 -158.17944 -10.851601 -40.911922
3040000000 -11.77089 -79.874359 -2.7661259 -159.75276 -2.7398238 -159.75754 -10.870009 -42.155052
