!Agilent Technologies,N5224A,MY51441093,A.09.90.21
!Agilent N5224A: A.09.90.21
!Date: Wednesday, October 01, 2025 16:39:17
!Correction: S11(Full 2 Port(1,2)) 
!S21(Full 2 Port(1,2)) 
!S12(Full 2 Port(1,2)) 
!S22(Full 2 Port(1,2)) 
!S2P File: Measurements: S11, S21, S12, S22:
# Hz S  dB   R 50
1000000000 -1.7205653 149.10536 -19.031488 -85.250908 -19.004509 -85.259293 -6.0584564 -114.83876
1010000000 -1.7605855 146.67033 -18.645239 -89.342758 -18.620598 -89.384171 -6.0667539 -120.33899
1020000000 -1.8020914 144.21664 -18.267536 -93.439758 -18.240517 -93.483788 -6.0793457 -125.86048
1030000000 -1.8413146 141.75998 -17.897661 -97.541458 -17.872057 -97.590416 -6.0964899 -131.3996
1040000000 -1.8848511 139.29463 -17.5413 -101.60996 -17.510077 -101.67976 -6.1185679 -136.94965
1050000000 -1.9275699 136.82692 -17.189907 -105.65179 -17.163048 -105.74934 -6.1456981 -142.51648
1060000000 -1.9709575 134.34555 -16.844078 -109.66162 -16.824078 -109.786 -6.1767678 -148.06537
1070000000 -2.015274 131.8654 -16.506718 -113.65244 -16.492731 -113.78242 -6.2081099 -153.60698
1080000000 -2.0588791 129.37617 -16.179819 -117.63886 -16.167469 -117.7346 -6.241076 -159.13005
1090000000 -2.1042528 126.88214 -15.861266 -121.56638 -15.849205 -121.67828 -6.2748423 -164.63953
1100000000 -2.1490271 124.37216 -15.549606 -125.49343 -15.539143 -125.60595 -6.3090906 -170.13551
1110000000 -2.196017 121.86526 -15.241464 -129.38858 -15.238644 -129.51257 -6.3401237 -175.61172
1120000000 -2.2429268 119.34211 -14.946339 -133.2758 -14.943383 -133.37605 -6.372263 178.94553
1130000000 -2.2918601 116.81037 -14.661491 -137.1382 -14.658606 -137.2135 -6.4055305 173.52391
1140000000 -2.3418708 114.28322 -14.384832 -140.9482 -14.381022 -141.01866 -6.4388208 168.14844
1150000000 -2.3927355 111.74475 -14.116847 -144.72209 -14.110214 -144.79077 -6.4712353 162.82106
1160000000 -2.4450736 109.19482 -13.850795 -148.46532 -13.84622 -148.54144 -6.4987364 157.54359
1170000000 -2.498888 106.64732 -13.593485 -152.16614 -13.589871 -152.24146 -6.5243907 152.31606
1180000000 -2.5526927 104.09419 -13.341871 -155.8432 -13.338313 -155.9095 -6.5455637 147.14113
1190000000 -2.6077902 101.53688 -13.095996 -159.47958 -13.089056 -159.53502 -6.5646009 142.01799
1200000000 -2.6628709 98.974319 -12.855353 -163.07919 -12.847047 -163.14587 -6.5811462 136.94977
1210000000 -2.7203562 96.40493 -12.622684 -166.65225 -12.611713 -166.73019 -6.596282 131.9433
1220000000 -2.7747765 93.827271 -12.391618 -170.19955 -12.384083 -170.2831 -6.6079617 127.00506
1230000000 -2.8315961 91.245682 -12.167838 -173.7123 -12.163006 -173.79103 -6.6190829 122.12858
1240000000 -2.8895175 88.648926 -11.94904 -177.19354 -11.943555 -177.26216 -6.6252751 117.32779
1250000000 -2.9487126 86.05616 -11.734263 179.36215 -11.728297 179.31235 -6.6326661 112.60947
1260000000 -3.0096447 83.454193 -11.523154 175.94955 -11.515566 175.89557 -6.6342349 107.95519
1270000000 -3.0698581 80.84742 -11.318137 172.56519 -11.307726 172.50395 -6.6361675 103.37164
1280000000 -3.1317213 78.235512 -11.113617 169.21898 -11.10681 169.14107 -6.6361623 98.851967
1290000000 -3.1952693 75.607979 -10.914226 165.88748 -10.90804 165.80658 -6.6349325 94.411674
1300000000 -3.2580438 72.98571 -10.719044 162.56889 -10.713704 162.50957 -6.6352839 90.031593
1310000000 -3.3228009 70.354919 -10.52859 159.27994 -10.521934 159.23819 -6.6335592 85.741035
1320000000 -3.3884816 67.712875 -10.343376 156.03899 -10.33584 155.98926 -6.6321177 81.534492
1330000000 -3.4553277 65.049835 -10.160672 152.83499 -10.153179 152.77292 -6.6305161 77.399139
1340000000 -3.5249503 62.394939 -9.9784985 149.65796 -9.9725838 149.58528 -6.6266451 73.333
1350000000 -3.594965 59.725872 -9.7971783 146.48914 -9.7931786 146.41872 -6.6236792 69.342476
1360000000 -3.6671131 57.069637 -9.6221323 143.33263 -9.6156816 143.28792 -6.6227345 65.409325
1370000000 -3.7383959 54.397568 -9.4491673 140.19223 -9.4428234 140.15656 -6.6221943 61.550129
1380000000 -3.8124578 51.712177 -9.282773 137.09724 -9.2746878 137.04155 -6.6244893 57.754982
1390000000 -3.8869941 49.012302 -9.1155529 134.02702 -9.1089411 133.95972 -6.6289129 54.02729
1400000000 -3.9648404 46.307301 -8.9488516 130.97176 -8.9440432 130.91147 -6.6343246 50.360813
1410000000 -4.0448971 43.596058 -8.7855482 127.92689 -8.7828016 127.87865 -6.6433368 46.758522
1420000000 -4.1264892 40.873932 -8.6267672 124.89436 -8.6214361 124.85333 -6.6540508 43.227657
1430000000 -4.2106838 38.150234 -8.4708281 121.88977 -8.4626999 121.84903 -6.66466 39.743519
1440000000 -4.2962222 35.412457 -8.3147154 118.91232 -8.3069105 118.85804 -6.6778936 36.313744
1450000000 -4.3871856 32.669865 -8.1619291 115.93867 -8.1565933 115.88158 -6.69379 32.927853
1460000000 -4.4771962 29.927826 -8.0122538 112.97651 -8.0059471 112.92809 -6.711997 29.580576
1470000000 -4.5695076 27.176403 -7.8639483 110.02754 -7.8572192 109.97832 -6.7337341 26.293272
1480000000 -4.6628017 24.408232 -7.7204237 107.10543 -7.7134719 107.04753 -6.7582545 23.060253
1490000000 -4.7593856 21.622185 -7.5781083 104.20018 -7.5717912 104.14814 -6.7862401 19.8813
1500000000 -4.8593969 18.829353 -7.435976 101.31322 -7.4315729 101.26607 -6.8145137 16.759243
1510000000 -4.9615998 16.020571 -7.2957191 98.437256 -7.2922802 98.39856 -6.8469291 13.682516
1520000000 -5.068388 13.211811 -7.1593876 95.577248 -7.1518307 95.53244 -6.8815746 10.658747
1530000000 -5.1767316 10.388085 -7.0233903 92.728859 -7.0169477 92.672363 -6.9199986 7.6747532
1540000000 -5.2920837 7.5723014 -6.8898025 89.876762 -6.8841887 89.820305 -6.9608302 4.7355781
1550000000 -5.4084558 4.7539196 -6.7581425 87.033516 -6.7541561 86.988945 -7.0066233 1.8213654
1560000000 -5.525579 1.9300597 -6.630887 84.192505 -6.6260991 84.169937 -7.058105 -1.0411383
1570000000 -5.6427588 -0.90971214 -6.5058389 81.382767 -6.4986968 81.354118 -7.1149216 -3.8645749
1580000000 -5.767189 -3.7715874 -6.3832765 78.58667 -6.3745241 78.55265 -7.1749496 -6.6393065
1590000000 -5.8968525 -6.6442852 -6.2613511 75.811516 -6.2550988 75.759865 -7.2404861 -9.3729229
1600000000 -6.0321655 -9.5201368 -6.1402574 73.035767 -6.1361532 72.991394 -7.3078413 -12.070548
1610000000 -6.1695895 -12.402185 -6.0231624 70.264862 -6.017405 70.229713 -7.3795815 -14.747393
1620000000 -6.3115082 -15.294718 -5.9075918 67.506424 -5.8999639 67.479118 -7.45895 -17.388365
1630000000 -6.4584951 -18.201834 -5.7939897 64.753616 -5.7850194 64.722435 -7.5407262 -19.978498
1640000000 -6.6116257 -21.111498 -5.6817346 62.011761 -5.6731992 61.973232 -7.624311 -22.540684
1650000000 -6.7686615 -24.024628 -5.5729423 59.265667 -5.5664215 59.229946 -7.7120428 -25.073761
1660000000 -6.9270573 -26.954313 -5.4680543 56.533882 -5.4611225 56.509529 -7.8058124 -27.574387
1670000000 -7.0890417 -29.915417 -5.3666768 53.820438 -5.3569112 53.799191 -7.906558 -30.038509
1680000000 -7.2601547 -32.904373 -5.2658296 51.13018 -5.2532368 51.096111 -8.0116491 -32.449352
1690000000 -7.4394064 -35.89846 -5.1646914 48.44051 -5.1537724 48.396641 -8.1208744 -34.8102
1700000000 -7.6259003 -38.880619 -5.0664964 45.748993 -5.0560546 45.71159 -8.2318087 -37.122295
1710000000 -7.8119044 -41.866497 -4.9713192 43.051735 -4.9624486 43.031796 -8.3473282 -39.421867
1720000000 -8.0033808 -44.874226 -4.8794041 40.375828 -4.8707356 40.365795 -8.4719353 -41.688618
1730000000 -8.2028093 -47.939583 -4.7931366 37.722359 -4.7810402 37.705441 -8.6030455 -43.921188
1740000000 -8.4138279 -51.031498 -4.7051721 35.079998 -4.6913886 35.051399 -8.7400589 -46.10033
1750000000 -8.6315603 -54.108444 -4.6170249 32.430141 -4.6038489 32.407543 -8.8806963 -48.221878
1760000000 -8.8543768 -57.180531 -4.5338492 29.785681 -4.5225849 29.768551 -9.0294542 -50.303558
1770000000 -9.0801458 -60.292431 -4.4539852 27.159662 -4.4408717 27.141762 -9.1786089 -52.349518
1780000000 -9.3135729 -63.465168 -4.3776603 24.545097 -4.3621149 24.524309 -9.3350124 -54.342075
1790000000 -9.5579891 -66.69101 -4.3021526 21.944214 -4.2869663 21.921083 -9.4959965 -56.30904
1800000000 -9.8147478 -69.917168 -4.2267962 19.355343 -4.211277 19.327644 -9.6609907 -58.217045
1810000000 -10.076889 -73.168045 -4.1544743 16.763575 -4.1403422 16.736095 -9.832655 -60.100418
1820000000 -10.343446 -76.439468 -4.0846286 14.177657 -4.0679708 14.157467 -10.009724 -61.903393
1830000000 -10.617176 -79.756058 -4.0181255 11.608459 -4.0012274 11.581058 -10.19208 -63.649284
1840000000 -10.901072 -83.133949 -3.9548354 9.0469675 -3.9357131 9.0131655 -10.375583 -65.337761
1850000000 -11.19004 -86.540062 -3.8917232 6.4954705 -3.8748381 6.468524 -10.56432 -66.982368
1860000000 -11.485476 -90.013763 -3.8330986 3.9525154 -3.8158467 3.932128 -10.762539 -68.571632
1870000000 -11.787115 -93.561333 -3.775713 1.4305382 -3.7573376 1.4074455 -10.965249 -70.090469
1880000000 -12.102947 -97.19236 -3.7187033 -1.0850303 -3.7022674 -1.1109229 -11.172873 -71.522057
1890000000 -12.436989 -100.87273 -3.6649113 -3.5830474 -3.6481514 -3.6221769 -11.383611 -72.900551
1900000000 -12.777796 -104.5636 -3.612618 -6.0786386 -3.5961175 -6.1210518 -11.593834 -74.206039
1910000000 -13.12329 -108.30518 -3.5632708 -8.5700827 -3.54917 -8.6026993 -11.808431 -75.477448
1920000000 -13.46888 -112.16032 -3.5171762 -11.043256 -3.5017018 -11.068474 -12.033413 -76.686722
1930000000 -13.818273 -116.2019 -3.4746704 -13.499091 -3.455838 -13.528432 -12.265519 -77.787437
1940000000 -14.189773 -120.3866 -3.4320757 -15.934372 -3.4128222 -15.975679 -12.49719 -78.784706
1950000000 -14.571297 -124.67638 -3.3903828 -18.364561 -3.3727217 -18.409391 -12.724673 -79.695259
1960000000 -14.956544 -129.05559 -3.3484688 -20.789938 -3.3335698 -20.825884 -12.949553 -80.557007
1970000000 -15.34478 -133.60704 -3.3109438 -23.198809 -3.2958338 -23.229443 -13.17547 -81.363037
1980000000 -15.73437 -138.35321 -3.2752097 -25.598473 -3.2586286 -25.62726 -13.406221 -82.085678
1990000000 -16.129881 -143.30284 -3.2407074 -27.976189 -3.2243907 -28.010349 -13.635888 -82.688118
2000000000 -16.530451 -148.40237 -3.2073224 -30.36767 -3.1938353 -30.371758 -13.859629 -83.154381
2010000000 -16.906319 -153.63478 -3.1766427 -32.745907 -3.1626315 -32.747223 -14.079161 -83.54245
2020000000 -17.264246 -159.05981 -3.1484146 -35.099785 -3.1346738 -35.095875 -14.291633 -83.835419
2030000000 -17.600128 -164.7988 -3.1243107 -37.441658 -3.1088052 -37.433205 -14.503195 -84.037132
2040000000 -17.918987 -170.81519 -3.0987594 -39.76313 -3.0842996 -39.758617 -14.712115 -84.102425
2050000000 -18.223372 -177.09673 -3.0752065 -42.07032 -3.0618787 -42.070515 -14.910061 -84.055496
2060000000 -18.499611 176.50546 -3.054667 -44.373116 -3.0416908 -44.365696 -15.089099 -83.88446
2070000000 -18.730993 169.99608 -3.0345311 -46.658737 -3.0222626 -46.646919 -15.26107 -83.679916
2080000000 -18.91205 163.29564 -3.0167856 -48.931744 -3.0026162 -48.916809 -15.423029 -83.419037
2090000000 -19.050648 156.48141 -2.9999204 -51.179657 -2.9878688 -51.168335 -15.574142 -83.029984
2100000000 -19.149725 149.66101 -2.9844115 -53.418888 -2.9721804 -53.414078 -15.715323 -82.578438
2110000000 -19.191263 142.96979 -2.971225 -55.641403 -2.9565718 -55.636639 -15.837173 -82.066582
2120000000 -19.158274 136.41588 -2.9567256 -57.859264 -2.9448538 -57.850052 -15.939424 -81.525536
2130000000 -19.06126 129.97441 -2.9443984 -60.059986 -2.9323547 -60.054398 -16.025518 -80.958008
2140000000 -18.918398 123.61326 -2.9333248 -62.243706 -2.9209502 -62.24165 -16.102165 -80.363968
2150000000 -18.74077 117.37609 -2.9229543 -64.410614 -2.9112999 -64.41745 -16.156092 -79.756958
2160000000 -18.540533 111.4062 -2.912775 -66.568771 -2.9015324 -66.577301 -16.192904 -79.129471
2170000000 -18.313471 105.75556 -2.9031291 -68.721428 -2.8935585 -68.727531 -16.212851 -78.531792
2180000000 -18.057455 100.35175 -2.8967512 -70.854904 -2.8889174 -70.85556 -16.216166 -77.959633
2190000000 -17.791695 95.168167 -2.8888214 -72.97934 -2.8807473 -72.969978 -16.199482 -77.427124
2200000000 -17.532824 90.187332 -2.882436 -75.083954 -2.8748739 -75.079773 -16.168474 -76.95459
2210000000 -17.276312 85.533165 -2.8759234 -77.18103 -2.8685746 -77.172729 -16.12838 -76.510902
2220000000 -17.008373 81.205574 -2.8712385 -79.272873 -2.8660645 -79.252998 -16.071493 -76.176193
2230000000 -16.725821 77.031845 -2.8676746 -81.351616 -2.8621716 -81.325607 -16.009586 -75.856071
2240000000 -16.446568 72.984604 -2.8655856 -83.41275 -2.8574483 -83.387093 -15.934327 -75.567879
2250000000 -16.176888 69.002197 -2.8645551 -85.462746 -2.8565981 -85.435822 -15.85157 -75.35128
2260000000 -15.925617 65.242271 -2.8603842 -87.49855 -2.8537345 -87.473579 -15.755704 -75.240623
2270000000 -15.678932 61.645557 -2.8580859 -89.530609 -2.8535028 -89.497192 -15.659648 -75.173203
2280000000 -15.428033 58.205479 -2.8582606 -91.547844 -2.8527923 -91.515442 -15.556778 -75.173828
2290000000 -15.181275 54.790615 -2.8597496 -93.551079 -2.8516126 -93.523285 -15.445102 -75.258263
2300000000 -14.957668 51.434402 -2.8597102 -95.540863 -2.8528121 -95.521156 -15.329271 -75.387383
2310000000 -14.753363 48.220169 -2.8608234 -97.51918 -2.8535676 -97.506058 -15.215897 -75.615341
2320000000 -14.561797 45.22213 -2.8615754 -99.495613 -2.8553102 -99.475388 -15.099989 -75.910278
2330000000 -14.366493 42.411007 -2.8631806 -101.45943 -2.85811 -101.43459 -14.983364 -76.257034
2340000000 -14.163599 39.645367 -2.8672423 -103.40777 -2.8599861 -103.38002 -14.871483 -76.637329
2350000000 -13.970518 36.865456 -2.8690681 -105.34158 -2.8624573 -105.31123 -14.753054 -77.035324
2360000000 -13.788878 34.159443 -2.871609 -107.25378 -2.8650472 -107.22384 -14.640453 -77.54718
2370000000 -13.62102 31.528069 -2.875078 -109.16179 -2.8675303 -109.1291 -14.52805 -78.107452
2380000000 -13.455735 28.996855 -2.8769422 -111.06466 -2.8682687 -111.02892 -14.421566 -78.755295
2390000000 -13.289468 26.466902 -2.8790324 -112.95928 -2.8704655 -112.92144 -14.318883 -79.401474
2400000000 -13.137842 23.990068 -2.8822267 -114.8394 -2.8720729 -114.80443 -14.223464 -80.089088
2410000000 -12.998137 21.550188 -2.8834302 -116.72111 -2.8742275 -116.68548 -14.126672 -80.770943
2420000000 -12.863384 19.225199 -2.8864119 -118.59055 -2.8773613 -118.55136 -14.025069 -81.539635
2430000000 -12.724874 16.936596 -2.8895986 -120.45387 -2.8816209 -120.40635 -13.925574 -82.337158
2440000000 -12.582727 14.637599 -2.8939629 -122.30093 -2.8846424 -122.2468 -13.833498 -83.212601
2450000000 -12.454784 12.286585 -2.9000404 -124.13288 -2.8853869 -124.08304 -13.748402 -84.135353
2460000000 -12.342106 9.9478588 -2.9008248 -125.95419 -2.8883069 -125.9164 -13.666512 -85.048035
2470000000 -12.249324 7.7310853 -2.9027715 -127.77889 -2.8913174 -127.74828 -13.584913 -85.957687
2480000000 -12.155732 5.6251893 -2.9054651 -129.60196 -2.8939917 -129.56956 -13.500001 -86.915672
2490000000 -12.054685 3.5738785 -2.908937 -131.41531 -2.8949077 -131.37848 -13.414985 -87.917076
2500000000 -11.954971 1.5012543 -2.9137046 -133.21722 -2.89838 -133.18471 -13.332826 -88.938667
2510000000 -11.862201 -0.56531876 -2.9165492 -135.00706 -2.9031873 -134.97693 -13.257779 -90.000198
2520000000 -11.774097 -2.5735464 -2.9208887 -136.78952 -2.9070954 -136.75746 -13.189306 -91.059052
2530000000 -11.681205 -4.5601778 -2.9236753 -138.56914 -2.9099002 -138.53107 -13.125272 -92.097359
2540000000 -11.596563 -6.5681806 -2.927182 -140.33614 -2.914788 -140.29742 -13.064724 -93.17849
2550000000 -11.519328 -8.619194 -2.9318924 -142.08969 -2.9184639 -142.05458 -13.007236 -94.261932
2560000000 -11.460352 -10.64097 -2.9337699 -143.83554 -2.9195654 -143.80582 -12.95365 -95.366989
2570000000 -11.414531 -12.552088 -2.9340332 -145.5833 -2.9219658 -145.55252 -12.906739 -96.489334
2580000000 -11.362434 -14.366166 -2.9344566 -147.34189 -2.9214799 -147.29825 -12.866135 -97.621544
2590000000 -11.301854 -16.1448 -2.9366257 -149.09192 -2.922756 -149.03783 -12.828529 -98.757027
2600000000 -11.240294 -17.974485 -2.9400523 -150.82236 -2.9256172 -150.77975 -12.795115 -99.910812
2610000000 -11.18836 -19.83876 -2.943866 -152.54097 -2.9271696 -152.51323 -12.761838 -101.09674
2620000000 -11.148726 -21.681416 -2.9437716 -154.26025 -2.9318612 -154.2317 -12.732224 -102.32093
2630000000 -11.112394 -23.460209 -2.9451199 -155.97574 -2.9338291 -155.94179 -12.708546 -103.55884
2640000000 -11.072475 -25.224436 -2.9476225 -157.69106 -2.932899 -157.64314 -12.687462 -104.8011
2650000000 -11.034991 -27.012032 -2.9506836 -159.38492 -2.9349656 -159.34038 -12.673375 -106.02925
2660000000 -11.010888 -28.806416 -2.9507129 -161.07886 -2.9356372 -161.03923 -12.652751 -107.2441
2670000000 -10.994544 -30.540272 -2.9521387 -162.76639 -2.9337261 -162.74275 -12.633557 -108.48033
2680000000 -10.978094 -32.197884 -2.9514263 -164.45929 -2.9374812 -164.43153 -12.615538 -109.74877
2690000000 -10.955344 -33.808739 -2.9518461 -166.15826 -2.9358599 -166.12323 -12.601269 -111.05286
2700000000 -10.92605 -35.48333 -2.9536879 -167.83998 -2.9371243 -167.80026 -12.600507 -112.35525
2710000000 -10.904901 -37.214653 -2.9556818 -169.50945 -2.9371274 -169.47319 -12.605832 -113.62128
2720000000 -10.897583 -38.930691 -2.9543622 -171.16653 -2.9374862 -171.14253 -12.613541 -114.8342
2730000000 -10.895524 -40.573235 -2.9546278 -172.83574 -2.9349256 -172.80342 -12.620628 -116.03359
2740000000 -10.895656 -42.198631 -2.9539883 -174.49817 -2.9353299 -174.45845 -12.625532 -117.25896
2750000000 -10.894504 -43.836578 -2.9530351 -176.15329 -2.9332037 -176.11136 -12.637975 -118.52592
2760000000 -10.903088 -45.471458 -2.9529293 -177.80238 -2.9313085 -177.75732 -12.656778 -119.81377
2770000000 -10.918716 -47.065922 -2.9513028 -179.45389 -2.9278283 -179.41974 -12.68429 -121.08915
2780000000 -10.936624 -48.595863 -2.9493475 178.89185 -2.9260733 178.93011 -12.713739 -122.35613
2790000000 -10.945661 -50.093884 -2.9456775 177.23689 -2.9246774 177.27328 -12.742379 -123.62785
2800000000 -10.951513 -51.624367 -2.9464645 175.5896 -2.9241776 175.62973 -12.77622 -124.93763
2810000000 -10.965277 -53.240295 -2.9462578 173.95204 -2.9216669 173.99612 -12.81097 -126.2771
2820000000 -10.988892 -54.839813 -2.943934 172.32616 -2.9221134 172.37439 -12.855115 -127.61117
2830000000 -11.019778 -56.384464 -2.941005 170.69559 -2.9188516 170.74059 -12.897071 -128.90482
2840000000 -11.052294 -57.881462 -2.9371474 169.06293 -2.9145596 169.10959 -12.93828 -130.18582
2850000000 -11.080733 -59.38588 -2.9355788 167.43719 -2.911073 167.47333 -12.97927 -131.45999
2860000000 -11.112615 -60.919277 -2.9320829 165.81783 -2.9066172 165.84076 -13.0155 -132.79106
2870000000 -11.155292 -62.428757 -2.9285345 164.2001 -2.9044974 164.21017 -13.06444 -134.13814
2880000000 -11.199214 -63.878033 -2.9257629 162.5741 -2.9030776 162.58339 -13.120123 -135.47179
2890000000 -11.240544 -65.304817 -2.9206743 160.95285 -2.8981893 160.95825 -13.182483 -136.77332
2900000000 -11.279227 -66.756111 -2.9176879 159.32924 -2.8947635 159.33888 -13.252481 -138.0527
2910000000 -11.327276 -68.257744 -2.9156559 157.71286 -2.8931456 157.72351 -13.323468 -139.2883
2920000000 -11.381137 -69.745735 -2.9108157 156.10168 -2.8890989 156.11038 -13.397923 -140.53999
2930000000 -11.441324 -71.172005 -2.9064958 154.48689 -2.8835676 154.49864 -13.476751 -141.81822
2940000000 -11.50785 -72.578178 -2.9016008 152.8721 -2.8785269 152.88971 -13.559957 -143.10576
2950000000 -11.571641 -74.006927 -2.896915 151.26727 -2.8742123 151.28415 -13.646931 -144.42781
2960000000 -11.644243 -75.404625 -2.8930867 149.66565 -2.8699732 149.6747 -13.745821 -145.72493
2970000000 -11.721167 -76.754906 -2.8881905 148.0574 -2.8629544 148.0663 -13.845622 -147.02274
2980000000 -11.798771 -78.047516 -2.8808982 146.44928 -2.8588986 146.4581 -13.948617 -148.31723
2990000000 -11.867835 -79.334335 -2.8769782 144.83615 -2.8539946 144.85007 -14.053098 -149.6235
3000000000 -11.931598 -80.692078 -2.8709378 143.2263 -2.8471539 143.24124 -14.157304 -150.95488
3010000000 -12.006286 -82.116287 -2.865598 141.62569 -2.8440454 141.63866 -14.269966 -152.29584
3020000000 -12.099982 -83.536949 -2.8601975 140.02493 -2.8379438 140.04149 -14.385477 -153.61697
3030000000 -12.207675 -84.838463 -2.8559573 138.42857 -2.8322573 138.42996 -14.503242 -154.8976
