!Agilent Technologies,N5224A,MY51441093,A.09.90.21
!Agilent N5224A: A.09.90.21
!Date: Wednesday, October 01, 2025 16:40:20
!Correction: S11(Full 2 Port(1,2)) 
!S21(Full 2 Port(1,2)) 
!S12(Full 2 Port(1,2)) 
!S22(Full 2 Port(1,2)) 
!S2P File: Measurements: S11, S21, S12, S22:
# Hz S  dB   R 50
1000000000 -1.6617657 148.9716 -20.530416 -165.53818 -20.506144 -165.55986 -5.1417665 78.809883
1010000000 -1.6988833 146.50577 -20.203365 -168.36383 -20.173527 -168.36897 -5.0911012 75.484032
1020000000 -1.7345809 144.02162 -19.877426 -171.15407 -19.843012 -171.19945 -5.0443201 72.199341
1030000000 -1.7707776 141.52312 -19.546642 -173.91492 -19.514643 -173.98364 -4.997591 68.976875
1040000000 -1.8082161 139.01447 -19.218489 -176.68469 -19.188169 -176.7607 -4.9516602 65.788193
1050000000 -1.8459151 136.5031 -18.891644 -179.42833 -18.869129 -179.5265 -4.9088058 62.655533
1060000000 -1.884258 133.97592 -18.565945 177.80753 -18.549286 177.71555 -4.865581 59.552391
1070000000 -1.9237343 131.44125 -18.249569 175.08748 -18.230955 174.96877 -4.8228531 56.486008
1080000000 -1.9611956 128.89473 -17.931738 172.36499 -17.914907 172.24898 -4.7843637 53.44735
1090000000 -2.0015898 126.33357 -17.614491 169.64633 -17.600571 169.51808 -4.7481413 50.438122
1100000000 -2.0420439 123.75702 -17.300657 166.90825 -17.292864 166.78604 -4.7147164 47.465294
1110000000 -2.0824494 121.16583 -16.993359 164.1891 -16.988531 164.07367 -4.6851387 44.52877
1120000000 -2.1244376 118.55706 -16.69059 161.49248 -16.685499 161.38699 -4.6571412 41.63414
1130000000 -2.1684716 115.93221 -16.390171 158.80081 -16.383904 158.70601 -4.6303158 38.771587
1140000000 -2.2154951 113.29759 -16.086926 156.12262 -16.082821 156.04294 -4.6026568 35.938889
1150000000 -2.2619793 110.65443 -15.788079 153.43674 -15.781192 153.37193 -4.5769577 33.132339
1160000000 -2.3099542 107.99166 -15.491549 150.75281 -15.48564 150.68227 -4.5525517 30.341295
1170000000 -2.3613179 105.32364 -15.200275 148.06763 -15.192098 147.99899 -4.5280066 27.571678
1180000000 -2.4133856 102.64329 -14.909558 145.38812 -14.90012 145.31277 -4.5090518 24.816904
1190000000 -2.4663038 99.94635 -14.621763 142.71022 -14.611471 142.63884 -4.4909954 22.077391
1200000000 -2.5195956 97.235359 -14.334423 140.03072 -14.325085 139.9702 -4.4772677 19.380524
1210000000 -2.5762954 94.511253 -14.053633 137.36328 -14.043102 137.28824 -4.4649377 16.701946
1220000000 -2.6324627 91.772446 -13.773842 134.70174 -13.762782 134.61156 -4.4545379 14.036448
1230000000 -2.6905527 89.020592 -13.491749 132.03552 -13.485836 131.9529 -4.4458394 11.390153
1240000000 -2.7508738 86.246162 -13.214115 129.34628 -13.20703 129.28287 -4.4374857 8.7611656
1250000000 -2.8138828 83.465889 -12.938504 126.66742 -12.930043 126.61005 -4.4337301 6.1383519
1260000000 -2.8802228 80.666588 -12.66692 123.97723 -12.656595 123.91593 -4.4306226 3.523006
1270000000 -2.9465458 77.852562 -12.395275 121.29628 -12.386582 121.22 -4.4339113 0.92346561
1280000000 -3.0150859 75.026001 -12.128731 118.59364 -12.121155 118.51508 -4.4375877 -1.6692984
1290000000 -3.0862005 72.180977 -11.864289 115.87878 -11.858955 115.81419 -4.4472327 -4.2441449
1300000000 -3.1587186 69.319252 -11.605026 113.15938 -11.598116 113.12233 -4.4597692 -6.8038135
1310000000 -3.2355621 66.437653 -11.348183 110.46056 -11.338235 110.41544 -4.4737153 -9.3488903
1320000000 -3.3166475 63.540382 -11.0915 107.77502 -11.081466 107.70242 -4.4906187 -11.878102
1330000000 -3.4002552 60.622677 -10.833356 105.06081 -10.827645 104.97416 -4.5090194 -14.404473
1340000000 -3.4862556 57.705593 -10.579115 102.31951 -10.574821 102.25105 -4.529901 -16.92667
1350000000 -3.5748038 54.767502 -10.331491 99.553696 -10.329239 99.50457 -4.5605206 -19.443766
1360000000 -3.6672223 51.814102 -10.092089 96.796059 -10.083467 96.765022 -4.5936694 -21.955517
1370000000 -3.7636631 48.837765 -9.8524275 94.053345 -9.8416281 94.00309 -4.6303115 -24.460772
1380000000 -3.8639288 45.844204 -9.6147318 91.31794 -9.6041355 91.241829 -4.6722126 -26.954659
1390000000 -3.9671793 42.825596 -9.3751717 88.547081 -9.3711176 88.473312 -4.7188926 -29.438614
1400000000 -4.0756936 39.798344 -9.1427078 85.759026 -9.1410971 85.709702 -4.7689099 -31.918133
1410000000 -4.1898017 36.744675 -8.9153433 82.959618 -8.9087238 82.931656 -4.8224216 -34.385681
1420000000 -4.3088837 33.668159 -8.692627 80.169212 -8.6819239 80.128342 -4.8819351 -36.852863
1430000000 -4.4344606 30.580046 -8.470396 77.375877 -8.4613314 77.316849 -4.9460635 -39.318394
1440000000 -4.5649605 27.479929 -8.2516899 74.562737 -8.2448578 74.496292 -5.0153565 -41.777576
1450000000 -4.7005873 24.367287 -8.0379753 71.725433 -8.033206 71.67382 -5.0892096 -44.233585
1460000000 -4.8419728 21.236263 -7.8293309 68.887619 -7.8239155 68.841614 -5.1689167 -46.676979
1470000000 -4.9902782 18.081774 -7.6270385 66.051369 -7.6195912 66.006935 -5.2553072 -49.098511
1480000000 -5.1438603 14.906199 -7.4256434 63.224472 -7.4185328 63.171074 -5.3459206 -51.506931
1490000000 -5.3031344 11.715337 -7.2277317 60.376926 -7.2221742 60.327969 -5.441771 -53.901794
1500000000 -5.471962 8.4993601 -7.0335941 57.528191 -7.0289698 57.479874 -5.5438638 -56.287319
1510000000 -5.6466713 5.2682071 -6.8430395 54.664604 -6.8386726 54.623146 -5.6528521 -58.660603
1520000000 -5.831449 2.0254688 -6.6573219 51.798809 -6.651166 51.745106 -5.7682481 -61.019516
1530000000 -6.0237985 -1.2276989 -6.4764671 48.916492 -6.4700894 48.860134 -5.8914213 -63.363503
1540000000 -6.2225699 -4.4875402 -6.3005877 46.018635 -6.2971787 45.968758 -6.0213652 -65.704735
1550000000 -6.4279428 -7.7599669 -6.1316109 43.122562 -6.1289058 43.08334 -6.1610475 -68.030266
1560000000 -6.6430583 -11.059795 -5.9696364 40.229271 -5.9652338 40.203667 -6.3103323 -70.329811
1570000000 -6.867404 -14.401095 -5.8103142 37.359165 -5.8024788 37.323627 -6.4656477 -72.59729
1580000000 -7.1063437 -17.750742 -5.6528006 34.480904 -5.6456127 34.431496 -6.6267676 -74.839043
1590000000 -7.3566098 -21.104826 -5.5008044 31.592138 -5.4947996 31.541603 -6.7956886 -77.073006
1600000000 -7.6179004 -24.470133 -5.3540573 28.69648 -5.3487773 28.658241 -6.9707479 -79.277534
1610000000 -7.8879986 -27.856113 -5.2117896 25.799147 -5.2049975 25.771307 -7.1548281 -81.471436
1620000000 -8.1710386 -31.271795 -5.0762248 22.913101 -5.0690689 22.888416 -7.3523064 -83.615082
1630000000 -8.4669008 -34.688679 -4.9434342 20.019039 -4.9359236 19.990061 -7.5525956 -85.722824
1640000000 -8.775939 -38.126442 -4.8170424 17.13566 -4.8116426 17.099518 -7.7613869 -87.791451
1650000000 -9.0949945 -41.593777 -4.6972537 14.247132 -4.6919255 14.221217 -7.9775729 -89.820961
1660000000 -9.4262924 -45.126003 -4.5829659 11.383143 -4.5763655 11.356789 -8.204423 -91.818977
1670000000 -9.7795668 -48.700272 -4.473907 8.5346632 -4.4636145 8.5045662 -8.4424753 -93.750824
1680000000 -10.152754 -52.28775 -4.365768 5.6913376 -4.3571382 5.6520057 -8.6901274 -95.60527
1690000000 -10.546148 -55.873936 -4.2631149 2.8477314 -4.2548113 2.8150225 -8.9441376 -97.396606
1700000000 -10.948572 -59.47879 -4.1659274 -0.00031201012 -4.1573305 -0.024747316 -9.2024775 -99.135918
1710000000 -11.36543 -63.160469 -4.0763845 -2.8313594 -4.0643973 -2.8472252 -9.4688568 -100.84418
1720000000 -11.804158 -66.92749 -3.9890161 -5.6385536 -3.9778607 -5.6603456 -9.7508459 -102.48486
1730000000 -12.274603 -70.793892 -3.906965 -8.4315882 -3.8952813 -8.4544439 -10.040664 -104.05822
1740000000 -12.76698 -74.665993 -3.8263147 -11.214928 -3.815171 -11.24402 -10.341248 -105.52385
1750000000 -13.279771 -78.585716 -3.7524087 -14.000634 -3.7408831 -14.017361 -10.646343 -106.89457
1760000000 -13.808321 -82.623871 -3.6834064 -16.756195 -3.6703007 -16.771006 -10.958362 -108.15826
1770000000 -14.366446 -86.864784 -3.619678 -19.497683 -3.6034935 -19.51067 -11.274347 -109.35393
1780000000 -14.958652 -91.289467 -3.5578268 -22.213902 -3.5424936 -22.236334 -11.596489 -110.44374
1790000000 -15.588373 -95.856735 -3.5003285 -24.918922 -3.4845271 -24.941151 -11.925611 -111.43196
1800000000 -16.249765 -100.58986 -3.4465013 -27.601534 -3.428956 -27.628675 -12.257811 -112.29119
1810000000 -16.929935 -105.55734 -3.393965 -30.278536 -3.3776762 -30.303635 -12.595724 -113.02972
1820000000 -17.638369 -110.89169 -3.3478863 -32.937618 -3.3305373 -32.961002 -12.93775 -113.59007
1830000000 -18.378384 -116.62517 -3.3049686 -35.565212 -3.2885711 -35.594162 -13.278647 -114.01429
1840000000 -19.142536 -122.83704 -3.263705 -38.184734 -3.2452068 -38.208412 -13.610301 -114.30519
1850000000 -19.918613 -129.58714 -3.2257915 -40.78093 -3.2091193 -40.804695 -13.948371 -114.48463
1860000000 -20.698156 -137.08784 -3.192951 -43.355919 -3.1746976 -43.377708 -14.284118 -114.46992
1870000000 -21.468 -145.41473 -3.1620152 -45.905823 -3.140918 -45.93029 -14.61337 -114.28342
1880000000 -22.212002 -154.6582 -3.1311531 -48.43446 -3.1120024 -48.470371 -14.926574 -113.91709
1890000000 -22.887316 -164.69566 -3.105108 -50.951591 -3.0857384 -50.982849 -15.225594 -113.43031
1900000000 -23.404995 -175.40474 -3.0786793 -53.447186 -3.0618298 -53.477036 -15.506239 -112.82956
1910000000 -23.712164 173.22842 -3.0564494 -55.919884 -3.0398748 -55.946308 -15.774472 -112.12535
1920000000 -23.782299 161.63354 -3.0388362 -58.370865 -3.0203159 -58.397099 -16.027771 -111.24772
1930000000 -23.63105 149.98712 -3.0215318 -60.794361 -3.0025854 -60.828087 -16.254595 -110.17466
1940000000 -23.324591 138.89977 -3.0048804 -63.19405 -2.9869099 -63.236359 -16.442158 -109.02179
1950000000 -22.892088 128.89937 -2.9898243 -65.580597 -2.9727335 -65.615334 -16.590479 -107.88084
1960000000 -22.367487 120.04183 -2.9754755 -67.947189 -2.9585733 -67.979637 -16.714617 -106.78111
1970000000 -21.782194 112.08964 -2.96223 -70.296158 -2.9459195 -70.328232 -16.821222 -105.63479
1980000000 -21.172544 104.89635 -2.9507463 -72.631676 -2.9347503 -72.658699 -16.906967 -104.43386
1990000000 -20.590298 98.412804 -2.9413674 -74.943245 -2.9235909 -74.976685 -16.952436 -103.20303
2000000000 -20.035622 92.581223 -2.9311173 -77.26004 -2.9169056 -77.258446 -16.96167 -102.04225
2010000000 -19.501398 87.48201 -2.9234254 -79.550072 -2.9072804 -79.552666 -16.944948 -100.99133
2020000000 -18.978392 82.80201 -2.9176342 -81.819115 -2.9023223 -81.809395 -16.910995 -99.998177
2030000000 -18.474846 78.338226 -2.9146276 -84.06881 -2.8985994 -84.059593 -16.858969 -99.084152
2040000000 -18.007368 74.081039 -2.9122665 -86.295372 -2.8952582 -86.292755 -16.783228 -98.217941
2050000000 -17.573977 70.006615 -2.9094112 -88.505135 -2.8945317 -88.507057 -16.696533 -97.49157
2060000000 -17.180029 66.202904 -2.9074149 -90.70282 -2.8927083 -90.695663 -16.582846 -96.935661
2070000000 -16.817183 62.631367 -2.9072349 -92.887054 -2.8923502 -92.873108 -16.47304 -96.513794
2080000000 -16.47209 59.203369 -2.9074764 -95.05101 -2.8915243 -95.036148 -16.354216 -96.179497
2090000000 -16.153666 55.907722 -2.9091289 -97.187805 -2.8946388 -97.178047 -16.229313 -95.948021
2100000000 -15.87117 52.768978 -2.9102428 -99.308548 -2.8966124 -99.303535 -16.098257 -95.852959
2110000000 -15.601072 49.892078 -2.912744 -101.41705 -2.8984506 -101.40591 -15.965183 -95.90416
2120000000 -15.338177 47.187809 -2.9146111 -103.50754 -2.9014683 -103.4948 -15.834697 -96.094307
2130000000 -15.069389 44.535061 -2.9156759 -105.57939 -2.9027309 -105.57392 -15.708605 -96.401436
2140000000 -14.817152 41.872799 -2.9175041 -107.64022 -2.9044313 -107.6408 -15.584834 -96.723053
2150000000 -14.586199 39.267426 -2.9198818 -109.68468 -2.9082577 -109.68996 -15.463927 -97.189964
2160000000 -14.371525 36.732609 -2.9213257 -111.72079 -2.9092371 -111.72913 -15.343871 -97.693657
2170000000 -14.167334 34.295219 -2.9230452 -113.75098 -2.9133072 -113.74889 -15.226608 -98.304199
2180000000 -13.972084 31.891035 -2.9265206 -115.75761 -2.9162631 -115.75526 -15.116824 -98.994003
2190000000 -13.790413 29.494923 -2.9272325 -117.75848 -2.9182453 -117.74883 -15.006989 -99.751907
2200000000 -13.632302 27.157328 -2.928098 -119.74285 -2.9204218 -119.73277 -14.906492 -100.55514
2210000000 -13.483121 24.930088 -2.9293668 -121.72545 -2.9219353 -121.71198 -14.807953 -101.40927
2220000000 -13.335911 22.783405 -2.929729 -123.69759 -2.9240074 -123.67255 -14.718394 -102.34875
2230000000 -13.183963 20.62195 -2.9342358 -125.66003 -2.9262102 -125.6329 -14.631554 -103.28767
2240000000 -13.045052 18.43269 -2.9368901 -127.60439 -2.9289513 -127.57881 -14.548505 -104.25833
2250000000 -12.923748 16.238724 -2.9391723 -129.53848 -2.9306238 -129.5118 -14.468887 -105.26101
2260000000 -12.811876 14.156667 -2.9395566 -131.46465 -2.9342787 -131.43489 -14.394893 -106.33389
2270000000 -12.702735 12.116521 -2.9421637 -133.38823 -2.934638 -133.35345 -14.325379 -107.41338
2280000000 -12.591983 10.054522 -2.9440703 -135.30457 -2.9375758 -135.26785 -14.26031 -108.51687
2290000000 -12.494282 7.9670553 -2.9475479 -137.20209 -2.9385512 -137.17583 -14.193557 -109.66918
2300000000 -12.413452 5.9262581 -2.948698 -139.09377 -2.9407642 -139.07703 -14.133727 -110.83791
2310000000 -12.346865 3.9721 -2.9505067 -140.9861 -2.9433818 -140.9711 -14.078588 -112.06384
2320000000 -12.277524 2.1307414 -2.9537523 -142.86943 -2.9463289 -142.84766 -14.033327 -113.315
2330000000 -12.202597 0.32017398 -2.9562771 -144.74263 -2.9486227 -144.70805 -13.992099 -114.58562
2340000000 -12.127815 -1.5381021 -2.961581 -146.59502 -2.9512897 -146.56197 -13.959322 -115.85196
2350000000 -12.067877 -3.4255347 -2.9633093 -148.43423 -2.9562855 -148.4059 -13.923449 -117.13744
2360000000 -12.017426 -5.2508755 -2.9638801 -150.2603 -2.955297 -150.23206 -13.898494 -118.4966
2370000000 -11.973235 -7.0220151 -2.9643221 -152.09209 -2.9564841 -152.05798 -13.881508 -119.87254
2380000000 -11.9275 -8.7573185 -2.9645629 -153.9201 -2.9546664 -153.87872 -13.874784 -121.28151
2390000000 -11.885963 -10.529953 -2.9643068 -155.74052 -2.9535406 -155.69853 -13.87232 -122.64887
2400000000 -11.855537 -12.235921 -2.9643929 -157.55664 -2.9524264 -157.5168 -13.87285 -124.04272
2410000000 -11.827483 -13.905835 -2.9636195 -159.37085 -2.952266 -159.33109 -13.872692 -125.42935
2420000000 -11.798154 -15.540593 -2.9640288 -161.18282 -2.9533803 -161.13188 -13.871129 -126.89505
2430000000 -11.761683 -17.199457 -2.964829 -162.98347 -2.9543753 -162.92459 -13.874735 -128.37962
2440000000 -11.729803 -18.905886 -2.9648588 -164.7686 -2.9526258 -164.70593 -13.888377 -129.88858
2450000000 -11.719029 -20.626503 -2.96438 -166.54237 -2.9503093 -166.49356 -13.907162 -131.43471
2460000000 -11.717361 -22.2833 -2.9624376 -168.32239 -2.9474759 -168.28246 -13.927744 -132.93065
2470000000 -11.720162 -23.813929 -2.9613199 -170.11034 -2.9477026 -170.0721 -13.946601 -134.429
2480000000 -11.712766 -25.317045 -2.9596908 -171.89117 -2.94613 -171.8499 -13.964792 -135.95216
2490000000 -11.69992 -26.824551 -2.9582024 -173.65825 -2.9454234 -173.61719 -13.995327 -137.53267
2500000000 -11.695656 -28.363302 -2.9596081 -175.41953 -2.9432688 -175.38406 -14.023777 -139.1161
2510000000 -11.69667 -29.8873 -2.9577246 -177.17409 -2.9426255 -177.13535 -14.061124 -140.71738
2520000000 -11.699822 -31.376326 -2.9552884 -178.92482 -2.9416931 -178.88622 -14.110126 -142.30972
2530000000 -11.70015 -32.88781 -2.9537542 179.32651 -2.9386785 179.36571 -14.159502 -143.89153
2540000000 -11.711684 -34.410835 -2.9499738 177.58478 -2.9373775 177.62379 -14.215109 -145.50401
2550000000 -11.739856 -35.924629 -2.9473786 175.84706 -2.9342227 175.8835 -14.274473 -147.14105
2560000000 -11.77739 -37.335869 -2.9436481 174.10718 -2.9302752 174.14417 -14.341954 -148.79872
2570000000 -11.810598 -38.647449 -2.9386458 172.36357 -2.9266851 172.40703 -14.41846 -150.50021
2580000000 -11.830847 -39.912151 -2.9359686 170.61752 -2.9237809 170.66698 -14.497087 -152.19864
2590000000 -11.847049 -41.245823 -2.9344473 168.87622 -2.9199016 168.92934 -14.582481 -153.90884
2600000000 -11.870554 -42.644611 -2.9311161 167.15379 -2.9174442 167.1954 -14.667036 -155.66721
2610000000 -11.912564 -44.016193 -2.9272611 165.43549 -2.9133928 165.46483 -14.752451 -157.46631
2620000000 -11.958722 -45.319618 -2.9242628 163.7067 -2.9105909 163.74245 -14.84599 -159.3123
2630000000 -12.001249 -46.584118 -2.9208047 161.98251 -2.9077311 162.03134 -14.947344 -161.15897
2640000000 -12.043752 -47.872162 -2.9185302 160.26453 -2.9014387 160.31894 -15.051857 -163.00685
2650000000 -12.093978 -49.16811 -2.9142535 158.55293 -2.896456 158.59639 -15.162374 -164.85992
2660000000 -12.156714 -50.380676 -2.9095402 156.83508 -2.8930776 156.87723 -15.265057 -166.68344
2670000000 -12.21769 -51.512383 -2.9067976 155.1218 -2.8896458 155.14804 -15.373927 -168.55835
2680000000 -12.266347 -52.610619 -2.9025714 153.40469 -2.8872495 153.43988 -15.487636 -170.49792
2690000000 -12.309999 -53.742966 -2.9006181 151.69171 -2.8831506 151.73051 -15.614382 -172.4886
2700000000 -12.358951 -54.955013 -2.8963535 149.99464 -2.8801057 150.026 -15.757987 -174.47409
2710000000 -12.427976 -56.151768 -2.893254 148.28972 -2.8744979 148.33049 -15.911787 -176.42769
2720000000 -12.503224 -57.252457 -2.8875699 146.59116 -2.8700495 146.6282 -16.065729 -178.36887
2730000000 -12.575509 -58.274101 -2.8844678 144.88501 -2.8638127 144.92679 -16.219444 179.65942
2740000000 -12.648322 -59.302483 -2.8804944 143.18457 -2.8598588 143.22778 -16.376554 177.59494
2750000000 -12.723455 -60.332729 -2.8761528 141.48433 -2.8549204 141.5289 -16.544037 175.42247
2760000000 -12.807508 -61.307354 -2.8734546 139.79367 -2.8492017 139.82904 -16.723055 173.19836
2770000000 -12.892742 -62.183231 -2.8689308 138.08833 -2.845005 138.12888 -16.916225 170.97705
2780000000 -12.966262 -63.051682 -2.864747 136.38924 -2.8425934 136.42891 -17.107229 168.71822
2790000000 -13.030665 -63.960281 -2.8605692 134.69026 -2.839705 134.73236 -17.290817 166.42226
2800000000 -13.10634 -64.924271 -2.8584478 132.99893 -2.8352516 133.04381 -17.485256 164.01773
2810000000 -13.200304 -65.876816 -2.8547611 131.30864 -2.8312263 131.35806 -17.681858 161.5625
2820000000 -13.298267 -66.718605 -2.849786 129.61365 -2.8255725 129.67564 -17.892344 159.05215
2830000000 -13.393818 -67.468262 -2.8460529 127.9246 -2.8218927 127.97691 -18.106333 156.55016
2840000000 -13.479383 -68.198509 -2.84232 126.23489 -2.8179154 126.28208 -18.320148 154.06609
2850000000 -13.566302 -68.95015 -2.839474 124.55038 -2.8133607 124.58775 -18.533001 151.48784
2860000000 -13.66265 -69.67765 -2.8359299 122.87198 -2.8097513 122.88795 -18.744156 148.76637
2870000000 -13.757646 -70.314423 -2.8318956 121.18675 -2.8067725 121.19691 -18.982328 145.9166
2880000000 -13.844333 -70.894386 -2.8285968 119.49968 -2.805002 119.5125 -19.231339 142.96584
2890000000 -13.927114 -71.504089 -2.8263946 117.81112 -2.8010788 117.82567 -19.501476 139.98569
2900000000 -14.014874 -72.159271 -2.823503 116.12031 -2.7995899 116.13695 -19.778164 136.8842
2910000000 -14.118181 -72.754875 -2.8201311 114.43387 -2.796411 114.44733 -20.047186 133.76256
2920000000 -14.223721 -73.241096 -2.8165169 112.75388 -2.7944133 112.75856 -20.321684 130.43565
2930000000 -14.31644 -73.66362 -2.814394 111.05955 -2.789726 111.07731 -20.588839 126.92591
2940000000 -14.410556 -74.067451 -2.8119383 109.36546 -2.7888749 109.38596 -20.853554 123.23357
2950000000 -14.506042 -74.452179 -2.8090665 107.68514 -2.7852318 107.69941 -21.112188 119.30633
2960000000 -14.601347 -74.767136 -2.8079751 106.00054 -2.7844372 106.01411 -21.366913 115.26694
2970000000 -14.686586 -75.016777 -2.8064916 104.31727 -2.7842827 104.33515 -21.615995 111.0507
2980000000 -14.758735 -75.248558 -2.8057115 102.63226 -2.7832904 102.65451 -21.843231 106.80791
2990000000 -14.829113 -75.58931 -2.8058486 100.95474 -2.7792983 100.97079 -22.053427 102.35475
3000000000 -14.912495 -75.940598 -2.8040173 99.279541 -2.7805552 99.284729 -22.240349 97.746986
3010000000 -15.012554 -76.181305 -2.8027751 97.601189 -2.7800193 97.6157 -22.41206 93.002449
3020000000 -15.106501 -76.216164 -2.8030908 95.916687 -2.7801583 95.934784 -22.57424 88.116714
3030000000 -15.175589 -76.143059 -2.8040447 94.2369 -2.7803853 94.250458 -22.722395 83.213951
