!Agilent Technologies,N5224A,MY51441093,A.09.90.21
!Agilent N5224A: A.09.90.21
!Date: Wednesday, October 01, 2025 16:40:30
!Correction: S11(Full 2 Port(1,2)) 
!S21(Full 2 Port(1,2)) 
!S12(Full 2 Port(1,2)) 
!S22(Full 2 Port(1,2)) 
!S2P File: Measurements: S11, S21, S12, S22:
# Hz S  dB   R 50
1000000000 -1.6890683 148.61838 -20.114511 -178.23453 -20.086084 -178.25166 -5.36022 68.773705
1010000000 -1.7290999 146.12943 -19.698082 178.95389 -19.667883 178.93576 -5.3773513 65.065346
1020000000 -1.7694132 143.62083 -19.287701 176.18382 -19.252338 176.12961 -5.3913889 61.362003
1030000000 -1.8088653 141.09541 -18.874155 173.40109 -18.842999 173.33409 -5.4037104 57.683552
1040000000 -1.8520123 138.55997 -18.466282 170.61258 -18.440371 170.5163 -5.4130063 54.004417
1050000000 -1.8972948 136.0186 -18.065224 167.80165 -18.043337 167.69817 -5.4208179 50.345234
1060000000 -1.9421567 133.46582 -17.669939 164.98274 -17.647493 164.88045 -5.4239545 46.683323
1070000000 -1.9872321 130.90083 -17.278345 162.1593 -17.259157 162.03427 -5.4291329 43.0369
1080000000 -2.033072 128.32806 -16.893261 159.32712 -16.876545 159.19627 -5.4349709 39.385803
1090000000 -2.0789568 125.73638 -16.508286 156.47618 -16.495754 156.34874 -5.4406695 35.752502
1100000000 -2.1281395 123.13233 -16.132486 153.6154 -16.125372 153.48663 -5.4471903 32.130714
1110000000 -2.1782539 120.5126 -15.764201 150.72197 -15.758669 150.62042 -5.4542317 28.533903
1120000000 -2.2293687 117.87276 -15.400732 147.85867 -15.397332 147.76239 -5.4605427 24.954361
1130000000 -2.2847962 115.21263 -15.040717 144.99754 -15.036993 144.905 -5.4660721 21.392757
1140000000 -2.342339 112.54905 -14.685223 142.12262 -14.680649 142.03946 -5.4706368 17.84198
1150000000 -2.4008062 109.86921 -14.33468 139.22299 -14.32763 139.15208 -5.475431 14.303559
1160000000 -2.4636137 107.17265 -13.989185 136.31035 -13.982288 136.23576 -5.4817791 10.767373
1170000000 -2.5301068 104.47395 -13.650762 133.40221 -13.642866 133.32697 -5.4884 7.24404
1180000000 -2.5967381 101.76163 -13.31379 130.47649 -13.30911 130.4054 -5.497982 3.72683
1190000000 -2.6672342 99.038315 -12.986206 127.54817 -12.977976 127.48405 -5.508781 0.22736166
1200000000 -2.738584 96.297913 -12.65956 124.60589 -12.650916 124.54272 -5.5242195 -3.2521448
1210000000 -2.8151457 93.545242 -12.339783 121.67744 -12.330089 121.59674 -5.540885 -6.7120686
1220000000 -2.8914559 90.779297 -12.023788 118.72906 -12.014756 118.64397 -5.5601215 -10.171343
1230000000 -2.9730182 88.00502 -11.711486 115.76488 -11.704912 115.68215 -5.5806556 -13.624193
1240000000 -3.0564604 85.21312 -11.403115 112.78123 -11.396629 112.71357 -5.6047316 -17.071768
1250000000 -3.145916 82.414749 -11.10043 109.79119 -11.093563 109.73546 -5.632513 -20.515465
1260000000 -3.2374094 79.607758 -10.803204 106.79272 -10.794874 106.72723 -5.664331 -23.951115
1270000000 -3.3328402 76.790451 -10.509269 103.78942 -10.502482 103.70518 -5.702405 -27.382257
1280000000 -3.4334173 73.969696 -10.222211 100.75909 -10.217274 100.68896 -5.7418075 -30.79985
1290000000 -3.5389044 71.12677 -9.9428158 97.729355 -9.9374361 97.65889 -5.7887497 -34.212524
1300000000 -3.646363 68.274643 -9.6695318 94.683128 -9.6613035 94.630524 -5.8408141 -37.616402
1310000000 -3.7608097 65.414909 -9.3987713 91.646919 -9.3879871 91.587074 -5.8963861 -41.008629
1320000000 -3.8813837 62.548668 -9.1309204 88.602783 -9.1217928 88.525864 -5.9578676 -44.400959
1330000000 -4.0078878 59.683731 -8.8662539 85.540001 -8.8610859 85.451538 -6.023232 -47.787914
1340000000 -4.1384249 56.830849 -8.6101484 82.437286 -8.6076345 82.376259 -6.0970879 -51.184326
1350000000 -4.2736154 53.961212 -8.3634262 79.330101 -8.3590431 79.288498 -6.1789975 -54.573612
1360000000 -4.4141126 51.096359 -8.1252632 76.248528 -8.1163568 76.202293 -6.2687664 -57.961025
1370000000 -4.562686 48.217613 -7.8884201 73.165085 -7.8788052 73.096313 -6.3645315 -61.33794
1380000000 -4.7183385 45.348587 -7.6563921 70.069443 -7.6484647 69.991371 -6.4692564 -64.719147
1390000000 -4.8796182 42.487385 -7.428144 66.94603 -7.4246826 66.879585 -6.5794301 -68.098259
1400000000 -5.0455279 39.630707 -7.2082896 63.8195 -7.2059112 63.767944 -6.6989202 -71.474937
1410000000 -5.2177567 36.759117 -6.9958558 60.69759 -6.9894891 60.659012 -6.8249369 -74.847397
1420000000 -5.4008045 33.8894 -6.7888899 57.574562 -6.7815413 57.524414 -6.9607539 -78.216423
1430000000 -5.5948873 31.043653 -6.5879569 54.450798 -6.5813103 54.386536 -7.1020212 -81.584999
1440000000 -5.7949882 28.218409 -6.3933725 51.315853 -6.387516 51.248096 -7.2538147 -84.951508
1450000000 -6.0033522 25.406218 -6.2065883 48.174393 -6.2027149 48.12347 -7.4154453 -88.311455
1460000000 -6.217442 22.598948 -6.0260415 45.047447 -6.0201912 45.006229 -7.5860276 -91.653198
1470000000 -6.4435902 19.807623 -5.8513546 41.934513 -5.8454742 41.884766 -7.7680268 -94.98909
1480000000 -6.6776652 17.044132 -5.6798806 38.82542 -5.6739235 38.766983 -7.9563055 -98.316704
1490000000 -6.9226775 14.319467 -5.515522 35.703411 -5.5108027 35.652981 -8.1583872 -101.6382
1500000000 -7.17627 11.614369 -5.3578887 32.594437 -5.3534369 32.540287 -8.3680944 -104.96518
1510000000 -7.4376297 8.9442654 -5.2058663 29.482573 -5.2009234 29.434076 -8.5932665 -108.28722
1520000000 -7.7114816 6.3232021 -5.0597887 26.377747 -5.0574594 26.326981 -8.8320246 -111.60049
1530000000 -7.993721 3.7550788 -4.9214315 23.279411 -4.9181137 23.230778 -9.0788031 -114.90445
1540000000 -8.2829132 1.2277377 -4.791338 20.192074 -4.7869296 20.151566 -9.3389273 -118.21443
1550000000 -8.579174 -1.2706739 -4.6669641 17.125832 -4.6634979 17.088642 -9.6141787 -121.55001
1560000000 -8.8895264 -3.7319586 -4.5466766 14.079943 -4.5427828 14.041599 -9.9022532 -124.86706
1570000000 -9.2162933 -6.1396933 -4.4306712 11.054027 -4.4244127 11.012011 -10.203351 -128.16852
1580000000 -9.5536804 -8.4331856 -4.3184814 8.0276203 -4.3145089 7.9850383 -10.516968 -131.4586
1590000000 -9.9001245 -10.639908 -4.2135162 5.0156674 -4.2099414 4.9678521 -10.839726 -134.7726
1600000000 -10.25493 -12.780727 -4.1152339 2.0155649 -4.1106572 1.9727179 -11.174587 -138.1058
1610000000 -10.619663 -14.856768 -4.0224524 -0.96895468 -4.0159822 -1.007897 -11.529306 -141.44162
1620000000 -10.996821 -16.84844 -3.933356 -3.930306 -3.9279625 -3.9648027 -11.904806 -144.75934
1630000000 -11.381942 -18.720459 -3.8502448 -6.8817496 -3.8442791 -6.9154897 -12.292732 -148.06331
1640000000 -11.777138 -20.522785 -3.773114 -9.8045664 -3.766701 -9.8375683 -12.691512 -151.3705
1650000000 -12.182889 -22.250998 -3.7008071 -12.706103 -3.6945741 -12.740736 -13.109764 -154.71753
1660000000 -12.607244 -23.885859 -3.6315267 -15.574375 -3.6256168 -15.615204 -13.549559 -158.11359
1670000000 -13.051564 -25.345943 -3.5670598 -18.424547 -3.5581164 -18.466957 -14.015194 -161.50896
1680000000 -13.502273 -26.579308 -3.504976 -21.261124 -3.4956496 -21.289497 -14.506616 -164.91292
1690000000 -13.955591 -27.647142 -3.4497054 -24.077412 -3.4394596 -24.100525 -15.017736 -168.31349
1700000000 -14.40847 -28.599697 -3.3966691 -26.868399 -3.3837583 -26.894815 -15.542295 -171.76494
1710000000 -14.879994 -29.420288 -3.3458276 -29.631973 -3.3352406 -29.663382 -16.092182 -175.33797
1720000000 -15.370949 -29.981733 -3.297364 -32.368458 -3.2887449 -32.401852 -16.673548 -179.03528
1730000000 -15.866258 -30.196201 -3.2528865 -35.100567 -3.2451136 -35.120609 -17.284195 177.13864
1740000000 -16.345036 -30.164145 -3.2133102 -37.804123 -3.2040281 -37.820171 -17.93466 173.21024
1750000000 -16.809095 -29.936819 -3.176713 -40.483334 -3.1651044 -40.494671 -18.615808 169.18378
1760000000 -17.277914 -29.48337 -3.1425478 -43.134861 -3.1286764 -43.151539 -19.331459 164.99532
1770000000 -17.746147 -28.734545 -3.1105368 -45.762077 -3.0962787 -45.784187 -20.077436 160.55066
1780000000 -18.197367 -27.554888 -3.0801914 -48.374168 -3.0663862 -48.396324 -20.86599 155.80505
1790000000 -18.606792 -26.046772 -3.0540998 -50.957752 -3.0414267 -50.985592 -21.70203 150.63792
1800000000 -18.965155 -24.362497 -3.0309675 -53.524342 -3.0150568 -53.547924 -22.588732 145.03813
1810000000 -19.283083 -22.52178 -3.0080624 -56.064674 -2.9926598 -56.087708 -23.521162 138.761
1820000000 -19.571108 -20.46517 -2.9876213 -58.582623 -2.9714234 -58.608036 -24.507931 131.80229
1830000000 -19.795242 -18.219347 -2.9697971 -61.076965 -2.9529819 -61.097416 -25.507462 123.77356
1840000000 -19.960737 -15.917644 -2.9528103 -63.555355 -2.9346626 -63.577438 -26.484076 114.78407
1850000000 -20.070864 -13.600127 -2.9376495 -66.006813 -2.9183986 -66.030975 -27.37372 104.20828
1860000000 -20.127405 -11.273603 -2.9239659 -68.438927 -2.9059291 -68.464432 -28.111496 92.032967
1870000000 -20.121141 -8.9929476 -2.9112971 -70.843903 -2.8926833 -70.878555 -28.60079 78.719521
1880000000 -20.042362 -6.9081707 -2.8990002 -73.237411 -2.8827603 -73.266922 -28.805176 64.949692
1890000000 -19.91868 -5.1931252 -2.890265 -75.606491 -2.8728659 -75.635033 -28.658667 51.711212
1900000000 -19.788704 -3.7868097 -2.8811047 -77.954056 -2.8630216 -77.981644 -28.228966 39.664051
1910000000 -19.652483 -2.4143813 -2.8728659 -80.279556 -2.8559463 -80.310608 -27.619757 29.066366
1920000000 -19.492538 -1.1587152 -2.8652289 -82.587761 -2.8485506 -82.619438 -26.909264 19.782021
1930000000 -19.288969 0.004673712 -2.8589594 -84.877808 -2.8417842 -84.909882 -26.180794 11.564627
1940000000 -19.054783 0.76353961 -2.8538527 -87.147484 -2.8358514 -87.181625 -25.503334 4.403904
1950000000 -18.830996 1.2155424 -2.8484128 -89.393623 -2.8299954 -89.424011 -24.885605 -1.8930886
1960000000 -18.625284 1.5430584 -2.842484 -91.627907 -2.8243604 -91.66243 -24.29076 -7.1671576
1970000000 -18.406094 1.7462434 -2.8358021 -93.845612 -2.8187964 -93.886642 -23.724346 -11.931833
1980000000 -18.181547 1.8010474 -2.8307276 -96.062103 -2.8160911 -96.087334 -23.162079 -16.299011
1990000000 -17.964638 1.5985597 -2.8272545 -98.246559 -2.8104527 -98.280014 -22.645897 -20.511217
2000000000 -17.763287 1.2634457 -2.8214893 -100.44245 -2.8069978 -100.43855 -22.180422 -24.432377
2010000000 -17.582167 0.88825756 -2.8182902 -102.61549 -2.8027129 -102.61221 -21.754536 -28.031784
2020000000 -17.390797 0.54703873 -2.814749 -104.76895 -2.7994385 -104.76807 -21.352856 -31.412979
2030000000 -17.188019 0.058821518 -2.8135114 -106.91351 -2.7990191 -106.90935 -20.974758 -34.602089
2040000000 -16.987591 -0.67572391 -2.8116632 -109.04501 -2.7968473 -109.03712 -20.611889 -37.706516
2050000000 -16.794212 -1.5466087 -2.810307 -111.15816 -2.7958815 -111.15594 -20.278589 -40.642582
2060000000 -16.62722 -2.5000927 -2.8108125 -113.26688 -2.7955863 -113.25742 -19.985851 -43.549824
2070000000 -16.472013 -3.4989779 -2.8104372 -115.36327 -2.7953894 -115.3466 -19.711058 -46.258041
2080000000 -16.324602 -4.5830183 -2.8128598 -117.43833 -2.7959297 -117.42475 -19.449951 -48.88731
2090000000 -16.19294 -5.7289772 -2.8124576 -119.48988 -2.7984025 -119.47974 -19.21295 -51.479496
2100000000 -16.090212 -6.8801322 -2.8150129 -121.52535 -2.8001153 -121.52344 -18.993593 -54.027706
2110000000 -16.00012 -7.9367552 -2.8142903 -123.55434 -2.8012567 -123.54441 -18.801842 -56.573765
2120000000 -15.905829 -8.8814173 -2.8141615 -125.57221 -2.8013148 -125.56143 -18.633526 -58.996143
2130000000 -15.803761 -9.8501101 -2.8136039 -127.57439 -2.7995195 -127.56917 -18.487492 -61.369781
2140000000 -15.697472 -10.943932 -2.8131599 -129.57478 -2.8006895 -129.57372 -18.340994 -63.673946
2150000000 -15.607072 -12.071645 -2.8123615 -131.55684 -2.8007245 -131.56009 -18.21242 -65.956024
2160000000 -15.530865 -13.1871 -2.8108561 -133.53345 -2.7997754 -133.53893 -18.095282 -68.229446
2170000000 -15.456524 -14.288723 -2.8095505 -135.50569 -2.800204 -135.50786 -17.990179 -70.46154
2180000000 -15.381295 -15.440659 -2.808481 -137.47148 -2.7985988 -137.46541 -17.905001 -72.674446
2190000000 -15.315763 -16.668186 -2.8060732 -139.42268 -2.7973053 -139.41484 -17.823528 -74.874481
2200000000 -15.271287 -17.893557 -2.8039308 -141.36807 -2.7955074 -141.3593 -17.755207 -77.005608
2210000000 -15.234498 -19.045084 -2.8017392 -143.30989 -2.7944984 -143.29514 -17.691757 -79.125961
2220000000 -15.191535 -20.158234 -2.7995191 -145.24698 -2.793751 -145.22736 -17.649067 -81.256859
2230000000 -15.138807 -21.320072 -2.7982149 -147.17992 -2.7924666 -147.1505 -17.60096 -83.322006
2240000000 -15.093196 -22.570923 -2.7978733 -149.09161 -2.7910116 -149.06783 -17.564589 -85.376686
2250000000 -15.064993 -23.874477 -2.7976151 -151.00327 -2.7896614 -150.97694 -17.533575 -87.439003
2260000000 -15.049331 -25.069613 -2.7947552 -152.91046 -2.7868996 -152.88171 -17.516415 -89.496101
2270000000 -15.025619 -26.224176 -2.7926466 -154.81163 -2.7854881 -154.77693 -17.500912 -91.48185
2280000000 -14.998271 -27.463449 -2.7900047 -156.70953 -2.7831125 -156.67586 -17.489309 -93.478935
2290000000 -14.98649 -28.779102 -2.7898073 -158.59703 -2.7817836 -158.57034 -17.481314 -95.486763
2300000000 -14.993073 -30.029648 -2.7878857 -160.47832 -2.7799685 -160.45953 -17.485264 -97.506027
2310000000 -15.012825 -31.19388 -2.785557 -162.35999 -2.7786918 -162.34247 -17.496738 -99.527222
2320000000 -15.026411 -32.245319 -2.7854235 -164.23872 -2.7775297 -164.21574 -17.524025 -101.52873
2330000000 -15.026615 -33.305244 -2.785073 -166.10558 -2.778728 -166.07817 -17.557594 -103.52072
2340000000 -15.023137 -34.483002 -2.785013 -167.96048 -2.7761533 -167.93184 -17.599546 -105.46843
2350000000 -15.042268 -35.7071 -2.7836535 -169.8044 -2.7770681 -169.77971 -17.642311 -107.46366
2360000000 -15.076758 -36.86459 -2.7813921 -171.64012 -2.7740557 -171.61076 -17.709108 -109.47802
2370000000 -15.116488 -37.947155 -2.7796423 -173.47987 -2.7719867 -173.44131 -17.791418 -111.47564
2380000000 -15.151495 -38.998161 -2.7773376 -175.31189 -2.7679386 -175.27274 -17.887457 -113.40819
2390000000 -15.191482 -40.094082 -2.7749763 -177.14792 -2.7636127 -177.10965 -17.980434 -115.29517
2400000000 -15.241188 -41.109726 -2.7712736 -178.97466 -2.760956 -178.93449 -18.079096 -117.2075
2410000000 -15.293504 -42.070271 -2.7678318 179.19684 -2.7586324 179.2364 -18.174356 -119.14271
2420000000 -15.334126 -42.993587 -2.7662687 177.37346 -2.7558231 177.41748 -18.282631 -121.18981
2430000000 -15.368813 -43.992744 -2.7653253 175.5542 -2.7534666 175.61006 -18.399614 -123.25952
2440000000 -15.412292 -45.093132 -2.7636611 173.74669 -2.7513959 173.80191 -18.536217 -125.25254
2450000000 -15.482822 -46.170132 -2.7614243 171.94383 -2.747082 171.99193 -18.677267 -127.29921
2460000000 -15.568677 -47.112854 -2.7580218 170.14191 -2.7441981 170.1814 -18.818947 -129.25635
2470000000 -15.642691 -47.853321 -2.7550669 168.33264 -2.7430494 168.37204 -18.956366 -131.2847
2480000000 -15.702796 -48.619102 -2.752779 166.53381 -2.7395473 166.57008 -19.102926 -133.33534
2490000000 -15.757843 -49.399536 -2.7514451 164.73625 -2.7359321 164.77588 -19.273703 -135.43425
2500000000 -15.818692 -50.250637 -2.7507179 162.94655 -2.7330861 162.98148 -19.449968 -137.5307
2510000000 -15.892703 -51.052101 -2.7459023 161.15855 -2.7324255 161.19662 -19.644932 -139.63281
2520000000 -15.967978 -51.795536 -2.7452846 159.37212 -2.7304761 159.41595 -19.856895 -141.65874
2530000000 -16.037956 -52.592869 -2.7427051 157.5961 -2.7270486 157.63562 -20.077934 -143.70035
2540000000 -16.129391 -53.3876 -2.7393692 155.8141 -2.7259321 155.85326 -20.31373 -145.77365
2550000000 -16.242363 -54.085377 -2.7373676 154.04019 -2.7234483 154.07625 -20.564882 -147.92218
2560000000 -16.360397 -54.57473 -2.7327678 152.26384 -2.7200193 152.30368 -20.837637 -150.12491
2570000000 -16.458096 -54.929272 -2.7295907 150.48557 -2.7167487 150.52843 -21.128721 -152.32353
2580000000 -16.528986 -55.282955 -2.7266092 148.70502 -2.7141809 148.7458 -21.42943 -154.57829
2590000000 -16.599495 -55.788277 -2.726614 146.93257 -2.7109272 146.97987 -21.753422 -156.89301
2600000000 -16.69021 -56.3713 -2.7232091 145.17015 -2.7105141 145.20685 -22.083244 -159.32639
2610000000 -16.8055 -56.818584 -2.7228816 143.40286 -2.7097044 143.44121 -22.433352 -161.91498
2620000000 -16.914118 -57.116798 -2.7213748 141.63881 -2.7080595 141.67851 -22.808813 -164.58794
2630000000 -17.01017 -57.380005 -2.7182002 139.871 -2.7063689 139.91895 -23.217855 -167.29977
2640000000 -17.104359 -57.68446 -2.7182136 138.11577 -2.7018569 138.16328 -23.63427 -170.04395
2650000000 -17.215456 -57.967159 -2.7159662 136.36029 -2.7004554 136.39732 -24.074722 -172.80768
2660000000 -17.330046 -58.007553 -2.7151706 134.60527 -2.6988318 134.6398 -24.508314 -175.75461
2670000000 -17.419371 -57.930107 -2.7148237 132.84612 -2.69785 132.88121 -24.971193 -178.84669
2680000000 -17.488503 -57.895786 -2.7147818 131.09431 -2.6983888 131.12656 -25.487978 177.65573
2690000000 -17.550175 -57.981728 -2.7152467 129.34264 -2.6980062 129.37611 -26.061529 173.95129
2700000000 -17.636831 -58.104275 -2.7141902 127.59826 -2.6968932 127.63187 -26.70504 170.1915
2710000000 -17.741768 -58.064014 -2.7150745 125.84767 -2.6949477 125.8894 -27.396229 166.16658
2720000000 -17.83205 -57.832703 -2.7135515 124.10838 -2.6942706 124.14739 -28.108591 161.83881
2730000000 -17.897842 -57.491795 -2.7137861 122.36503 -2.6935806 122.40054 -28.839489 156.89261
2740000000 -17.96217 -57.229214 -2.7144835 120.62504 -2.6937599 120.66536 -29.594961 150.91014
2750000000 -18.026646 -56.915768 -2.7158689 118.88801 -2.6943746 118.92573 -30.398081 143.81528
2760000000 -18.085257 -56.477016 -2.7158334 117.15037 -2.6947863 117.19341 -31.218187 135.5291
2770000000 -18.12092 -55.938633 -2.717747 115.41587 -2.6956904 115.45704 -31.985863 126.28749
2780000000 -18.130987 -55.510593 -2.718214 113.68217 -2.6943724 113.72406 -32.591148 115.77093
2790000000 -18.133932 -55.252296 -2.7191675 111.94858 -2.6968954 111.99317 -32.942692 104.29607
2800000000 -18.1625 -54.995445 -2.7214887 110.22013 -2.6978688 110.26624 -33.007839 92.044449
2810000000 -18.200779 -54.543839 -2.723788 108.49118 -2.6994901 108.53757 -32.785858 79.794304
2820000000 -18.211998 -53.94429 -2.726176 106.76207 -2.7019095 106.81917 -32.375694 68.122406
2830000000 -18.192545 -53.33667 -2.7280815 105.03997 -2.7037914 105.08942 -31.78068 58.015457
2840000000 -18.157555 -52.864758 -2.7302644 103.32019 -2.7040367 103.3675 -31.105267 49.057064
2850000000 -18.126938 -52.408966 -2.7319307 101.60307 -2.7066123 101.63713 -30.323923 41.39032
2860000000 -18.089521 -51.912106 -2.7342796 99.887115 -2.7095416 99.912437 -29.499638 34.700191
2870000000 -18.031546 -51.394871 -2.7370124 98.174171 -2.7129452 98.185463 -28.67329 28.451197
2880000000 -17.950161 -50.949127 -2.7414858 96.462044 -2.7158122 96.473267 -27.877853 22.810738
2890000000 -17.874176 -50.628674 -2.7436335 94.748016 -2.7172458 94.753036 -27.131495 17.652559
2900000000 -17.807966 -50.356705 -2.7475157 93.03035 -2.7222013 93.037567 -26.42934 13.12092
2910000000 -17.740444 -49.923237 -2.7501223 91.320328 -2.7269251 91.327858 -25.777794 9.1057196
2920000000 -17.650465 -49.482609 -2.7544158 89.605484 -2.7321877 89.617165 -25.142614 5.4833031
2930000000 -17.541864 -49.142105 -2.7580457 87.891907 -2.734051 87.903412 -24.529716 2.2541585
2940000000 -17.430408 -48.890675 -2.7619996 86.183311 -2.7396576 86.199562 -23.953344 -0.76805037
2950000000 -17.317083 -48.645981 -2.7683313 84.473701 -2.7444696 84.490349 -23.392378 -3.5967917
2960000000 -17.193964 -48.414028 -2.7738669 82.772621 -2.7492452 82.790314 -22.880692 -6.317874
2970000000 -17.058699 -48.322811 -2.7798135 81.071213 -2.7554452 81.093094 -22.398872 -8.9086266
2980000000 -16.917238 -48.372494 -2.7847214 79.377174 -2.7594318 79.394096 -21.957272 -11.335406
2990000000 -16.801449 -48.503559 -2.7905428 77.682823 -2.765362 77.691216 -21.535418 -13.687438
3000000000 -16.697956 -48.557693 -2.7943466 75.98864 -2.772161 75.989998 -21.133997 -15.976516
3010000000 -16.581001 -48.486786 -2.8007474 74.289131 -2.7793705 74.305275 -20.752193 -18.254927
3020000000 -16.431927 -48.420887 -2.8082957 72.5924 -2.785162 72.615791 -20.388851 -20.493202
3030000000 -16.265804 -48.557194 -2.8172002 70.907661 -2.7922087 70.923241 -20.054407 -22.740526
