!Agilent Technologies,N5224A,MY51441093,A.09.90.21
!Agilent N5224A: A.09.90.21
!Date: Wednesday, October 01, 2025 16:41:18
!Correction: S11(Full 2 Port(1,2)) 
!S21(Full 2 Port(1,2)) 
!S12(Full 2 Port(1,2)) 
!S22(Full 2 Port(1,2)) 
!S2P File: Measurements: S11, S21, S12, S22:
# Hz S  dB   R 50
1000000000 -32.096092 1.6853631 -0.083577305 -75.375008 -0.057120498 -75.401848 -31.926085 8.3466797
1010000000 -31.803192 1.0434117 -0.083113551 -76.109772 -0.058101825 -76.141388 -31.86677 7.9683056
1020000000 -31.609056 -0.52138805 -0.083027929 -76.843933 -0.055905908 -76.892357 -31.801327 7.5910921
1030000000 -31.639515 -2.3341498 -0.081268422 -77.577919 -0.054085188 -77.643723 -31.695028 7.3774247
1040000000 -31.723736 -2.690361 -0.07952939 -78.314529 -0.053546917 -78.400902 -31.591547 6.7743883
1050000000 -31.713312 -2.78509 -0.076580167 -79.059792 -0.054719705 -79.158203 -31.53945 6.1991248
1060000000 -31.607885 -3.0587165 -0.073954009 -79.803741 -0.055696212 -79.919563 -31.461878 5.536375
1070000000 -31.536581 -4.1728544 -0.071657278 -80.547539 -0.056979373 -80.672684 -31.472628 5.0082722
1080000000 -31.543139 -4.7164202 -0.069095232 -81.299004 -0.058351744 -81.424042 -31.443172 4.8172297
1090000000 -31.588644 -4.6083312 -0.067911722 -82.049675 -0.059101824 -82.178528 -31.378857 4.6364231
1100000000 -31.495399 -4.1471424 -0.064876162 -82.806412 -0.061467059 -82.925423 -31.242773 4.0925541
1110000000 -31.230469 -4.5823317 -0.063614689 -83.56488 -0.062672123 -83.671707 -31.152925 3.2048817
1120000000 -31.030918 -5.666173 -0.063976817 -84.317711 -0.062901758 -84.419113 -31.119297 2.397548
1130000000 -30.979065 -7.3745108 -0.064980567 -85.074509 -0.062904157 -85.168327 -31.074198 1.929636
1140000000 -30.992264 -8.6006098 -0.065887116 -85.831215 -0.062764138 -85.915924 -31.04249 1.5722525
1150000000 -31.044558 -9.1442623 -0.067556061 -86.588455 -0.063544527 -86.661758 -30.928602 1.2255903
1160000000 -30.989065 -9.4361401 -0.06721925 -87.340218 -0.06550356 -87.41275 -30.739618 0.54180872
1170000000 -30.962051 -9.9260521 -0.068032637 -88.091805 -0.064630933 -88.16288 -30.702993 -0.71153098
1180000000 -30.893511 -10.256128 -0.06838508 -88.836403 -0.065607287 -88.909508 -30.659361 -1.5971099
1190000000 -30.837999 -10.309731 -0.070033401 -89.584328 -0.064490132 -89.661011 -30.673824 -1.9726809
1200000000 -30.725853 -10.498807 -0.069591239 -90.328888 -0.066384427 -90.406494 -30.598522 -1.7980729
1210000000 -30.578602 -11.216794 -0.071703047 -91.0784 -0.067277923 -91.152946 -30.478529 -2.3402469
1220000000 -30.449024 -12.115103 -0.069573551 -91.825531 -0.066768348 -91.905479 -30.386417 -3.2809131
1230000000 -30.421913 -13.110032 -0.071048781 -92.576309 -0.067274444 -92.649704 -30.340252 -4.293149
1240000000 -30.418221 -13.739978 -0.070365526 -93.325111 -0.066777118 -93.400963 -30.328741 -4.9788351
1250000000 -30.417538 -14.397513 -0.071528316 -94.072334 -0.067790568 -94.148392 -30.352249 -5.2853637
1260000000 -30.375296 -14.781047 -0.070890523 -94.829002 -0.06734293 -94.893005 -30.27895 -5.4135914
1270000000 -30.364073 -15.522671 -0.070395812 -95.575356 -0.06779661 -95.645836 -30.187534 -5.7250385
1280000000 -30.352465 -15.691001 -0.071481064 -96.326881 -0.068122059 -96.392136 -30.090336 -6.6399708
1290000000 -30.248644 -15.559523 -0.071916491 -97.077492 -0.068708196 -97.141022 -30.053858 -7.3486161
1300000000 -30.060017 -15.596346 -0.072683655 -97.827454 -0.069011718 -97.892906 -30.029757 -7.7629037
1310000000 -29.880047 -16.701889 -0.072941102 -98.575333 -0.069088094 -98.641487 -29.977226 -7.9691534
1320000000 -29.789549 -18.622028 -0.072360888 -99.326706 -0.069821641 -99.391899 -29.86705 -8.3452721
1330000000 -29.870354 -20.195387 -0.072615989 -100.0739 -0.070381999 -100.14401 -29.747272 -9.0576982
1340000000 -30.04491 -20.496862 -0.071975082 -100.82648 -0.069187686 -100.88955 -29.677338 -9.8771925
1350000000 -30.02726 -19.743437 -0.072987564 -101.57619 -0.070858419 -101.64058 -29.619448 -10.53029
1360000000 -29.83584 -19.450407 -0.073812135 -102.32437 -0.068479799 -102.38731 -29.62303 -11.087291
1370000000 -29.641783 -20.314949 -0.073266104 -103.07806 -0.070149437 -103.14002 -29.551867 -11.243633
1380000000 -29.555763 -21.788054 -0.073741317 -103.82915 -0.071184762 -103.88652 -29.505102 -11.962149
1390000000 -29.606909 -22.90587 -0.074661389 -104.57813 -0.070954904 -104.63262 -29.438934 -12.715979
1400000000 -29.652834 -23.037523 -0.075242236 -105.32747 -0.072077043 -105.38308 -29.461094 -13.277775
1410000000 -29.573929 -23.191805 -0.076172933 -106.0786 -0.072500706 -106.13362 -29.487844 -13.673124
1420000000 -29.455433 -23.834661 -0.07690616 -106.82731 -0.072460644 -106.88191 -29.452009 -13.8971
1430000000 -29.403975 -24.98065 -0.077182539 -107.5758 -0.071714543 -107.6271 -29.384247 -14.333307
1440000000 -29.440964 -25.844208 -0.07711193 -108.3201 -0.071720138 -108.37714 -29.295925 -14.967589
1450000000 -29.473846 -25.978441 -0.077328399 -109.07032 -0.073863663 -109.12509 -29.234053 -15.795609
1460000000 -29.406338 -25.974218 -0.077269092 -109.82648 -0.073039465 -109.87377 -29.193859 -16.543001
1470000000 -29.251621 -26.252611 -0.079013966 -110.57477 -0.073133014 -110.62637 -29.137184 -17.119976
1480000000 -29.122185 -27.170048 -0.078154244 -111.31989 -0.074561618 -111.37605 -29.08882 -17.772812
1490000000 -29.060829 -28.172344 -0.078757487 -112.07217 -0.074924082 -112.12079 -29.027016 -18.493977
1500000000 -28.990051 -29.145933 -0.079892464 -112.81958 -0.076726645 -112.87138 -28.970253 -19.246803
1510000000 -28.956797 -29.94763 -0.078592695 -113.56995 -0.076839678 -113.62122 -28.951366 -19.738008
1520000000 -28.943087 -30.998005 -0.07896813 -114.32211 -0.076351076 -114.36698 -28.915173 -19.956678
1530000000 -28.982216 -31.961378 -0.079767138 -115.07104 -0.07662794 -115.11989 -28.804806 -20.335024
1540000000 -29.028072 -32.055649 -0.080211438 -115.81812 -0.076947182 -115.8682 -28.687428 -20.944799
1550000000 -29.013865 -31.709936 -0.08078707 -116.57259 -0.078398675 -116.61712 -28.642811 -21.958447
1560000000 -28.88866 -31.482107 -0.080385104 -117.32442 -0.078286879 -117.36382 -28.620111 -22.707817
1570000000 -28.686819 -32.029343 -0.081263065 -118.0778 -0.077112719 -118.11383 -28.639936 -23.152889
1580000000 -28.578039 -33.232868 -0.080863252 -118.82882 -0.076035202 -118.86414 -28.619486 -23.394646
1590000000 -28.581795 -34.387375 -0.08238785 -119.5766 -0.078797407 -119.61732 -28.534416 -23.933865
1600000000 -28.61297 -35.09359 -0.082651868 -120.32681 -0.078223675 -120.36681 -28.469957 -24.900396
1610000000 -28.589073 -35.586559 -0.083460517 -121.07748 -0.079018973 -121.11667 -28.469568 -25.897739
1620000000 -28.557055 -36.310211 -0.08453764 -121.83083 -0.078609616 -121.86523 -28.519615 -26.620083
1630000000 -28.588629 -37.016941 -0.083488263 -122.58337 -0.07847105 -122.61594 -28.535439 -26.88559
1640000000 -28.639626 -37.340988 -0.085520692 -123.3331 -0.078173339 -123.36652 -28.457001 -27.277567
1650000000 -28.644188 -37.222015 -0.085950732 -124.08641 -0.079495341 -124.1156 -28.364716 -28.019499
1660000000 -28.514507 -37.104462 -0.087214872 -124.83553 -0.081037082 -124.86591 -28.29812 -29.150219
1670000000 -28.362831 -37.950962 -0.088434547 -125.58405 -0.079961829 -125.61632 -28.297146 -30.251585
1680000000 -28.288378 -39.390675 -0.088368125 -126.3351 -0.080484971 -126.36413 -28.343653 -30.88022
1690000000 -28.324329 -40.517216 -0.088903874 -127.08781 -0.080532566 -127.11904 -28.327658 -31.083969
1700000000 -28.437681 -40.810341 -0.0906431 -127.83863 -0.079774566 -127.87008 -28.266933 -31.358173
1710000000 -28.40386 -40.627583 -0.090688638 -128.59291 -0.081704259 -128.61571 -28.145853 -32.056793
1720000000 -28.275423 -40.797016 -0.091322072 -129.34367 -0.082125321 -129.366 -28.124174 -33.089046
1730000000 -28.144081 -41.923714 -0.09325996 -130.09724 -0.08296492 -130.11737 -28.091908 -33.978775
1740000000 -28.182936 -43.181602 -0.094076365 -130.84526 -0.082935378 -130.86749 -28.135653 -34.756001
1750000000 -28.297245 -43.803452 -0.09548115 -131.60156 -0.08364816 -131.61803 -28.152561 -35.11182
1760000000 -28.31357 -43.559292 -0.096609488 -132.35393 -0.083640881 -132.36992 -28.157703 -35.536369
1770000000 -28.235493 -43.427643 -0.097407147 -133.09859 -0.083739296 -133.12114 -28.103582 -36.136532
1780000000 -28.126995 -44.141407 -0.097658992 -133.85019 -0.085567348 -133.86676 -28.08812 -36.61227
1790000000 -28.060654 -45.433281 -0.099458374 -134.59804 -0.086300716 -134.62071 -28.04714 -37.352959
1800000000 -28.123791 -46.522297 -0.10137442 -135.34354 -0.085804485 -135.36812 -28.025984 -38.141018
1810000000 -28.191643 -47.094048 -0.10201813 -136.09467 -0.086492993 -136.11821 -28.011412 -39.132786
1820000000 -28.208397 -47.413952 -0.10246529 -136.84633 -0.085390188 -136.87018 -28.046291 -39.796261
1830000000 -28.179487 -47.918758 -0.10354032 -137.59633 -0.087289236 -137.61848 -28.042931 -40.277679
1840000000 -28.185835 -48.488121 -0.10361961 -138.34114 -0.087443545 -138.36725 -28.045776 -40.556412
1850000000 -28.175369 -48.984783 -0.1048099 -139.09448 -0.087635756 -139.11934 -27.999447 -41.098156
1860000000 -28.124098 -49.402409 -0.10505814 -139.84546 -0.088055916 -139.87215 -27.958094 -41.896595
1870000000 -28.045244 -50.074944 -0.10593747 -140.59415 -0.088921644 -140.62389 -27.957256 -42.739143
1880000000 -27.989338 -51.303627 -0.10539536 -141.34233 -0.089205503 -141.37245 -27.997131 -43.115582
1890000000 -28.037048 -52.641315 -0.10655805 -142.0939 -0.089624055 -142.12453 -28.00812 -43.445782
1900000000 -28.165571 -53.257423 -0.10637829 -142.84448 -0.088361174 -142.87323 -27.96797 -43.632072
1910000000 -28.20977 -53.026787 -0.10645358 -143.5918 -0.090463758 -143.62488 -27.890724 -44.131126
1920000000 -28.182398 -52.761826 -0.10691384 -144.34288 -0.090857454 -144.37915 -27.854118 -45.177101
1930000000 -28.043854 -53.218384 -0.10801769 -145.09189 -0.090708025 -145.12756 -27.889109 -46.268204
1940000000 -27.950823 -54.339836 -0.10880875 -145.83948 -0.09087418 -145.87851 -27.970716 -46.967419
1950000000 -27.989689 -55.434792 -0.1075467 -146.59106 -0.092330851 -146.62619 -28.05196 -47.280964
1960000000 -28.060831 -55.964462 -0.10895263 -147.33955 -0.092979848 -147.37634 -28.034237 -47.529728
1970000000 -28.067049 -56.451588 -0.10736275 -148.08852 -0.093058743 -148.125 -27.975618 -48.038212
1980000000 -28.032614 -57.176868 -0.10825753 -148.84361 -0.092687778 -148.87114 -27.914938 -49.001076
1990000000 -28.080662 -58.229099 -0.10840072 -149.59169 -0.09264297 -149.62032 -27.926247 -50.139709
2000000000 -28.207775 -59.003254 -0.10772416 -150.36069 -0.093478218 -150.35497 -27.964581 -50.81456
2010000000 -28.317575 -59.02457 -0.10685773 -151.11107 -0.091013625 -151.11407 -27.980488 -51.442089
2020000000 -28.290628 -58.60672 -0.10626777 -151.86307 -0.091303438 -151.86188 -27.961386 -51.940117
2030000000 -28.169258 -58.773594 -0.10831801 -152.62007 -0.093627527 -152.61073 -27.944891 -52.77943
2040000000 -28.085001 -59.672215 -0.10904007 -153.37021 -0.094213858 -153.36176 -27.969242 -53.892509
2050000000 -28.02405 -60.782352 -0.10968161 -154.11774 -0.095270053 -154.11015 -27.98579 -54.574974
2060000000 -28.033669 -61.621586 -0.11064629 -154.87134 -0.096609555 -154.86052 -28.048073 -54.869286
2070000000 -28.020027 -62.209179 -0.11011235 -155.62459 -0.096391588 -155.60915 -28.045097 -55.262882
2080000000 -27.985577 -63.098564 -0.11136314 -156.3756 -0.096320249 -156.36359 -28.018166 -55.781761
2090000000 -28.001436 -64.272789 -0.11247314 -157.12413 -0.096986704 -157.11142 -27.991026 -56.336792
2100000000 -28.128773 -65.251976 -0.11314932 -157.87369 -0.097896084 -157.86682 -27.99007 -57.28796
2110000000 -28.275513 -65.508675 -0.11313815 -158.62422 -0.099903636 -158.61821 -28.020544 -58.064339
2120000000 -28.350889 -65.112129 -0.11386093 -159.37883 -0.10133632 -159.36925 -28.055805 -58.571838
2130000000 -28.313263 -64.830421 -0.11554214 -160.12941 -0.10015765 -160.12531 -28.088585 -59.053726
2140000000 -28.235918 -65.434204 -0.11402632 -160.87634 -0.10241539 -160.87549 -28.083666 -59.906994
2150000000 -28.254215 -66.24025 -0.11545338 -161.62489 -0.1034357 -161.62428 -28.115465 -60.560959
2160000000 -28.319849 -66.789337 -0.11540379 -162.37321 -0.10462766 -162.3759 -28.155506 -61.388355
2170000000 -28.351397 -67.096375 -0.11647065 -163.12192 -0.10826193 -163.12206 -28.209246 -62.136322
2180000000 -28.357727 -67.71595 -0.11860686 -163.87022 -0.10791048 -163.86891 -28.277821 -62.681145
2190000000 -28.389324 -68.775177 -0.11698917 -164.61922 -0.1080041 -164.61185 -28.337172 -63.347874
2200000000 -28.518635 -69.694893 -0.1179709 -165.37007 -0.1079773 -165.35799 -28.385155 -63.723629
2210000000 -28.66007 -69.972717 -0.11729863 -166.12151 -0.109061 -166.10529 -28.427017 -64.365303
2220000000 -28.719955 -69.804253 -0.11597058 -166.8755 -0.10936393 -166.85272 -28.498135 -64.704323
2230000000 -28.653511 -69.932114 -0.1185082 -167.62514 -0.11044053 -167.59607 -28.528399 -65.264771
2240000000 -28.591841 -70.829063 -0.11836874 -168.37439 -0.1120244 -168.34381 -28.586987 -65.91597
2250000000 -28.634457 -72.010277 -0.12052146 -169.12389 -0.11214696 -169.08562 -28.634975 -66.721237
2260000000 -28.768785 -72.739487 -0.12014429 -169.86838 -0.11207043 -169.83591 -28.725109 -67.223953
2270000000 -28.836605 -72.63504 -0.11787412 -170.62163 -0.11266794 -170.58118 -28.756428 -67.840141
2280000000 -28.789577 -73.101334 -0.11973493 -171.36571 -0.11300553 -171.33659 -28.795599 -68.435112
2290000000 -28.762869 -74.398346 -0.12031707 -172.11703 -0.11272344 -172.08931 -28.834702 -69.123032
2300000000 -28.911819 -75.51767 -0.12037916 -172.86711 -0.11300027 -172.83919 -28.886215 -69.849075
2310000000 -29.166449 -76.107971 -0.11926056 -173.62141 -0.11314099 -173.59233 -28.94208 -70.547333
2320000000 -29.344069 -75.504272 -0.12155352 -174.368 -0.11328857 -174.34598 -29.004787 -71.031708
2330000000 -29.353447 -74.646149 -0.12185311 -175.12094 -0.1138177 -175.09351 -29.063318 -71.528488
2340000000 -29.225035 -74.768425 -0.12258942 -175.87228 -0.11370368 -175.84109 -29.088045 -71.919975
2350000000 -29.183523 -75.823982 -0.12133151 -176.62199 -0.11498995 -176.58757 -29.127748 -72.802361
2360000000 -29.263735 -76.978737 -0.12251425 -177.37289 -0.11427324 -177.33311 -29.220503 -73.435104
2370000000 -29.406406 -77.794365 -0.12258148 -178.12129 -0.1132063 -178.08194 -29.346378 -73.848618
2380000000 -29.498976 -78.187775 -0.12368545 -178.87073 -0.11349504 -178.83078 -29.47451 -73.741882
2390000000 -29.572933 -79.064705 -0.12425386 -179.62347 -0.11334009 -179.57841 -29.529575 -73.709984
2400000000 -29.746208 -79.818497 -0.12447851 179.62598 -0.11270024 179.6709 -29.560089 -73.879044
2410000000 -29.937416 -80.133308 -0.12427663 178.87663 -0.11386902 178.92325 -29.575504 -74.547462
2420000000 -30.061041 -79.66188 -0.12513795 178.12314 -0.11487298 178.17513 -29.697712 -75.422188
2430000000 -30.001307 -79.348869 -0.12615284 177.37486 -0.11505771 177.43115 -29.817068 -76.45253
2440000000 -29.880913 -80.333412 -0.12697215 176.63177 -0.11494993 176.68588 -29.979034 -76.668167
2450000000 -29.936157 -82.233429 -0.12744907 175.88269 -0.11359181 175.93457 -30.133335 -76.978745
2460000000 -30.180758 -83.845467 -0.12850396 175.13936 -0.11422927 175.18387 -30.201305 -77.164459
2470000000 -30.533272 -83.754349 -0.12840942 174.39146 -0.11430538 174.43166 -30.221445 -78.020828
2480000000 -30.70381 -82.871803 -0.12813678 173.64249 -0.1145587 173.68327 -30.266676 -78.881752
2490000000 -30.744513 -82.050446 -0.129574 172.895 -0.11487435 172.93565 -30.413134 -79.737968
2500000000 -30.7341 -81.99617 -0.12920827 172.14633 -0.11388563 172.18314 -30.543379 -80.735275
2510000000 -30.81587 -82.313667 -0.12941027 171.40309 -0.11439642 171.44089 -30.696966 -81.402786
2520000000 -30.876774 -82.224945 -0.12931913 170.65456 -0.11570232 170.69098 -30.838873 -81.540886
2530000000 -30.809502 -82.495178 -0.1298067 169.90334 -0.11457841 169.9431 -30.946199 -81.916756
2540000000 -30.806898 -83.71312 -0.12913993 169.15413 -0.11483964 169.19839 -31.056206 -82.009392
2550000000 -30.952644 -85.618515 -0.12913834 168.40616 -0.11530365 168.44852 -31.197004 -82.357399
2560000000 -31.363703 -87.052628 -0.12862192 167.65836 -0.11483376 167.70094 -31.364714 -82.561409
2570000000 -31.826742 -86.61084 -0.12850221 166.90749 -0.11586176 166.95399 -31.554075 -82.47242
2580000000 -32.076294 -84.649399 -0.12879109 166.15686 -0.11393496 166.19928 -31.681345 -82.409676
2590000000 -32.030167 -83.173813 -0.12792379 165.40074 -0.11280093 165.45004 -31.836073 -82.321274
2600000000 -31.951786 -83.557961 -0.127336 164.64911 -0.1143439 164.69987 -31.999657 -82.512466
2610000000 -32.083477 -84.839691 -0.12772189 163.90289 -0.11281589 163.94269 -32.199478 -83.096924
2620000000 -32.358173 -85.400322 -0.12785076 163.14822 -0.11411127 163.18971 -32.475342 -83.59568
2630000000 -32.558723 -85.023537 -0.12833416 162.39383 -0.11345833 162.43913 -32.775959 -83.570122
2640000000 -32.652081 -85.052078 -0.12766932 161.64388 -0.11099669 161.68991 -33.028221 -83.384323
2650000000 -32.742695 -86.09214 -0.12848118 160.89388 -0.11209556 160.93794 -33.223244 -82.885933
2660000000 -33.127762 -87.10041 -0.12844574 160.14429 -0.11355376 160.18483 -33.316078 -83.664642
2670000000 -33.594494 -86.343544 -0.12985454 159.38963 -0.11253446 159.42871 -33.44331 -84.367744
2680000000 -33.895859 -84.132957 -0.13051656 158.63933 -0.11417496 158.67413 -33.72847 -85.404007
2690000000 -33.887005 -81.771034 -0.13107538 157.88615 -0.11347163 157.91992 -34.103016 -85.963196
2700000000 -33.75909 -81.991173 -0.13204546 157.13603 -0.11336204 157.16571 -34.490768 -85.031937
2710000000 -33.860016 -83.426537 -0.13235977 156.3806 -0.11319778 156.42009 -34.73502 -83.585007
2720000000 -34.220348 -84.238586 -0.13243884 155.62897 -0.1136242 155.67264 -34.858158 -82.353111
2730000000 -34.630112 -83.523293 -0.13292801 154.87881 -0.11290272 154.91977 -34.919468 -81.714622
2740000000 -34.921101 -82.557236 -0.13373135 154.12968 -0.11338514 154.17314 -35.138226 -81.717125
2750000000 -35.171265 -82.550629 -0.13424423 153.37936 -0.11260109 153.42723 -35.488857 -81.328041
2760000000 -35.591831 -82.561768 -0.13528337 152.6304 -0.1131945 152.67683 -35.890984 -79.88472
2770000000 -36.226566 -81.00946 -0.13586675 151.87953 -0.11372809 151.92435 -36.167778 -77.460838
2780000000 -36.6535 -77.560204 -0.13524763 151.13306 -0.11274901 151.17383 -36.367325 -75.802452
2790000000 -36.578869 -74.05249 -0.13518296 150.37917 -0.11246854 150.41879 -36.57428 -74.974022
2800000000 -36.408939 -73.418907 -0.13635056 149.62149 -0.11174982 149.67157 -36.923824 -73.678078
2810000000 -36.640095 -74.793564 -0.13778628 148.87198 -0.1119483 148.92278 -37.387733 -72.296341
2820000000 -37.138657 -75.079353 -0.13828516 148.11755 -0.11320419 148.17511 -37.799374 -69.476357
2830000000 -37.717937 -73.11055 -0.13833867 147.36787 -0.11412466 147.42152 -37.967506 -67.163788
2840000000 -38.019501 -69.702866 -0.13797262 146.6205 -0.1140167 146.66513 -38.050369 -65.416245
2850000000 -38.204845 -67.541954 -0.1381636 145.87599 -0.11286878 145.91603 -38.183197 -64.723709
2860000000 -38.511757 -66.419655 -0.1380288 145.12854 -0.11161829 145.15672 -38.586815 -64.487343
2870000000 -38.982941 -63.330109 -0.13868283 144.38287 -0.11162128 144.39421 -39.080944 -62.271805
2880000000 -39.211948 -58.063629 -0.13892214 143.62817 -0.11330757 143.64299 -39.4804 -58.560303
2890000000 -39.094475 -53.392708 -0.13861543 142.87624 -0.11307066 142.88791 -39.557297 -53.816818
2900000000 -38.836338 -51.598984 -0.13852714 142.11877 -0.11330777 142.12634 -39.484573 -49.035679
2910000000 -39.035809 -50.530785 -0.13855396 141.36104 -0.1150674 141.37573 -39.230263 -46.114288
2920000000 -39.42757 -48.190731 -0.13870014 140.60979 -0.11557611 140.61977 -39.099396 -42.882908
2930000000 -39.534927 -43.264919 -0.13868104 139.84911 -0.11474164 139.86697 -39.010742 -39.803398
2940000000 -39.552273 -38.34182 -0.13881338 139.09406 -0.11502893 139.11237 -38.94949 -36.216232
2950000000 -39.613838 -34.828144 -0.13969857 138.33717 -0.11433414 138.35472 -38.953648 -31.99613
