! Created with skrf 1.8.0 (http://scikit-rf.org).
# Hz S RI R 50.0 
!freq ReS11 ImS11 ReS12 ImS12 ReS13 ImS13
! ReS14 ImS14 ReS15 ImS15
! ReS21 ImS21 ReS22 ImS22 ReS23 ImS23
! ReS24 ImS24 ReS25 ImS25
! ReS31 ImS31 ReS32 ImS32 ReS33 ImS33
! ReS34 ImS34 ReS35 ImS35
! ReS41 ImS41 ReS42 ImS42 ReS43 ImS43
! ReS44 ImS44 ReS45 ImS45
! ReS51 ImS51 ReS52 ImS52 ReS53 ImS53
! ReS54 ImS54 ReS55 ImS55
!
2000000000.0 0.14428224318595023 -0.19848317197178666 0.22662857113146642 0.3974684257656418 0.22496182961410952 0.39300048077416233 0.22238735688605743 0.390198667759114
 0.21305819172497314 0.40257002743249043
 0.22727753192876485 0.3976600627562579 -0.11462572714063546 0.26206292956583976 0.02118644279969416 -0.050665107860913494 0.02119342329010409 -0.025440531559919023
 0.020716149059596376 -0.024374464636871408
 0.22268719137733708 0.3916881501755981 0.021263706119708906 -0.050244821272510475 -0.1001479412399023 0.2196241288885402 0.02070895366726539 -0.024578585462260313
 0.022781136126106934 -0.02341827012984926
 0.2241219170059278 0.39693352395346126 0.021603910652463126 -0.025645235989738068 0.02117790480480501 -0.025084612503981755 -0.10667397507779904 0.24765564274175936
 0.024651024250083618 -0.046820517954217426
 0.21293951353542567 0.40177286967101594 0.02118413157942753 -0.02486935131336621 0.022754581387516414 -0.02361190884303502 0.024124386282606648 -0.04619263225047942
 -0.11201865793821403 0.27720126932179684
2010000000.0 0.12855670316468693 -0.19769457137775262 0.2501898687177512 0.384649899708291 0.24820326403275872 0.38027486531755744 0.2453242157428 0.3775213035251058
 0.23673247618868343 0.39062282766320233
 0.2506901721346248 0.3848215697129902 -0.1239688763293939 0.24099928434390833 0.01842588003483543 -0.05152898545690247 0.01786994037643097 -0.02745235087766081
 0.017620178760252268 -0.026247163274774308
 0.2460279652677761 0.3793615080178356 0.018481180058111352 -0.051171335386334144 -0.10698654679715343 0.2003389570743572 0.017593032657963702 -0.026441861269240186
 0.019750635332936743 -0.025639276431149674
 0.24746502564833897 0.3843533677178448 0.018250874570497504 -0.027746501842623332 0.017964135417914168 -0.0270137450171335 -0.1138394246830981 0.22786784171215224
 0.022289017162469324 -0.047925349599436604
 0.2364588434082286 0.3898723704335587 0.017991858825691286 -0.026808072333059204 0.019786829199826304 -0.02583227214999293 0.02172410525378876 -0.04723314204795709
 -0.12064816285813504 0.25674093280147514
2020000000.0 0.11387746513176492 -0.1956643355697226 0.2729734769184749 0.37024964510262287 0.27073522122813176 0.36602991541611385 0.26762018532036097 0.3633973318470156
 0.2596392848266661 0.3770357649043964
 0.27343954282539856 0.3703669050716169 -0.1324902459918013 0.2197955359887721 0.015686406512507745 -0.05234215716919138 0.014515727601114387 -0.02908619915017684
 0.014414428364725364 -0.027928200514887105
 0.2684802885852011 0.3651762080928189 0.01574267380543558 -0.051964871110872723 -0.11326567726526757 0.1811646058085219 0.01437024597595965 -0.028111492715389017
 0.016568190834744558 -0.02751443951368887
 0.27015647955957883 0.3702235873513023 0.014838980697724533 -0.029424266349999197 0.01468068974939293 -0.028599338474417074 -0.12010429877395805 0.20824891097646592
 0.019836987513532734 -0.049012041195525276
 0.25931274440807556 0.376288512261797 0.014727014151837333 -0.02840593125482844 0.01652377921439143 -0.02763969149823707 0.019344790694475842 -0.04826201384922826
 -0.12835958425805008 0.23604655719068451
2030000000.0 0.10036629966767761 -0.19247787703167427 0.29486111531958037 0.35442603835459185 0.2923968596561133 0.35031895498828225 0.28913168048500393 0.3478953963978225
 0.28177239784203545 0.3620550452727942
 0.2954353557877702 0.354683373896985 -0.14004926329765077 0.1983504614292675 0.012720209342961484 -0.05308506387351312 0.010964897596043858 -0.030383857426864933
 0.01100586605730047 -0.029194525595967392
 0.29005197306033187 0.34964521570082097 0.012890786210721032 -0.052772734257615236 -0.11888210929932323 0.1618416166646161 0.01094600429598101 -0.029364611607568966
 0.01324995610444173 -0.02901030881126557
 0.29209268211250083 0.3546992628168821 0.011313693318689746 -0.030725402297056552 0.01127115664404835 -0.02998966602781211 -0.12581480129185652 0.18843218171068635
 0.017316513508276704 -0.050074657861769935
 0.2814827050167761 0.3615296500147551 0.011335031700374512 -0.029810109615461412 0.013178499372555838 -0.02912128876865662 0.016865962050710646 -0.049302258172370925
 -0.13516324372826746 0.21506601401389186
2040000000.0 0.088001182299383 -0.18836096421881296 0.31577509563932343 0.337111083793329 0.3129396276961491 0.3330998691982929 0.3096742644793486 0.33097678005099274
 0.303031751431264 0.3456905359124966
 0.3164933324185762 0.3374347744029996 -0.14683335874458142 0.17648668491544825 0.009651105404852287 -0.05375103160148757 0.007275324739217481 -0.03125956843704686
 0.007407199331269759 -0.030153354483852597
 0.31066586348892994 0.3325878565916052 0.009818368367749996 -0.05337788329284148 -0.12382391949375621 0.14227438389256591 0.007332587831164632 -0.030309364226714524
 0.009692878210890881 -0.03014107225619677
 0.31301944892018924 0.33766275551950337 0.007546885999510327 -0.03166843565404457 0.007550060417218841 -0.030886812582761655 -0.13099115768635022 0.16830576076598075
 0.014572245562045347 -0.051064247529626634
 0.3028202536907771 0.3452337292564248 0.007630025525031821 -0.03072245268203591 0.00960661106238002 -0.030256495931765992 0.014114321409835451 -0.05027198736354544
 -0.14121362920995212 0.19377930258624063
2050000000.0 0.07700022667274331 -0.183701100103889 0.3358960122609171 0.3187214104120215 0.3326880323743789 0.3148586245024321 0.3292890783439798 0.3129729909471786
 0.32346175347861555 0.3282147203459996
 0.3365241627914061 0.31873951361678693 -0.1529280519231021 0.15478742054205527 0.006414213079847514 -0.054144296756915636 0.0035127580273417143 -0.03166612494618418
 0.0037006939253202272 -0.030573428118612536
 0.3302976031638557 0.31423187421579435 0.006510904662150067 -0.05379588565665512 -0.12830080646933645 0.12281593095332578 0.0036130174658905783 -0.030713673182688302
 0.005930333207740963 -0.030802141478081926
 0.3329566543365063 0.3191945709841864 0.003704942253925035 -0.03211677408078363 0.003694522147863871 -0.03136221851470809 -0.13572979720265396 0.14831057041273182
 0.011675599185962459 -0.05180124609194938
 0.3231224336327248 0.3274948478331423 0.0037887296180587554 -0.0312146876916201 0.0059561697621912345 -0.030971761493620433 0.011248632581679819 -0.05101311248751311
 -0.14665217570570685 0.17254874926775965
2060000000.0 0.06728163479109303 -0.17886167708389047 0.3548085165895858 0.29887853629086353 0.3511484795573926 0.29523257141836723 0.34750012002635755 0.2935049048017276
 0.34265860041130813 0.30932399828526963
 0.35537346113032764 0.2987778960260914 -0.1585231406095021 0.13279494533102643 0.0031455250030249537 -0.0542289997963221 -0.00024558718346310004 -0.03157864150828041
 1.951587753286419e-05 -0.03049760820294484
 0.34876307712802046 0.2947793968889163 0.0033375051540813837 -0.05393609365151852 -0.1324622458853755 0.10319633654353166 -7.889241799763722e-05 -0.0306212777349707
 0.002333439257933376 -0.03101855644087416
 0.3516716579872919 0.29960268938561335 -0.00013056598606479332 -0.03201436992155554 9.334794039825932e-06 -0.031211619500066474 -0.14025520222150253 0.12797890123193673
 0.008714451042603688 -0.05231167150441247
 0.3422953623196749 0.3085820442636506 0.00011458034794008483 -0.031082762300336936 0.0022482634126643804 -0.031122731552151464 0.008353655381598532 -0.05151476247495675
 -0.15171515005878128 0.15116015262759921
2070000000.0 0.05869209373401637 -0.17393808441347144 0.3723606271451247 0.27770735991660095 0.36832723037334625 0.2743299382497841 0.36472685636798974 0.2729171866199119
 0.3607505504737308 0.2890529827525105
 0.3728949774396792 0.2777014009147289 -0.1631026946029285 0.11120034268755975 -4.504497934168236e-05 -0.05405118846693239 -0.0038882667007379694 -0.030945441042785078
 -0.003504288225676617 -0.029970134875047443
 0.36588782187865504 0.27407401103400764 0.0001797956565018642 -0.053768103598367145 -0.13565606595607885 0.08394571816778011 -0.003610934696076527 -0.030077723826513404
 -0.0012372806107341463 -0.030769529326013245
 0.3690857730900972 0.2788293827999539 -0.003769251020099469 -0.031420807794471026 -0.003599666561995092 -0.030657622009764993 -0.14368525228966195 0.10790220562286576
 0.005793455204511155 -0.052617693707399577
 0.3603435550966873 0.2884986615734881 -0.003485875234774346 -0.03054628553918592 -0.0013208851865371082 -0.03089825349763644 0.005420183558414363 -0.0518403444982268
 -0.1559189921323759 0.1300692330132704
2080000000.0 0.050890819388752645 -0.16924246701540063 0.388434628067542 0.25550177336086466 0.38414297241221884 0.25251342350258454 0.38054895809066036 0.2513698067216862
 0.3775306952710591 0.2678624229366361
 0.3890649526811854 0.2554651755949778 -0.16677603094855994 0.08947634755881266 -0.0031957563759754085 -0.053793147736698306 -0.007303861522070197 -0.030097324914574262
 -0.0068195024093562345 -0.029106616210430154
 0.38168266514309873 0.2523550998084507 -0.0029826615757646145 -0.05352228534043101 -0.13796651128394977 0.06450184331099848 -0.006932544310303341 -0.02919861934919996
 -0.004670309374666028 -0.030201870347000663
 0.3852363708853788 0.25704387134775514 -0.007239548614705357 -0.030559036209726137 -0.007037251353390407 -0.02985840732851823 -0.14628518701983398 0.0875468983877658
 0.0029561264824474382 -0.05291890096825288
 0.3770368774370123 0.2672313998598013 -0.006916068931950426 -0.029763626541231172 -0.004771196277209409 -0.030310701882922505 0.0025816434709538885 -0.05206708962529797
 -0.159142334501417 0.10886717093853637
2090000000.0 0.04380894014223378 -0.16467346161828397 0.40308845605398913 0.2324806656157169 0.39870910469502063 0.22982704283133604 0.3950616374853215 0.22900713981947235
 0.3928826346602419 0.24561601415023077
 0.40382268365289625 0.2324467498628007 -0.16968963440767762 0.06776392972116684 -0.006331167070913078 -0.053497393012554156 -0.010547302352563443 -0.028912818425730392
 -0.010091023899387402 -0.028058553731234975
 0.39635983528957325 0.229781038911878 -0.006074423500224524 -0.05317139178020176 -0.13963255401955035 0.044998955567013506 -0.010210620180128431 -0.028136635333933083
 -0.007972431207939076 -0.029292313678931443
 0.40031695885766827 0.23440613591624077 -0.010555675079148676 -0.029428514248300862 -0.010382046094658658 -0.02868405488501734 -0.1480469269937316 0.06708444062419254
 -7.837896946079604e-05 -0.05310119731449555
 0.39258265952528393 0.2450845889138258 -0.010254623608836888 -0.028605478606176894 -0.008121561057883054 -0.02944544847102506 -0.0003565262325778966 -0.05229517774200304
 -0.16189742268490329 0.08759892229202748
2100000000.0 0.037282996188578416 -0.16020019737722951 0.4163349162458794 0.20877211149313118 0.4118601033239187 0.2063024164834717 0.4082617286578283 0.20574390841841078
 0.4069714640332497 0.22264690858826428
 0.41703902488590594 0.20852462222549736 -0.1715180508829106 0.045884600473396674 -0.009470795588948946 -0.052910323408866304 -0.013721713751644453 -0.02739026666962598
 -0.013264664689330291 -0.026529702435288446
 0.40939035594989454 0.20629359945970402 -0.009275082803133553 -0.05261456428440119 -0.14011136375677832 0.025477090645692375 -0.013390027305155794 -0.026593402443421288
 -0.011258098085919582 -0.028063336500640575
 0.413830933877746 0.21077222732668593 -0.013795799954551853 -0.027831554031319098 -0.013646525235376118 -0.02718254125084416 -0.1484338869404007 0.04629383393125661
 -0.0032143227556759146 -0.05323780230661989
 0.40659030123636997 0.2220647039157616 -0.013512767238155185 -0.0271194839070677 -0.0114358526616999 -0.028130973548340384 -0.003444305678077332 -0.05229200451733261
 -0.16351245534527503 0.06619250298643554
2110000000.0 0.031317981131844815 -0.15580082448989194 0.4282058737959808 0.1841549168256176 0.42364373686737383 0.18199191759375014 0.42005643740314125 0.181712497555525
 0.4197661822293786 0.19879766805706636
 0.42893369451936314 0.18402928367819388 -0.1724692668715132 0.024053221972607043 -0.012674711477825942 -0.05218870685141809 -0.016710919373518335 -0.025539179788898574
 -0.01622613150691975 -0.02463782038299149
 0.42117023727795316 0.18205528392084902 -0.012446559666739063 -0.05196090106299413 -0.13987891651879736 0.00584633326008645 -0.016357184952091413 -0.024686458113329854
 -0.01437523796549818 -0.026467633322949383
 0.42594455971669 0.18629785378146355 -0.01686651398923368 -0.025931355239982544 -0.016756718903193385 -0.025228543714819578 -0.1480360416655392 0.025468955697793675
 -0.006365377233771339 -0.05301893754830541
 0.41930715891530995 0.19831466836823206 -0.016618741212229938 -0.02518218997453482 -0.014462626152109796 -0.026504344603441435 -0.006466080258249437 -0.05221710919436227
 -0.16446712450989895 0.0446705547454949
2120000000.0 0.02573661555923283 -0.15153748695008493 0.4387343842392356 0.15892209726865023 0.43395623352625834 0.15694495520021326 0.43048807596113653 0.15689388231249438
 0.4310780038927823 0.17415282831553672
 0.43941062572455036 0.15882732390741133 -0.17293073528945432 0.0022509702866712 -0.01579710413661861 -0.05126952469416759 -0.019472743887231705 -0.02333174731297102
 -0.01899450559067204 -0.022366676247557418
 0.4314074974293586 0.15721267267594954 -0.015576785991860867 -0.05095290628924017 -0.13909721215830143 -0.01359422148284622 -0.019129290080602428 -0.02240068439963058
 -0.017238411732751015 -0.02450943735677919
 0.4365584023938719 0.16118489731286417 -0.019680221860920916 -0.023729184400874234 -0.019498121008440658 -0.02298102783576244 -0.14688409687095996 0.004845360289082773
 -0.009494857507542758 -0.05266490440068773
 0.43060126182396397 0.17375767359108069 -0.019356626781243697 -0.022950073798322916 -0.01737480332611152 -0.024592950489191134 -0.009574810371419764 -0.05180838456217204
 -0.16510460466591612 0.023178305868353212
2130000000.0 0.02053512147856556 -0.14749118663298452 0.4477310794712802 0.1329805258327121 0.4426569133060042 0.13130196544585515 0.4393491673999267 0.13151479903008528
 0.44114502735813116 0.14892589979773177
 0.44851668467299755 0.1329194887405872 -0.1724725368631009 -0.01953564627371931 -0.018888315982815478 -0.0501569107589903 -0.021976246235738385 -0.02084288151959596
 -0.021400626472117983 -0.01988136242178632
 0.44016308670879495 0.13164649294057196 -0.018585622200656716 -0.04991380909365183 -0.13757662248379268 -0.03284644543660519 -0.021538163037009568 -0.019901341858588537
 -0.019843144957684956 -0.02223680535466255
 0.4457084319613934 0.1353948697697523 -0.022187759414663315 -0.021213768230735522 -0.021955800054504458 -0.02030789785823095 -0.14480169076685986 -0.0155624637032026
 -0.012687331577290465 -0.05210212394071256
 0.4405539290537991 0.14859425185562508 -0.02181375643802391 -0.020292374958560074 -0.020010563419440894 -0.022314868508713163 -0.012651349935095178 -0.051293847669490855
 -0.16483374537515916 0.001614675666198379
2140000000.0 0.015462410513869297 -0.14370500004723802 0.4550823690751578 0.1065268675761936 0.44981096663712117 0.10519601430695436 0.44647931008346425 0.1056242448633548
 0.44929893808249827 0.1229995352416466
 0.4557757669625941 0.10640160815776319 -0.17102588470917066 -0.04090428244123829 -0.0218228087661888 -0.04889825478898839 -0.024088602187034885 -0.018125468699188654
 -0.023424986364823378 -0.017147199832099894
 0.44711462690791903 0.10570336878179944 -0.021516125071158874 -0.04864256993177442 -0.1350592194345515 -0.05148677186855597 -0.02356415532448609 -0.017154042039111736
 -0.022154944904939546 -0.019764940569369057
 0.45313673829058027 0.1090749738545953 -0.024391893217859527 -0.018469960275848792 -0.024099722473981428 -0.017531145774660473 -0.14167208429734426 -0.03541703550523427
 -0.015779287659551826 -0.05144397065525983
 0.44878698514899557 0.12269478342552756 -0.023956380071894903 -0.017529520534919633 -0.02232172504480371 -0.019769546599927842 -0.015763860348221796 -0.050586405395262386
 -0.16371576562151754 -0.01965271909343769
2150000000.0 0.010254730160006779 -0.140373813128747 0.46074894255755644 0.07962603608413257 0.45520690075681697 0.07878934121169533 0.45216338286407687 0.07940018995469475
 0.4559135694014975 0.0966399462990119
 0.461454256964151 0.07941392714039051 -0.16901980750950105 -0.0621651134223953 -0.024744164050820208 -0.04745513553375272 -0.02595719118337264 -0.015186844764819893
 -0.025195984314352993 -0.01423909342211991
 0.4527284847760732 0.07942202644337382 -0.024392625435607166 -0.047260162964503735 -0.13217573697922824 -0.07004778545515579 -0.025336365999570547 -0.014231518079172601
 -0.024229130733655162 -0.01706514599716296
 0.45910440781247097 0.08246173973385708 -0.02626695745418423 -0.015531216421889755 -0.025830555732763757 -0.014552313788875197 -0.13823190692122048 -0.05504535138904488
 -0.018945929194186632 -0.050592664329838444
 0.4554741831412416 0.09635844598454223 -0.0256877043858126 -0.014564955160924787 -0.024385560954488978 -0.0170634906041323 -0.018899000558516333 -0.04976428600724697
 -0.16206473180722922 -0.040934089063233495
2160000000.0 0.004603320156091689 -0.13693374025253263 0.4647226930999173 0.05261266639000102 0.4590767561362282 0.05219351097384169 0.45628388243854673 0.05295827728251043
 0.4610464319382333 0.07004794942661147
 0.465370475124422 0.05231550679599784 -0.1660981487869125 -0.0829861966813192 -0.027645018235691855 -0.045860982383617716 -0.027529765006265795 -0.012056377618081685
 -0.026620260288613962 -0.011114760553471745
 0.45661957520695445 0.05288398119042855 -0.02729572476852369 -0.04564489955805078 -0.12856618973786937 -0.08797086552191531 -0.02676035068524872 -0.011092857814483803
 -0.026001912425531664 -0.014177201090633555
 0.46337542449278807 0.05553431371924051 -0.027857270437052 -0.012303787091585685 -0.027364222023847494 -0.01143823737035955 -0.1338203285394895 -0.07389756817621472
 -0.022087486128505977 -0.049532661690292024
 0.4605383918759247 0.06980549117147837 -0.027222271068667606 -0.011465525235453137 -0.026131890928218472 -0.014167991665941472 -0.0219670915657524 -0.04864688662790356
 -0.15940055481886162 -0.06178435721743594
2170000000.0 -0.001649316097011494 -0.13313162309838664 0.4670582797841141 0.025456670485684067 0.4614715824872251 0.025452156843778568 0.4588576829786311 0.026317311137629
 0.46466365448168717 0.043239670546712815
 0.4677712323978292 0.025192924666675106 -0.16231336428130463 -0.10327592219570249 -0.0303695068709224 -0.04409533996869136 -0.028665224691442188 -0.008711295197690537
 -0.02766730575136093 -0.007890828094567934
 0.45900022626627435 0.02627086135443859 -0.03001432869531483 -0.04386600665182365 -0.1242285084148881 -0.10538436438021535 -0.02780550548629339 -0.007854347681652128
 -0.027365118729777916 -0.01103942256225484
 0.4661304898713861 0.028484373541924797 -0.029031216737597437 -0.008998991820600656 -0.028466623586976415 -0.008087098523066208 -0.12890085234248191 -0.09206151728843774
 -0.025149806831852452 -0.04830968611696702
 0.46407664787470937 0.04308307716697249 -0.02832754445754677 -0.008129207316832003 -0.02753177292912895 -0.01103126556619522 -0.0250275694643012 -0.04742001269441484
 -0.15601079829294145 -0.08213083772434393
2180000000.0 -0.008126923495887164 -0.12857384938995403 0.46778115460654673 -0.0017987117880716387 0.4622742204058673 -0.0014145979506486079 0.4599296802589144 -0.00046506375671206534
 0.46658157230655645 0.016199616397590696
 0.4685186208814216 -0.00216081826587009 -0.15782553445848396 -0.12317126050483267 -0.03294661456343711 -0.04217298065835286 -0.029368163380782363 -0.005268091439354984
 -0.028380128036085858 -0.004543925530729439
 0.4598270821811719 -0.0005133669080592143 -0.03256036638419669 -0.041953047059288526 -0.11946389066514683 -0.12218250297533742 -0.028515006753121158 -0.0044926218001325605
