! Created with skrf 1.8.0 (http://scikit-rf.org).
# Hz S RI R 50.0 
!freq ReS11 ImS11 ReS12 ImS12 ReS13 ImS13
! ReS14 ImS14 ReS15 ImS15
! ReS21 ImS21 ReS22 ImS22 ReS23 ImS23
! ReS24 ImS24 ReS25 ImS25
! ReS31 ImS31 ReS32 ImS32 ReS33 ImS33
! ReS34 ImS34 ReS35 ImS35
! ReS41 ImS41 ReS42 ImS42 ReS43 ImS43
! ReS44 ImS44 ReS45 ImS45
! ReS51 ImS51 ReS52 ImS52 ReS53 ImS53
! ReS54 ImS54 ReS55 ImS55
!
2000000000.0 0.2333605270887811 -0.16078362674745234 0.2266926545876196 0.3892639806736766 0.23340255291877732 0.38904953202589954 0.23789671111561533 0.3579564885275654
 0.2291517034632324 0.3837598666750606
 0.22723897451893948 0.38934956460778813 -0.11523353657174737 0.26235758659260255 0.020239739713195072 -0.0515317620486309 0.018537127199585293 -0.025634574575683605
 0.01834482585915447 -0.02489577434861647
 0.23112867893236014 0.3877806910711977 0.020268439292890125 -0.0510698287297103 -0.10570911785425499 -0.09730350790375461 0.017744245127758358 -0.025425241707941814
 0.021452543979371467 -0.024549681294044015
 0.23993471075719203 0.36422797309883287 0.018874796720795586 -0.02589250678629649 0.01815867005194684 -0.025862413628372882 0.10064788368355755 -0.37934985883817446
 0.018987868054061826 -0.04682535997114965
 0.22892561032808834 0.38289531800001597 0.01877027607819075 -0.025311657035224727 0.021412509226608707 -0.02468345562652324 0.018502785029442845 -0.04615353737621805
 0.24506887833350458 -0.2560938760506054
2010000000.0 0.2232406233440111 -0.17569372847751405 0.2486170649178927 0.3767615251275676 0.25504041079878675 0.3755119979617607 0.25751221091551696 0.34314244578690123
 0.2502310776832287 0.3698296740878458
 0.24904781998890527 0.3768308956329017 -0.12460908710367312 0.24139056684068186 0.01748484390155054 -0.05214180715748459 0.015241835271844608 -0.027198801029551547
 0.015117227194521996 -0.026425412518885555
 0.2527930141361465 0.3746041896763853 0.01759696260750271 -0.051825832129013684 -0.09854961633858968 -0.11491716123637817 0.014446357843101248 -0.026840545869452167
 0.018269550502432137 -0.026486242492654802
 0.2599527326669333 0.34950700931929907 0.015613588782159911 -0.027511842822919273 0.014803207682285182 -0.02732001971232221 0.11988238241082831 -0.3879826507888053
 0.01649447890757658 -0.04726776854421817
 0.2500041518820277 0.36909520387896894 0.01548686004771383 -0.02688687757143498 0.018267539898491867 -0.02659309207963571 0.015989055960610867 -0.046619936424061904
 0.26334947526121677 -0.2566343232173704
2020000000.0 0.21123370233664995 -0.1899359014747863 0.2698187038362982 0.3629240974974154 0.2757745993891017 0.3607312472555741 0.2762749941800383 0.3274246219717737
 0.270478116813358 0.3547761574521521
 0.2702743220500924 0.36299241540121385 -0.13291876309549763 0.220267172467659 0.014759050742663067 -0.052746266071820265 0.011929996341800392 -0.028416919209546487
 0.011925072657903999 -0.02759430959170027
 0.2735113776327686 0.3599502546177341 0.014880851417647159 -0.05242758375601299 -0.09102498498780219 -0.13170827190895232 0.011209209814926216 -0.027888779013826286
 0.015021341936674067 -0.02800953798884631
 0.279052486490397 0.33366935999033404 0.01225220587255748 -0.02878018020229662 0.011442119845837399 -0.028387460220746244 0.13914907427986198 -0.39553181412390453
 0.014027509888984616 -0.04771093751037738
 0.27014811467346067 0.3539949813266097 0.012178991910839019 -0.028088053256136076 0.01494850412330052 -0.028145755497062944 0.013587323366739134 -0.04702652699324141
 0.2811190959456299 -0.256249060949101
2030000000.0 0.1976196373099378 -0.20316122971393458 0.29038407597976224 0.34794564478921086 0.29581189513448714 0.3449388063591935 0.2939733573618968 0.3106851534331594
 0.28971002705756277 0.33857957892565976
 0.2908401837162904 0.3481762474076525 -0.14033728518758756 0.198900215047121 0.011919286700052888 -0.053342024763677894 0.008537488505172572 -0.029311486361689263
 0.008581950010658621 -0.02851424419003908
 0.2933523593296464 0.3442369002164409 0.012067000902662363 -0.05296939453796799 -0.08283949693478374 -0.14818357129517218 0.007835203317463641 -0.028669532626715122
 0.011577045279329228 -0.02924196294135366
 0.29711944319035105 0.3168560696780014 0.00884342503102988 -0.029729173524685095 0.008045289397214921 -0.029175316383414543 0.15851446787562254 -0.4025255096845856
 0.011538965159373856 -0.04811471206840176
 0.2894044214506577 0.3379177645173881 0.008813150678319026 -0.029006479602497505 0.01151166180675043 -0.029391915648308304 0.011120344862688059 -0.04740425215715954
 0.29848587587964404 -0.25508137468312275
2040000000.0 0.18255778465463474 -0.2152975161403348 0.3101293470194988 0.3318303755691746 0.31479259027248563 0.3279383829887367 0.3106834493290376 0.2930967455801156
 0.3078489068286663 0.32139454262336187
 0.31078085134777317 0.3321002862611672 -0.14699102338181602 0.17706011533497548 0.008952139991147771 -0.05386951657149666 0.004980093961995936 -0.02981099522644128
 0.005175250187027781 -0.029038908751774763
 0.312485399533695 0.32736785388217265 0.009089188352941945 -0.05351408194928203 -0.07426125923990999 -0.16435292603711482 0.0044159927317380995 -0.029066778689195317
 0.008083732344767624 -0.030077275912516473
 0.31412916065364377 0.29900443923762726 0.005248957521802954 -0.030218444455278836 0.0045674177044575095 -0.02965743246975654 0.17794648180567352 -0.40874028172297916
 0.008931305069957709 -0.04844436282198108
 0.3076477701254087 0.3208130290011162 0.005345523109728617 -0.029635335504232026 0.007986708322476924 -0.03023191634946015 0.008567434429238411 -0.04764229068369106
 0.31545955942292736 -0.2531753407797967
2050000000.0 0.1662418328830304 -0.22631365497915276 0.3294126170084369 0.3148014572741077 0.33299314819537085 0.3100393429812072 0.3262918279548362 0.2745832857378643
 0.32507963658916805 0.3033779234612756
 0.329961422710452 0.31476483913516984 -0.15294202334776053 0.15530364852600886 0.005793404969927685 -0.054096717607239206 0.001414270404598618 -0.02992760709010599
 0.0016226275195378864 -0.02913898273854818
 0.3306715334065546 0.309482699880968 0.005948426687701802 -0.0538064004578839 -0.06543576342063694 -0.17978188711549545 0.0008771134244847339 -0.029019094085018467
 0.004425372931409092 -0.030441503957050278
 0.3301419198847783 0.28025098844080726 0.0015955463618046442 -0.03030683601775304 0.0009780600561738028 -0.029567660494416215 0.19705885977707915 -0.41380987379461376
 0.0061734560825567955 -0.04852585921075538
 0.32486697317516006 0.30274992718359345 0.0017398888622569158 -0.029693723443501553 0.004399868413936651 -0.030551564391875667 0.005897645531135654 -0.04780429134088697
 0.33163185076074886 -0.2504123946124384
2060000000.0 0.14864036331291622 -0.2360295488955493 0.347671029467684 0.29645889694969607 0.35026932804112765 0.2909473935730719 0.3409395477419669 0.2553720299352543
 0.3413824264894207 0.284482354499991
 0.34823061559555557 0.2962810376468127 -0.15840674719723896 0.13332351037911416 0.0026560765532836414 -0.05415055606965817 -0.001990223924899866 -0.029465390961042264
 -0.0017042405398127525 -0.028738689530611008
 0.3478974698208732 0.2905920755783715 0.002827163125592155 -0.0538114850188045 -0.0563398809969876 -0.19485762075562146 -0.0024105680663205785 -0.02849343904872896
 0.0009485420895414589 -0.03035389643963613
 0.34502335573429505 0.26077986730509567 -0.0019055493644315948 -0.029887365355293943 -0.002465412094238519 -0.02907781543493193 0.21619079195010207 -0.4182206828533743
 0.0035314058566857484 -0.04848326634463175
 0.3409902369945259 0.2837667025551273 -0.001738253282623984 -0.029337084946232213 0.000830634441855696 -0.030440911263315364 0.0032401587901842613 -0.047748621169304686
 0.34712370806061355 -0.24688508511631707
2070000000.0 0.12976362694558286 -0.24433050849798532 0.36506629061075213 0.2768293906990134 0.36649551960563154 0.2709173195929361 0.3544051910989215 0.23529101663104654
 0.3565631707910095 0.26467899615207474
 0.36555977601949385 0.27677940713459487 -0.1628781617007459 0.11163607797141072 -0.00044457561280062253 -0.0539349126059582 -0.005236738235821996 -0.02865759516488258
 -0.004979482884184442 -0.028075086572502753
 0.3640216062855411 0.2706695643788513 -0.0002510602942036914 -0.05358792713518056 -0.04640368724128846 -0.20911215259379118 -0.005629050896098009 -0.027700209014615004
 -0.0024921158207011364 -0.02982405895197388
 0.35867041712271075 0.24050882376982985 -0.0052161929491157 -0.029075103483746038 -0.005673836609545646 -0.028230660385264218 0.23578141629932123 -0.4211537449083426
 0.0009488087127660887 -0.048238698618596934
 0.35610738966045147 0.26404311493719174 -0.005006703759661315 -0.02861504750954576 -0.0025464170312274135 -0.029888925319798438 0.0007032383524999854 -0.047501314484051656
 0.3625439223962208 -0.24198921813970742
2080000000.0 0.1097249812703365 -0.250989218997187 0.3812076530885845 0.2561601558870959 0.3815148443612738 0.2499712491253766 0.36657799515812356 0.21447392324835426
 0.37059562543289587 0.2442286373229118
 0.3817877433795024 0.2560813961975825 -0.16640499405760587 0.08983134232486689 -0.003480189112411545 -0.05366682956227487 -0.008312899797453185 -0.02752347981844031
 -0.008001342038467895 -0.027079160318548352
 0.37907843213278464 0.24977325739538275 -0.0033050737952303893 -0.053365280441980835 -0.03573688530510536 -0.22286368422703512 -0.008575778893165279 -0.02658528705963202
 -0.005620302547267261 -0.029123517008771638
 0.3713030536370026 0.21956556167406965 -0.008282264158428969 -0.028001393185548645 -0.00871559444464372 -0.02709640726548847 0.25549881669434005 -0.4231611337396699
 -0.0015357154936904629 -0.047981795793614876
 0.37001220489685666 0.2434857400513818 -0.008126836493956374 -0.027593768350218296 -0.005793914250090313 -0.02915457004751335 -0.0017741942622669744 -0.04725427581151931
 0.37770902602574863 -0.2365120599639961
2090000000.0 0.08864048542113429 -0.2557260625362158 0.3962285324529903 0.23455062943134206 0.3955331152978622 0.22819941198405172 0.3777223965188938 0.19318903075578847
 0.38342363892664855 0.22293746700015485
 0.3968882255916575 0.23442267046165174 -0.16932977774891925 0.06804449997371016 -0.006556085916932035 -0.05332173666878051 -0.011217246165456426 -0.026191307223024176
 -0.01095440257390619 -0.025867359404819313
 0.3930233005582642 0.2280875906249526 -0.006360576319922846 -0.05298612300931589 -0.024554523227905023 -0.23632114219792655 -0.011439523137764616 -0.025271998537024373
 -0.008746211415932265 -0.0280416296376019
 0.3826609710983928 0.1979056627395809 -0.011216670086492346 -0.026656757628277187 -0.011667001327828181 -0.025827683622808736 0.27544089926677906 -0.4246010040020458
 -0.004211125767378518 -0.047782017077195094
 0.382917228168567 0.22229367466921704 -0.011167128089483622 -0.026429205313359773 -0.008899416391094882 -0.028155294539511787 -0.004364126016780023 -0.04691297350019101
 0.39264770897851076 -0.2306547870039204
2100000000.0 0.06643086185601318 -0.2583180422416975 0.4101290004800787 0.21220061539175888 0.4083060755397783 0.20563881728191455 0.3874976911198227 0.171311414034231
 0.3951847431531264 0.2011302999139727
 0.41079564856025447 0.2119608280669024 -0.17104477493699227 0.046035658714605715 -0.009668037228153369 -0.05275464234219866 -0.013995098907029341 -0.024592898154198413
 -0.013821435550517779 -0.02428529575478564
 0.4057521508765057 0.20563056152847697 -0.009401130798112466 -0.05247883915135656 -0.012595341092890342 -0.24906972845249523 -0.0141968334194776 -0.023601019951611582
 -0.011810381096394592 -0.026659183033791365
 0.39282081562771887 0.1757438784949257 -0.01407294025108494 -0.02500952230395469 -0.014457159331599063 -0.024137912595876755 0.29548302025464485 -0.4246908849329515
 -0.0068658330513884985 -0.047347803746869706
 0.3946857084579656 0.20051450413314575 -0.014067086057405252 -0.02483498174956725 -0.01193561476316853 -0.026724177892097717 -0.006942011409764278 -0.04652247267466285
 0.40748278833215745 -0.22392481960201538
2110000000.0 0.04362146243507946 -0.2581111339739454 0.4229380702556584 0.18879122591901304 0.41996085681096906 0.18212534042568218 0.39638376754673393 0.1490353742021623
 0.40587438386793245 0.17861791608274957
 0.42358677699964364 0.18861189347738677 -0.17200190494635084 0.02407651433242057 -0.012773847638937776 -0.05202276029063651 -0.016520570459406934 -0.02267646575347827
 -0.016539274633890683 -0.02246233388002511
 0.417399201670647 0.1822742858310364 -0.012521707205297326 -0.05169790597455111 -0.000225521176698515 -0.26146679830951564 -0.01679712466051599 -0.021712563629601316
 -0.01469133452974803 -0.02499417280044027
 0.40184937735634885 0.15300575629636565 -0.01663339966668449 -0.02308502498982898 -0.017081398444808896 -0.022132712450905898 0.3155375253895354 -0.4238121664170182
 -0.00954132444301133 -0.046735048119588264
 0.4054754230574014 0.17813973841782113 -0.01681960341701521 -0.022906207882899387 -0.014808928384020006 -0.02503842170474151 -0.009632586245710029 -0.04596747933378619
 0.421728427299058 -0.21677689272896525
2120000000.0 0.020822843263815265 -0.2550586344552909 0.434583788356651 0.1644291588926132 0.43036021538313396 0.1578238462899915 0.40390064337529 0.12619130037538828
 0.4153001448579821 0.15547248077875261
 0.4352321881756582 0.16429459922257184 -0.17255039170069147 0.0021697747311401707 -0.015877946624408182 -0.051076586504360894 -0.018847469234111812 -0.020542590308719702
 -0.018941172932083156 -0.02021733663429747
 0.4277332944152944 0.15811970873065334 -0.015652433551441518 -0.0507735570454233 0.01236099091551998 -0.2732104765646549 -0.019067687913178883 -0.01941773860520005
 -0.017234960669057792 -0.022975390923455966
 0.4096562821549843 0.1298593561267611 -0.01901891607469811 -0.020891166468272326 -0.019452298905068624 -0.019854570555547627 0.335086983451998 -0.42195891445664346
 -0.012188775375308788 -0.046029944733729
 0.4149250501797521 0.1549523710477747 -0.019329382365630733 -0.020676982937009425 -0.017418395624241374 -0.022959226891458615 -0.012207239481003253 -0.045229105939191765
 0.43520910187330364 -0.20914878256844882
2130000000.0 -0.001549668215907273 -0.24945531159385503 0.44496300501588987 0.13924796596451952 0.4392193955252855 0.13289885310046737 0.4101904787273363 0.10293006007384808
 0.42369673430120125 0.13180339045974762
 0.44563061094531875 0.13903950214190397 -0.17213295978220272 -0.01969133416426915 -0.018912428490153215 -0.04991320830066177 -0.020885954868258238 -0.01817460920049651
 -0.02103131051781804 -0.017741064205216293
 0.4366416451375673 0.1332314452972421 -0.018618954899114533 -0.04966470857983145 0.025211342939753346 -0.28411231261552905 -0.021007925469468284 -0.01691068946867805
 -0.01956067673634666 -0.020686509267455255
 0.4160689191040381 0.10617423448811311 -0.02108930195709928 -0.01850376756642096 -0.021449676965633737 -0.017302464597154964 0.35422778737687555 -0.41915082977298607
 -0.014832779338112114 -0.045164784185465275
 0.4230754824715341 0.13124023042111127 -0.021470022683765844 -0.018144912704739023 -0.01972342968550631 -0.020715460031458497 -0.014760937733085821 -0.044366646082110286
 0.44821345681765945 -0.2007163209775216
2140000000.0 -0.023353274904025938 -0.24140330656607428 0.45365456790210135 0.11313077795188416 0.4465714574080062 0.10718654963369625 0.4149634537119474 0.07933210221833695
 0.4306416216906178 0.10754779311916222
 0.45427266002950145 0.11286137253132172 -0.17071398205373264 -0.041086470138295667 -0.02188176204600765 -0.04858805839440066 -0.022689021049171636 -0.015599459321949852
 -0.022856176267024644 -0.015181990153494768
 0.4438386681756495 0.10770528717057415 -0.02159358900415111 -0.04837307063388836 0.03846159005462529 -0.29404381433239196 -0.022687903032405636 -0.014348281572570468
 -0.02162921532098964 -0.018248449069618887
 0.4211890163327466 0.0821851662100185 -0.02292435397893547 -0.01594820000155699 -0.023135163526517653 -0.014637337201124187 0.37299247150024345 -0.41522993130367375
 -0.017333460633645104 -0.04422728197029059
 0.4299349982946828 0.10705489960224499 -0.023304626131710096 -0.015485744260167345 -0.021779985617653003 -0.018197579741033136 -0.01728784098645033 -0.04339861411107718
 0.46067159070894204 -0.19152319652842856
2150000000.0 -0.04466427357611041 -0.23109566360778167 0.4607202404633482 0.0863244469852526 0.452318635146998 0.08108774252540253 0.4186503094008185 0.05546146429784623
 0.4362188134295175 0.08283789846415882
 0.4613795388581549 0.08605051039038411 -0.16880201749931756 -0.06245402353108217 -0.024738981173127405 -0.04715635008400473 -0.02419622906848506 -0.012907655943062521
 -0.024367522364392796 -0.012406540202393042
 0.4498058472008207 0.08166129695247851 -0.02444660423186739 -0.04693179734973035 0.051670994940417124 -0.303334249850974 -0.02405790109238325 -0.01158994800172986
 -0.023431859631851595 -0.015645942871240024
 0.4250058145727125 0.05807478061235837 -0.024501507354939066 -0.01317650168637921 -0.024530387466389518 -0.011848484505187135 0.39115488863966485 -0.41069797392359575
 -0.020006457362954453 -0.04309199340390989
 0.4355551423388422 0.08253240016549694 -0.024848824408096448 -0.012678205315660046 -0.023572185419546997 -0.015656118048019547 -0.019842220278105758 -0.04237302078167209
 0.47215467618240287 -0.18182832840118537
2160000000.0 -0.06520489824215273 -0.21789062188921177 0.4661146136463859 0.05906130180137248 0.4565501363760001 0.05457776605504906 0.42082084784865786 0.03153244624855325
 0.4403222392179663 0.0579799500673398
 0.4667645036307699 0.0587843214555342 -0.16592588129053673 -0.08328220658260638 -0.02760488688514706 -0.04557356737012507 -0.025454776541575092 -0.010087648199062738
 -0.025589849622091657 -0.009441737091074905
 0.45395687032551574 0.05528423909020441 -0.027350346402276557 -0.04530951357522891 0.0650993311421374 -0.3115959906849568 -0.025126322930503125 -0.008665445807604049
 -0.024926458769043026 -0.0128442975588154
 0.4274512809900197 0.03375569176914237 -0.02577978310097802 -0.010267219537072656 -0.02564371465353025 -0.008872292815285078 0.4085794026475319 -0.40484393886704334
 -0.02256562645298171 -0.04190621268127116
 0.43977503875351154 0.0576781364720737 -0.026118975511875395 -0.009660566044425311 -0.025060272502583292 -0.012876785442672846 -0.02236766271485888 -0.041068920455823985
 0.4828868213659387 -0.17124340813102507
2170000000.0 -0.08442936461021697 -0.20195826110497905 0.46977567298527345 0.03141648784371269 0.45918897588107155 0.027734081549401556 0.421924920112172 0.007471509252387485
 0.4433419415140098 0.032745432749774324
 0.4704204823484106 0.031056430336095772 -0.16221198615388388 -0.10359370620659922 -0.03034296392905953 -0.043687729668672834 -0.026337125395417896 -0.007032039562491327
 -0.0264274330845795 -0.006451189295451696
 0.45655787361536965 0.0285651521929327 -0.029969240230900925 -0.043432650768309364 0.07864425444292392 -0.31902088786951976 -0.025821875826259732 -0.005742938832307703
 -0.026127851255054978 -0.009924710989219399
 0.4286176897828693 0.00922867866401724 -0.026711922751707893 -0.007248919788890679 -0.026417733045173652 -0.005875502575532736 0.42565492188765536 -0.3984705023404268
 -0.0250633876398448 -0.04047565346747179
 0.44280532154295066 0.03248007996845559 -0.0270342425337102 -0.006598977544382362 -0.026327146808861085 -0.00991234523074711 -0.024825472140483584 -0.039719446636603865
 0.49291804324338395 -0.15984919019666927
2180000000.0 -0.10178589157060591 -0.18335071038980827 0.47167759873329695 0.0033579413380928286 0.4600581589700613 0.0007267942348378384 0.42171757301246465 -0.016764746410288838
 0.4448961381855479 0.007230710567416031
 0.4723320321055966 0.002960794814746991 -0.15786653274646553 -0.12340793249293956 -0.03287115743812117 -0.04166428024258626 -0.026932811148370397 -0.00391588206492155
 -0.0269559171753796 -0.003302175855960635
 0.4575588988155597 0.0016277031059433273 -0.03252706032653112 -0.04147622201213086 0.09219468017560625 -0.32537304474772627 -0.02621591897128237 -0.00268732483427015
 -0.027020971954656147 -0.00680752495426783
