! Created with skrf 1.8.0 (http://scikit-rf.org).
# Hz S RI R 50.0 
!freq ReS11 ImS11 ReS12 ImS12 ReS13 ImS13
! ReS14 ImS14 ReS15 ImS15
! ReS21 ImS21 ReS22 ImS22 ReS23 ImS23
! ReS24 ImS24 ReS25 ImS25
! ReS31 ImS31 ReS32 ImS32 ReS33 ImS33
! ReS34 ImS34 ReS35 ImS35
! ReS41 ImS41 ReS42 ImS42 ReS43 ImS43
! ReS44 ImS44 ReS45 ImS45
! ReS51 ImS51 ReS52 ImS52 ReS53 ImS53
! ReS54 ImS54 ReS55 ImS55
!
2000000000.0 0.18028328012959077 -0.0700610868391769 0.23266535988232698 0.390559012923843 0.24657108778947157 0.3609956275087463 0.20782284885046637 0.39628055524249556
 0.22632220772210468 0.4173377748826593
 0.23314838892143988 0.3906928490282831 -0.11520522623986525 0.26214680187867756 0.016905854058650575 -0.05038509173513052 0.02189064658401241 -0.024342852359018213
 0.019810798411653313 -0.02616083552863463
 0.24431786928930024 0.36002779223778175 0.017008423085306104 -0.0500154583756541 0.10065119083018867 -0.3900274028116567 0.018907615420864422 -0.02452441571766675
 0.02186854039660204 -0.024969803537246933
 0.20927637900312315 0.4029204878827416 0.022326284382320975 -0.02450274057949571 0.019275858606536026 -0.024999600895510826 -0.299735299223817 0.11871424126783205
 0.028931367399654035 -0.04698351145875173
 0.22617582851511872 0.41651144112850613 0.020214352859549055 -0.026667414650755134 0.021849372295771594 -0.025102088815624438 0.028285304002159117 -0.046378853808265064
 -0.09774872039264154 0.009066818865114734
2010000000.0 0.18094994209707843 -0.0811161739003196 0.2545856521955159 0.3769699316589816 0.26613205550078317 0.345022768609694 0.23120995930623273 0.3844376647074512
 0.2506322880547705 0.4034165411451685
 0.2550427942824015 0.37705555098533444 -0.1245284231598495 0.24120621249163868 0.014084951600231163 -0.05074163844324178 0.01881157525612628 -0.02647928330713114
 0.0163347920316766 -0.027936977645329354
 0.26399907691247176 0.34438618265021104 0.014199335911354572 -0.05041824029478018 0.11951329371682021 -0.3982050865190283 0.01564560552098508 -0.02623593348028019
 0.018591056184243983 -0.02696009731752438
 0.23310218052480466 0.3912234534987437 0.019183927671768033 -0.02672148903083464 0.016025064458989484 -0.02673096786541571 -0.2903854100044425 0.10530540079212532
 0.02624256603116893 -0.0484269700145168
 0.25032399241946846 0.40258433727652804 0.016747402585108945 -0.0284647701493011 0.018495712696329523 -0.027138215699469212 0.025703833329861998 -0.0477986094521664
 -0.08786319999342054 0.009772380675932668
2020000000.0 0.17986133649368385 -0.09261361393381962 0.2756489222862643 0.36203958066599895 0.28447491941087466 0.3281230654582174 0.25402227214533685 0.3712432272418954
 0.2739771657202197 0.3878281077249339
 0.27602837534342617 0.3620481398943775 -0.133010413567486 0.22019548608304718 0.011385287093888764 -0.05101234706059445 0.015525673992395727 -0.02823677276892935
 0.012867520087489696 -0.029333133243960443
 0.2822735870617621 0.3275534916322507 0.011516486847619719 -0.05070929662667902 0.1379514912225608 -0.4052409917757662 0.012399788793134296 -0.02758011761590878
 0.015223951485392951 -0.028558189501593816
 0.2562967074848023 0.3780886259127122 0.01592084757830787 -0.02857245727475628 0.012716448664143091 -0.028060194227670324 -0.280567018817678 0.09237292282180286
 0.023606018189921252 -0.049782469117374224
 0.27369761804090187 0.3870816949901572 0.013217340466669943 -0.029844657691328783 0.015146919613122325 -0.028711760185676265 0.02298751860984992 -0.049130075386624075
 -0.07816159944298667 0.01089199986342887
2030000000.0 0.177209812180744 -0.1043420632614978 0.29574023424598533 0.3460810305295016 0.30175804048016724 0.31035988914361934 0.276099967882707 0.35669783966374785
 0.29625483930193924 0.37100641593340566
 0.2962472337709503 0.3461471783815112 -0.14046888044759825 0.19881324726857882 0.008561578100250822 -0.051308488144624464 0.012078305336556024 -0.02968506064078132
 0.009264128755815336 -0.030359210913260708
 0.2995338229094053 0.3099280852562912 0.008735854986087475 -0.05091320658337016 0.1567671404194304 -0.4116696422131019 0.009010743013326432 -0.028574501206638875
 0.011678145201928372 -0.029826245855723046
 0.2787232144005918 0.3635483247232913 0.01241877312491697 -0.03008267874892238 0.009235136103692082 -0.02911096180359312 -0.270266617813641 0.07986271821786409
 0.02079105198870087 -0.051120039006500306
 0.2960163269215086 0.37031333286783114 0.00951154971047223 -0.03093438886864743 0.01159140363194728 -0.029953792551376625 0.020217640391259728 -0.050386834949477294
 -0.06889564173615736 0.012081358268528186
2040000000.0 0.17305023823561808 -0.1161261102815406 0.31499699244330637 0.3289416032015741 0.31792211827514155 0.29186808703552414 0.2973603864095831 0.340870310529117
 0.31754657341778914 0.35298642602152885
 0.3156816943727965 0.3291315469254028 -0.14719642794425478 0.17702727309151303 0.005675846180938042 -0.05145117571921807 0.00845857799666176 -0.0308110549627355
 0.0055906315731748145 -0.03100556772335537
 0.31558372667811196 0.29140870365017413 0.005803263753205239 -0.05111945750370487 0.17557618161560395 -0.41719305160854175 0.005550190967792154 -0.029218188520405242
 0.0079972094477805 -0.030656331456466693
 0.30041472707467454 0.3475446748999914 0.008702550125961639 -0.03120219217085287 0.005694935373014685 -0.029763811397498813 -0.25927993117356923 0.0676950149419734
 0.01781612060379328 -0.05235204581514265
 0.31723153926630954 0.35226209404944 0.005747925154599161 -0.03158213946730676 0.007902284830362663 -0.0307853053477006 0.01726893600662171 -0.051548058070785975
 -0.06002189784286885 0.013596649099910041
2050000000.0 0.1674639728660085 -0.12795276369918338 0.33346131167441945 0.31103860820811696 0.3328872075628917 0.27257072173257063 0.31774811075622716 0.32391495302842843
 0.337733174760839 0.3338035893099393
 0.334046459283425 0.3110265149721118 -0.15316745895557682 0.15543554825369088 0.0026402899040047613 -0.05133049718762634 0.004620314473708969 -0.0313973911593298
 0.0017927711760265138 -0.031152420740591342
 0.3305176653178301 0.2722209422652303 0.002800439158330607 -0.051028805364873364 0.19406806556749842 -0.4216039305886652 0.0019688259910676 -0.029392597772829123
 0.004212937554595052 -0.031076758375496203
 0.32131740877155357 0.3303258180115168 0.004867947385975792 -0.031786667756943866 0.0020676361925258927 -0.030008419526558982 -0.2483033290383863 0.05641183409769464
 0.014651843035780031 -0.05333342631958222
 0.3374272567577024 0.3330808781849512 0.00190399574570998 -0.0318112897627802 0.004101967357368083 -0.031185957418162654 0.014116993005853654 -0.0525238261241347
 -0.05202112719278287 0.015657990050837733
2060000000.0 0.16029616918436462 -0.13957294935491432 0.35091641524450823 0.2920532552056377 0.34671192164994963 0.25260907099350005 0.3373350061822199 0.3055644766513298
 0.3569233268994737 0.31358548900638505
 0.3514800167790585 0.2918958591762081 -0.158608071799332 0.1334689089270924 -0.00033651700828482307 -0.051056130902053 0.0008850789313193188 -0.03147377154441467
 -0.001896235403456258 -0.03086788049373036
 0.34431675978571163 0.2524181009586735 -0.0001463292194167461 -0.050743032767958225 0.21242827275623968 -0.42535389827730763 -0.0015201986392151267 -0.029157683028207204
 0.0005243409134916394 -0.030865319625704025
 0.34122808363582563 0.3118175722699911 0.0010628366522124374 -0.03191418545047329 -0.0014763798086210953 -0.029690452122251458 -0.23731871913471073 0.04585132140488062
 0.011391462983469106 -0.05412732220421354
 0.35647602647547244 0.31281312777773335 -0.0018420983034847624 -0.03144455420234866 0.0004935328224050363 -0.031022373194799852 0.01095247513849519 -0.05329684466396862
 -0.04469474917016028 0.01798538118245674
2070000000.0 0.15140336338277877 -0.15077866670485057 0.36729022150892404 0.271897131179514 0.35927478846043864 0.2320879436920752 0.35594351025934867 0.28597919264172045
 0.37481482204310834 0.29220633513962807
 0.36789824263066506 0.2718629545360935 -0.16310331274053183 0.11184925144967275 -0.0031729832479839033 -0.05051519957586373 -0.002755039137901687 -0.031004668855766263
 -0.00531083207927262 -0.029974319659819552
 0.35700511779319366 0.2319467894493297 -0.003016620734788618 -0.050163396081294546 0.23123775832858304 -0.42765542789200156 -0.004755028100515794 -0.02833352851312625
 -0.0029005574619618874 -0.03031758499658569
 0.3600905030550274 0.2920800819711651 -0.002660341058336753 -0.03144147919229002 -0.004868170063196819 -0.028943567594719378 -0.22594418451533993 0.03648081374882324
 0.008168912905859551 -0.05464277511996229
 0.37432828762835996 0.2914646653868092 -0.005430922073944139 -0.030628028806524408 -0.0030436408010122065 -0.030424693513473995 0.007786248394215754 -0.053819796178039475
 -0.03786775580688173 0.02127323309208165
2080000000.0 0.14070259223656137 -0.161365037127106 0.3824863907411552 0.25099837189151036 0.37069161166013526 0.2109248837168811 0.3732517049987962 0.2651505988362237
 0.39140386130728605 0.26981384930525354
 0.3830709588102874 0.25088599122694555 -0.16653317910206797 0.09013736141336998 -0.00596247485556051 -0.04997988185679637 -0.006301810518025766 -0.03031928722685112
 -0.008675375430470882 -0.029004344677817352
 0.36856306520083 0.21105060706030754 -0.005775175180443969 -0.049681307872075475 0.25018127805219514 -0.42918770569311576 -0.007942401844413575 -0.02743959351321814
 -0.006199169670690537 -0.029533236131178645
 0.3778982890351758 0.27112078109367554 -0.006205812658327935 -0.030782517994438353 -0.00799849982882782 -0.02799638602180619 -0.21395649314747175 0.027771563138713436
 0.0049473703074815875 -0.055152556489110896
 0.3909744350821806 0.2691266011335863 -0.008734741522706405 -0.029607184109252616 -0.0063616445894982545 -0.029552777520796946 0.004575772412269796 -0.05426819342351173
 -0.03121840730148573 0.024801585478982258
2090000000.0 0.12818919005932303 -0.17079902490128138 0.3965510132483286 0.22935565745027556 0.3810632069913692 0.18940549129814868 0.3894886709691282 0.24339969373980444
 0.40687206660562336 0.24662059212142395
 0.39724190731192427 0.2291810918060078 -0.16933416768479723 0.06838436181178623 -0.008778022902129786 -0.0492816640043595 -0.009669214109700378 -0.029236636818969555
 -0.011783010295933857 -0.02770781203453176
 0.378888517230648 0.18950489333785386 -0.008509575339022274 -0.049000113780459494 0.26935772937960134 -0.4300434549891612 -0.01089115871357067 -0.026224809820761606
 -0.009449026386571635 -0.028422508355309985
 0.39447138928530184 0.24893191770416884 -0.009630133873224039 -0.029648530540719534 -0.011105393180009832 -0.02680579033064661 -0.20195230745453813 0.019941457061700123
 0.001639447896076489 -0.05555055264375346
 0.4063810412559518 0.2459583147489203 -0.01201636476798029 -0.028339015250878497 -0.009563010365089983 -0.02845280376706183 0.0013522554329879692 -0.05464399132463864
 -0.025276997030428072 0.028834424539776804
2100000000.0 0.11396941290880719 -0.178457235722623 0.40943300671626476 0.20698095735332464 0.3902033388476953 0.1675073419878752 0.4044011692612156 0.22047858247159316
 0.42084283260629796 0.22252283245067894
 0.4101259687736448 0.20675515382999116 -0.17101303101820658 0.04642963164601994 -0.011530686212839958 -0.04854103364672846 -0.012920402405313986 -0.027748329732499452
 -0.014788364517450466 -0.026100302563409596
 0.38786791764357303 0.167650191434058 -0.011299596052093276 -0.048225841442437585 0.2884502067194564 -0.42976101372943365 -0.013740894033479384 -0.024708636513170498
 -0.012627221534651682 -0.026935069665726088
 0.4098846018616862 0.22575273219473185 -0.012929534644709749 -0.02822365587350308 -0.014067476925076159 -0.02524856515479554 -0.1899072834222585 0.012836770415418992
 -0.0018408422093360586 -0.055801428865890255
 0.4204876337533762 0.22185008902748196 -0.015143499858362348 -0.02668869285469407 -0.012716421455629397 -0.026988824791068133 -0.0021116074547673893 -0.054831912702492255
 -0.019790640716374736 0.03312156793896087
2110000000.0 0.09876631597279885 -0.18395766438548516 0.42139163675367003 0.18391210319003148 0.3983010509253482 0.14508062342605857 0.41818883765107645 0.19665961966875134
 0.433798855623611 0.1975986189762388
 0.42199249016568713 0.18370076566889218 -0.1718045004019992 0.024491684130376445 -0.014273229316837834 -0.04756487344612108 -0.015941130932637874 -0.026044495292328846
 -0.017733895796063243 -0.024164843796467585
 0.39594011484411734 0.14531238579998615 -0.01406293585778489 -0.04730254228978786 0.30752999665115704 -0.4287873520869785 -0.01652652064742745 -0.022875360928677146
 -0.0155152060453654 -0.02511239534537471
 0.4237865295468543 0.20153226500617605 -0.01614447605420523 -0.026463245147152335 -0.01681280388599232 -0.02337333996753203 -0.17817173363792888 0.006377389187624009
 -0.005432403651454172 -0.05572276278308956
 0.4334025623313385 0.19708286802051564 -0.018043034555251216 -0.024699661805061376 -0.01564643108570118 -0.02515593458047924 -0.005593335426723638 -0.05481122301993357
 -0.015265340536790545 0.03763411851997736
2120000000.0 0.08311271893877648 -0.1873858813339944 0.43206780312622906 0.15999911952036455 0.4051653807667659 0.12228952785188568 0.43046080668573744 0.17181077387324753
 0.44522867082761874 0.17192194381147047
 0.43273962670151395 0.15977074380711642 -0.17222593481802514 0.002518814585933126 -0.016997711721094683 -0.04649972782083422 -0.018844723992954657 -0.023897812768332423
 -0.020363985049061076 -0.021792561699522758
 0.40280464434785873 0.12268411288848413 -0.016726071819028486 -0.04626693434397335 0.3262507362225104 -0.426928402605871 -0.01900798191984018 -0.02063041487005206
 -0.018200180121291345 -0.022977816283332942
 0.4363839036167797 0.17642793379321547 -0.01901584766955592 -0.02428065738210638 -0.019333029613025594 -0.02112819485087964 -0.1668002073965651 0.0005304457975277388
 -0.008991467947553906 -0.05539148076673254
 0.4446912013657358 0.17133726560604895 -0.02071846424750172 -0.02232682993128026 -0.01833904487284886 -0.022975910432530614 -0.00911599510799882 -0.0544561365109785
 -0.011498315467963649 0.04261380890462485
2130000000.0 0.06710550398245235 -0.18899431485328752 0.4416075712748144 0.1353090314725958 0.41076356013895193 0.09915036222286434 0.44119097574599614 0.1462058523555767
 0.45520746916551325 0.14546134114375528
 0.4423092340250041 0.13514475392556563 -0.17168829425211246 -0.01931802642929704 -0.01964466739717017 -0.045203199018447264 -0.021403136086262462 -0.02141565642508645
 -0.02265967233983823 -0.0192843867142024
 0.40844340961915154 0.09966148166466283 -0.019345054073980475 -0.04501112554082035 0.3444783038969847 -0.4242539475700852 -0.021160099505639185 -0.01825234989768638
 -0.020530677781141815 -0.020475120547480647
 0.4474461333253657 0.15036907644976866 -0.021590825468861728 -0.021828622146880666 -0.021556324187890354 -0.018633369167190286 -0.1554412279824465 -0.004605435438321716
 -0.012530059394652817 -0.05489387134792336
 0.4546659720517733 0.14504541420806252 -0.023090605766389397 -0.019691713324795582 -0.020689676667153364 -0.020536362619155535 -0.012635568568101102 -0.05393114289742181
 -0.008419579328703075 0.047925151179235764
2140000000.0 0.050652521571869155 -0.18865716828785298 0.44970387213095275 0.10990768122811295 0.4149161410428715 0.0756361108041946 0.4502846092486028 0.11978538587243819
 0.4636603166386142 0.11841436831603953
 0.45025421050133 0.10963974124031146 -0.17018725385288355 -0.04084439519333024 -0.02214848229683199 -0.04390685806025413 -0.023630736391902864 -0.01876951018195205
 -0.02464675094793029 -0.016461487755680678
 0.4126567891446595 0.07624266894901129 -0.02191562967699719 -0.04369520599542264 0.36234454561518237 -0.42042451929045527 -0.02302317922511054 -0.015587219849725479
 -0.022583321144755718 -0.017912866972150207
 0.45689068014707923 0.1235131245143154 -0.023871466746658743 -0.019151020492848538 -0.023484463663280532 -0.016032745711240803 -0.14400168338918518 -0.009027962313207585
 -0.016082028338732537 -0.05421269279894883
 0.46303340266738663 0.11797612029991776 -0.02516334564317333 -0.01694473482825513 -0.022745966198984693 -0.017899928143781302 -0.016001937060040456 -0.05323378032664952
 -0.00571383004756193 0.05342363512137188
2150000000.0 0.03398119805235434 -0.18621662289092944 0.4561826631598815 0.08396024244532643 0.41797134268110986 0.05197888821061478 0.45791196490002434 0.0927193089045269
 0.4704682983289649 0.09075216049775202
 0.45672237592336973 0.08369040218263112 -0.1682431882282062 -0.06227622132882708 -0.024740345051093553 -0.042473413710100424 -0.025614260090740987 -0.015904508055250205
 -0.026349292867321607 -0.013555020975749081
 0.41568358295750457 0.05273914753587641 -0.02439365647929952 -0.0422057389826127 0.3798108055555982 -0.4161088247570973 -0.02460433702947216 -0.012839063864697449
 -0.024350391877437726 -0.015113368123961623
 0.4647180536338847 0.09598494962161545 -0.025908405916433494 -0.016281641064146545 -0.025096421953164656 -0.01312671961917518 -0.13279161048818428 -0.013122558047166603
 -0.01967134643173366 -0.0533495248807027
 0.4699491177143754 0.09048425932152004 -0.026890837684268015 -0.013864891646775948 -0.02447171183266737 -0.015090494089997056 -0.019582138901853962 -0.05238736648543175
 -0.003938984747119345 0.05889758013319049
2160000000.0 0.01755737655285216 -0.18123059567877992 0.461172154938191 0.057588816176906574 0.4195769382780514 0.028338276549900836 0.4638518588250489 0.06512860697178066
 0.4757468767641402 0.0628238740275145
 0.4617809351114728 0.057278968652896195 -0.16534185637851198 -0.0831841946841083 -0.027158659354730722 -0.04082383457750586 -0.027293692657054097 -0.012815327278973334
 -0.027789701636702448 -0.010418023547331021
 0.41738350192183493 0.029147690006008038 -0.026868394765650422 -0.040610043761933515 0.39670952398399967 -0.4104973194980048 -0.02592887055157119 -0.009882112611726527
 -0.025804353331136662 -0.012165171512837799
 0.4709095744797381 0.0679603930194459 -0.027628434519277097 -0.013133574009218319 -0.026447342432318787 -0.010117181641302543 -0.1216009164179663 -0.016611234497370224
 -0.02331825584225778 -0.052206614786684404
 0.4751027877516373 0.06250199080465518 -0.02836322935392924 -0.010671576478331 -0.025919565777369938 -0.012127688697323627 -0.023135918285661854 -0.05130006312004694
 -0.0027500630137308746 0.06455440255987516
2170000000.0 0.0017178152655346474 -0.17403285142818237 0.46459966867643193 0.03087186512634748 0.4200670904015869 0.004623776410631142 0.4680894182388088 0.0369362820252284
 0.4793926000009038 0.03447571967914257
 0.4652386591035147 0.030527581923228627 -0.16160754285393894 -0.1036391801059297 -0.02945235048710841 -0.03908359471769509 -0.02858371055719293 -0.009562661043969427
 -0.028741119216959963 -0.0071175979208985855
 0.4178369513881824 0.005457978655469582 -0.02914561866342613 -0.038887955707487584 0.4131930702056425 -0.4042345949623535 -0.026789870377225803 -0.006775130016769754
 -0.026943753033773117 -0.009071595572989316
 0.4753543490610997 0.03934898202229183 -0.028974649965300626 -0.009773227647487032 -0.02737586195426758 -0.006930298997679307 -0.11048021462954356 -0.019479230379208318
 -0.02681302155030645 -0.05083638813983992
 0.47884823006359106 0.03416946940268468 -0.029392042749382435 -0.007280195528117332 -0.027123686547833894 -0.009050694006919715 -0.026623487682730228 -0.04992278261376866
 -0.002344912144833622 0.07052025385073132
2180000000.0 -0.013153791232739472 -0.1645038246662756 0.4665110596195599 0.0038511288122414153 0.4192149768524153 -0.019175743639827696 0.47066318387068556 0.008326248661277263
 0.48142391033342735 0.005800538707782029
 0.4670853824733771 0.003432423146553328 -0.1571747372766027 -0.12366806864435453 -0.03167950052903582 -0.037136036457241374 -0.02949781047883311 -0.006005731796171487
 -0.029379168452538275 -0.0036465563535877585
 0.41697978601949265 -0.018222673088188236 -0.0313262976006883 -0.0369810896379197 0.42921375644471854 -0.39696560616921284 -0.027344695905005434 -0.0035218311494530745
 -0.027605616958797787 -0.005832421475569739
