! Created with skrf 1.8.0 (http://scikit-rf.org).
# Hz S RI R 50.0 
!freq ReS11 ImS11 ReS12 ImS12 ReS13 ImS13
! ReS14 ImS14 ReS15 ImS15
! ReS21 ImS21 ReS22 ImS22 ReS23 ImS23
! ReS24 ImS24 ReS25 ImS25
! ReS31 ImS31 ReS32 ImS32 ReS33 ImS33
! ReS34 ImS34 ReS35 ImS35
! ReS41 ImS41 ReS42 ImS42 ReS43 ImS43
! ReS44 ImS44 ReS45 ImS45
! ReS51 ImS51 ReS52 ImS52 ReS53 ImS53
! ReS54 ImS54 ReS55 ImS55
!
2000000000.0 0.18040463561930292 -0.15798434017660823 0.22832119100337708 0.39298014943077275 0.24180772986734578 0.3778417762869311 0.22414626617785782 0.4097114763103711
 0.2227989735843714 0.3748979148353776
 0.22883376220712517 0.3929339138285557 -0.11499024443733294 0.26218554861025656 0.01848123479888296 -0.05138658091903489 0.022261578889534846 -0.025918034124015776
 0.00539664765550345 -0.03401389327914644
 0.23944228484113012 0.3766169980054438 0.01859883464268824 -0.051000486533561984 0.2532845809576274 -0.24124266614397574 0.020316636503664356 -0.02664890968373406
 0.02004299886158146 -0.0240993241352566
 0.22575978573991937 0.4166587936464495 0.02272066364319964 -0.02620064608559968 0.020805351051978418 -0.027201287289450655 -0.1154780474042852 -0.006874790641927422
 0.02415781364193538 -0.04716755623846011
 0.22273506810168034 0.37425106438923283 0.005588074096127146 -0.03477663384416422 0.020082770935372123 -0.024254817030767387 0.023609093098246825 -0.04654435995067756
 -0.18395985854231212 0.4864474280237947
2010000000.0 0.16962080653812864 -0.1653794303562271 0.25091657425590186 0.38002428553346573 0.2629685844745935 0.362919393473051 0.24857519824861382 0.39568965040901216
 0.24495435077255492 0.36545693291475745
 0.2512352438094458 0.3800221261292333 -0.12439039419862581 0.2411903204409176 0.01563277218612255 -0.051904966660421686 0.018909061971688977 -0.028028265364480016
 0.0021598400631272895 -0.0341709180604158
 0.2607667205019256 0.36211342020995163 0.015728023405415775 -0.05156760858393203 0.2688265053279344 -0.24115342886327962 0.016868084217847648 -0.028495085543893184
 0.01716841011669341 -0.02600983045394517
 0.25067545347518666 0.40274553197334595 0.019311460773478367 -0.02833400644259393 0.017193755780685542 -0.029087242464686542 -0.10455414494352501 -0.007622975184995361
 0.02185180409456155 -0.048522860454052776
 0.24473293448770472 0.3645599400619726 0.0021838413308925162 -0.03488896620360184 0.017143615901717195 -0.02615037118256891 0.02125043698017553 -0.04786473539620356
 -0.20687898244360695 0.44240640058956116
2020000000.0 0.15827398501211087 -0.17181301671178503 0.2726075309241557 0.3656528461499459 0.283139083225871 0.3468041270694076 0.2722571272490429 0.3801890717573005
 0.26646869732547734 0.35425237055039405
 0.27299833016453445 0.36565377680066313 -0.13278103765200658 0.22005656016159392 0.012834142728667149 -0.052298310318101754 0.015364930985556467 -0.029733792851309383
 -0.0010984930896933132 -0.033987781521353254
 0.28088419047901686 0.34608895218368313 0.012958403291600274 -0.0519475200835342 0.2837155766093896 -0.2401716505138283 0.013252858753890246 -0.029917747174729625
 0.014214629743799468 -0.027587868669254716
 0.274754122249523 0.38741503449392345 0.015755425403444365 -0.030109387981526826 0.013533311449982615 -0.03047930597648197 -0.09398608693748559 -0.007537327199370097
 0.019436700834028084 -0.04985701730285814
 0.26618703622940754 0.35348263515435724 -0.0010912808122930933 -0.03466031280829032 0.014127706259188761 -0.027738202251768193 0.018841201156632036 -0.04913645427062719
 -0.2262780675525094 0.3973420497840461
2030000000.0 0.14655724365720724 -0.1773800361879448 0.2935741403797723 0.35004987802009124 0.30230953765694063 0.3295087948414491 0.2949476049350964 0.36358979372371997
 0.28736362987735486 0.3416826230773429
 0.29401584438458966 0.35015798687073835 -0.14025879920652431 0.19867583342959003 0.009991692883002317 -0.0527311759871054 0.011701180602582777 -0.031165424832645117
 -0.004339335422877685 -0.03355622394381928
 0.2998762312999088 0.3289156920326642 0.01009655104046049 -0.052379948821990326 0.29835254590615384 -0.23858223107059517 0.00954529940862992 -0.030961218443560097
 0.011055061474984024 -0.02891568691403712
 0.2978636720955614 0.3705743799621506 0.012079809901713982 -0.031532691701600446 0.009773225302791835 -0.03155779641513099 -0.08394780792615872 -0.007000961758516118
 0.016915332276853427 -0.05114566349864252
 0.28711070928784604 0.3409986896993364 -0.004383480878627934 -0.0342362999199086 0.010984390768542832 -0.029067326656972838 0.016408924726876353 -0.05040206346019686
 -0.24233340141492773 0.3515177408866041
2040000000.0 0.13455596216291152 -0.18205350861121025 0.31365009393268994 0.3332129556448076 0.32036581257301794 0.31118362193024174 0.31667029756662557 0.3454522488664746
 0.3075656832380843 0.32774685727617053
 0.3141909643592563 0.3333879328979824 -0.1469576017793671 0.17689688906790663 0.0069656321275681655 -0.05301867634587393 0.007860134651175512 -0.03214465897396303
 -0.007545023171922882 -0.032832832572412186
 0.31798466406125503 0.3107808922488333 0.007142794235623591 -0.05268220962679709 0.31268499418587997 -0.2362917816465127 0.005754993253572977 -0.0315964724512067
 0.007742170239466806 -0.029849177022216455
 0.31999089229909755 0.352303230293177 0.0081338484490332 -0.032552353347889 0.005861452191411636 -0.032227470119453185 -0.07421445437309973 -0.005846017964269411
 0.014142611500385645 -0.052289083835937944
 0.30727988479051493 0.32713746188850734 -0.007703516812256648 -0.033495043021154206 0.007638897921289484 -0.029983953043420025 0.013685441157237212 -0.051498645304770885
 -0.254974825359736 0.3047194648993226
2050000000.0 0.1224972139811598 -0.1862453393096822 0.33296339843587713 0.31542242240903345 0.3373085599798352 0.29195234377896606 0.3373308294854114 0.32620340473905013
 0.3270488800369484 0.31257735077367915
 0.33352362702553906 0.31539793881786043 -0.15296547587090084 0.15517435033804322 0.0038346367286955525 -0.053047306631889696 0.003865740744137942 -0.032582792374628154
 -0.010713315698954604 -0.03170870421233645
 0.334952198133558 0.2915597557361005 0.003956663109392528 -0.05272177868447396 0.32653037947354413 -0.23315946498232154 0.0018730995551008176 -0.031726363829264144
 0.004187011791392672 -0.030378854677541534
 0.34108621758378116 0.332645667023597 0.004043632508808227 -0.033006038283816645 0.0018875541100580012 -0.03236779634262936 -0.06550624948061363 -0.004045016843211648
 0.011156686771250304 -0.05326782913521123
 0.3267402083986707 0.3118800291212832 -0.010958416745049694 -0.03236892308024854 0.004114479567223753 -0.03048918930220844 0.010760377046648029 -0.052405005578611316
 -0.26486319373047384 0.25808184088720854
2060000000.0 0.11010441012870349 -0.18968391118943315 0.35125457002661103 0.2964051214113746 0.3530648131132061 0.2716339358050335 0.3567375560484297 0.3054717277395518
 0.34577172228512915 0.29605134818859274
 0.35169382238596236 0.2962409387500415 -0.15847234383074701 0.13317983022985672 0.0007252985345895591 -0.05287705979561852 -8.22786167935881e-05 -0.032459503829549145
 -0.013711746132681713 -0.03022842139014632
 0.3506922926274287 0.27138519937808553 0.0008979417456231175 -0.0525823802494043 0.3398169365930206 -0.22935912732605174 -0.0019432784444375335 -0.03132477118506887
 0.0007371126371503627 -0.03046302130200693
 0.36097648540330485 0.3118549319435753 6.536639866920351e-05 -0.03292343003769554 -0.0019321461585592912 -0.031973176131798585 -0.057703773936164875 -0.0018352211032822805
 0.008210711983367244 -0.05395630755132928
 0.34540070995168715 0.2953175390296948 -0.013952275219059616 -0.03089140039229314 0.0006285444460062019 -0.03056804321388466 0.007752608301802094 -0.05308340582475805
 -0.27183915199020203 0.21151752947546265
2070000000.0 0.09726600978167246 -0.19238357500979542 0.36842029655379616 0.2761296451426365 0.36751845740089484 0.25053467980403943 0.37492257940226825 0.28357394229736926
 0.36352118766404684 0.27817937736266546
 0.36887185933622824 0.2760278430666695 -0.1629715032649688 0.11153048131117367 -0.0023068421551190282 -0.05245535338773614 -0.003918517797008428 -0.03183787409513369
 -0.016350245046377245 -0.028499430461733987
 0.3651344571908016 0.2504297719645529 -0.0020860056677672605 -0.05215050833857361 0.35304211285616316 -0.22415912712363545 -0.005455139382851531 -0.03045516169119823
 -0.00260579816841301 -0.030047963242877996
 0.37936729625450843 0.28977029135550003 -0.0037780205476776636 -0.0323188564001223 -0.005549393258627616 -0.031073126597941484 -0.05026034995326653 0.0012007475336685597
 0.005158451968815115 -0.054388210298210816
 0.36314076922642674 0.2775045700384271 -0.016674231244030835 -0.029093256405045273 -0.0026707555231145234 -0.030182517270501547 0.004808956774941929 -0.05359588089502955
 -0.2756401483387093 0.16523906498911517
2080000000.0 0.08401132207122197 -0.1943200465866906 0.38431586708877746 0.25484733097257967 0.3807736720110838 0.2287899711797092 0.3915658651806429 0.2606595616335057
 0.38011944303997175 0.25905159817772433
 0.3847564853303965 0.2547209095453037 -0.1665061272545585 0.08978076795976146 -0.0051889853222117895 -0.05198489108927573 -0.007441711193969785 -0.030933973300277556
 -0.018842240705269714 -0.026648018851014962
 0.37837526061437027 0.2287226041461552 -0.004976818724451197 -0.0516794118877644 0.3662341968075697 -0.21818857516251153 -0.008806694913701018 -0.029338923628009415
 -0.00577449755961967 -0.029482269978891223
 0.3964438817785448 0.26650263943868147 -0.007380275897728842 -0.031380215067735404 -0.008892374546100867 -0.02995864394495266 -0.04331459121241377 0.004536814263589536
 0.0021876985924694967 -0.0548540915390336
 0.37977714544054947 0.2584669461400334 -0.019148780407276047 -0.02725882862624773 -0.005935031924700664 -0.02959340946742282 0.0018226116046144265 -0.05397555171338629
 -0.2763316820981912 0.11960881339560223
2090000000.0 0.07029196367603291 -0.1951130816042359 0.3989245196786203 0.23270169638654098 0.39271571910256464 0.2063236110278947 0.40689948020057753 0.2368609085821064
 0.39577124771979544 0.23895705374740622
 0.3994815984675341 0.23259131287466595 -0.169384242703707 0.06802191025426112 -0.008150452874275379 -0.0514045475516798 -0.010935666871824236 -0.029605083799940743
 -0.021124280644929338 -0.024671096921563974
 0.39025010117843467 0.2063245011128733 -0.00789402740144036 -0.051133600945296113 0.37928343331372233 -0.2118422189397048 -0.011936183144818417 -0.02793319709081347
 -0.00897839739622707 -0.028574918045033218
 0.4121234251789862 0.24231992931822605 -0.01095171157110766 -0.030098224589649756 -0.01215142919171533 -0.0285402576347074 -0.03707518209356898 0.008087780124586379
 -0.0009887052875666427 -0.05516627380357508
 0.39526017319352946 0.2382228992668245 -0.021543214020362054 -0.025224317211812956 -0.009060618017637185 -0.028629998850926677 -0.0012103238745751527 -0.05425807304270224
 -0.2744769495986242 0.07448072864819702
2100000000.0 0.05625706747566434 -0.19456566229216413 0.4124002225688446 0.20990216873212303 0.4034306424555502 0.18336640960257083 0.42056907081841205 0.21212636156011022
 0.4099201630666503 0.21762252267426518
 0.41297796633517264 0.20971904026339194 -0.17104440608431223 0.04609954082225498 -0.011130866286967188 -0.05073677118233829 -0.01423336357388845 -0.0279343938517701
 -0.023314080301173788 -0.02243269009674815
 0.4008911790282688 0.18345086159934015 -0.010896099779689075 -0.05041095975412462 0.3919003035725591 -0.2046438513653961 -0.014971244650961005 -0.026195960488052387
 -0.012010564196368676 -0.02726631381376517
 0.42634134493372755 0.2173222034774656 -0.014299525472074304 -0.028431047447395563 -0.015254313511061154 -0.026756205860856076 -0.03132992196703295 0.011563767295808085
 -0.004219631072026224 -0.05533488075552267
 0.40958834084909757 0.216965652468034 -0.023780704531181942 -0.022930825115033717 -0.01214125415274011 -0.027354435275324343 -0.0044533551361474275 -0.05434722988061708
 -0.2695688135855864 0.030107972965841834
2110000000.0 0.042319818002824916 -0.19238655536885213 0.4246692503949313 0.18616823599754906 0.41282672342294435 0.15971385590744813 0.43286075005295804 0.18669331101190145
 0.4230104805349314 0.19535593373560667
 0.42520712633327434 0.18606376079985396 -0.17199088340179217 0.024104984589196018 -0.01411225641008072 -0.049846118264566065 -0.017369305998882797 -0.02591930556964752
 -0.025311332864834363 -0.02004860795461471
 0.4103541079864613 0.1599666130330485 -0.013825704252431526 -0.04952982985001608 0.40419049047963596 -0.19689416985512984 -0.017792727195225427 -0.02420185611820482
 -0.01496127754072507 -0.02569248566735859
 0.4388999080630804 0.19148077602027516 -0.01745302075081375 -0.02629779566770087 -0.018133024640006108 -0.024701890841544404 -0.02655641254086714 0.01513461028165635
 -0.007563658044444977 -0.055114470367583636
 0.42257784764784057 0.19480340011787042 -0.02582254767392555 -0.02047621598732578 -0.015094829413220682 -0.0257287485878891 -0.007782522957980729 -0.05422727743281986
 -0.2621083165347003 -0.01325546615797284
2120000000.0 0.028765890272722326 -0.18895535084888684 0.4356898290392244 0.16163939802423008 0.4208521658268156 0.1356656460856589 0.4436568027409374 0.1605230197677489
 0.43463606301593766 0.17213027023730249
 0.4362224888926748 0.16151439510965437 -0.17247485753697792 0.002228810245341137 -0.01695643164731003 -0.04870289384093235 -0.020097233158754495 -0.023533208743832617
 -0.027029157968423763 -0.017355227708936955
 0.4184379047490413 0.13604926539666584 -0.01671859667076506 -0.048382939746773955 0.4157037532581934 -0.18863995683998308 -0.020342285262438475 -0.021801581579664803
 -0.017660777227365334 -0.023705922251747467
 0.44990582625167475 0.16501798987428296 -0.020285871281022296 -0.02389813949108662 -0.02073981633723255 -0.022256026015902146 -0.02238436583936811 0.01893623095054532
 -0.010903137789427152 -0.054734386747532886
 0.4341143212173232 0.17155889782177855 -0.027594724457338102 -0.017725555613214036 -0.017852148566673366 -0.02378710232382931 -0.010985896969564366 -0.05382806896064581
 -0.2525766945481157 -0.05535166729589575
2130000000.0 0.015536803944574105 -0.18435297514063595 0.44538387419190173 0.136387676597016 0.4276749045918318 0.11117320098185211 0.45279205188054295 0.1337035636455385
 0.44490305284132453 0.14809141758515054
 0.4459837929824862 0.1362369207785937 -0.17197445086227842 -0.019624214160516074 -0.019748715881911433 -0.047472769219201044 -0.02252542859571354 -0.02089879063001471
 -0.028445341620620904 -0.014561954558483622
 0.42504473620254707 0.1115752317527421 -0.01950219454512958 -0.04720577825871333 0.42653226933470073 -0.17978443348620163 -0.022536506751229642 -0.019179708939987057
 -0.02010990467299674 -0.021471245066799163
 0.45937816619416005 0.13769543752177443 -0.022750357002741917 -0.021269308309821544 -0.02301927389540065 -0.01963257214504629 -0.018469576330514395 0.023016191551959712
 -0.014228553311149247 -0.05412950605336913
 0.4442959411891051 0.14762341341410767 -0.029069480595123775 -0.014902199166318646 -0.020272968523403694 -0.021494299733201824 -0.014209797319551442 -0.05318826493275109
 -0.24042272702143824 -0.09592814784093226
2140000000.0 0.0025853038278041878 -0.17843993032946046 0.4534424884398716 0.11039825222255578 0.43284302204987135 0.08622154540398234 0.4602295544995588 0.10641902484997577
 0.45347754042143523 0.12323535312882765
 0.4539606622738314 0.11018286372594108 -0.17053075816008972 -0.040977830339218334 -0.02249709721447208 -0.0460926880924329 -0.024662583451068257 -0.018059158245986855
 -0.02964875605945267 -0.01162911798885216
 0.43020024198487733 0.08681782365136667 -0.022196840777235504 -0.04586409410232723 0.4369252328820526 -0.17034762477913096 -0.02449648218713858 -0.016364469254941616
 -0.022322213965959938 -0.01900243210460756
 0.46704833747124813 0.10992218970432642 -0.024914501330477436 -0.018423468266425932 -0.024955042999048677 -0.016755713302000232 -0.014820701247981778 0.027206156817764914
 -0.01743589883484884 -0.0533550053286588
 0.4528942318409502 0.12278820117594112 -0.03023308800976121 -0.011924797232560767 -0.022423843544987686 -0.019020977206876753 -0.01740655142519958 -0.05248451515690046
 -0.22560307736357413 -0.1346621403846285
2150000000.0 -0.01008868918840492 -0.17136737996949516 0.4599299049738595 0.08377582135783249 0.43661251725605976 0.06113428877008085 0.46613811153990037 0.07857032118990753
 0.4606145781112045 0.09780101203092648
 0.46048777495071963 0.08357778505430055 -0.16858376171959702 -0.062455639113755526 -0.025163889863265013 -0.04459696026903995 -0.02648430267807759 -0.015064512446993661
 -0.0305134253915733 -0.008661620106114013
 0.43404116331707887 0.06180951842220448 -0.024930335861998772 -0.04438634802029622 0.4463056131959983 -0.16062205253425577 -0.02606212690633301 -0.013410788036020858
 -0.02414476245847959 -0.016323684974680414
 0.4731897467842385 0.08170342762482408 -0.02679711731301671 -0.015377795786465608 -0.02658719799968602 -0.013760646209204449 -0.011641014332672053 0.03170841064604014
 -0.020698598309420033 -0.052458436701818635
 0.46005392072684104 0.09751455378408343 -0.03115552667129703 -0.008916971963797878 -0.024315396536790792 -0.016307714048344323 -0.020649887844488672 -0.05149541317003029
 -0.20885586788397653 -0.17194417780518595
2160000000.0 -0.022280363443252765 -0.1626885101729301 0.4648121942180771 0.056795236490857784 0.4389126571248889 0.035974058576292815 0.4702902309003264 0.05045670758596608
 0.4660483790062744 0.07192499459031455
 0.4654214065787004 0.05662495104663657 -0.1657542598701887 -0.08331731670678724 -0.027833775448936227 -0.042952092317539534 -0.027996865299974163 -0.011843421330555888
 -0.031140576911358676 -0.005559420834815435
 0.43639793090728024 0.036739803033272005 -0.027437566475144913 -0.04273062110169284 0.4552426940277698 -0.15022950719891026 -0.02734432474211366 -0.010268943751648506
 -0.025752805754581144 -0.013426641411316954
 0.47754766613927313 0.05321722002293167 -0.02835848959156753 -0.012111516993688993 -0.027913879287564718 -0.010532252676154097 -0.008744050846697028 0.03635872066041853
 -0.023977048797722823 -0.05128690081665036
 0.46540188847505715 0.07161605694556052 -0.0318065431035671 -0.005717550478928102 -0.025910447678352433 -0.013509426682185743 -0.023845804446815246 -0.05030960430194399
 -0.1898530315385146 -0.20704625765538348
2170000000.0 -0.033727235061620855 -0.15255989138452067 0.4680304366305407 0.029606824774021052 0.4399192238439916 0.010682167555934137 0.47280001605225513 0.02211159511158291
 0.469850257726185 0.04559931852462769
 0.46872539199532354 0.0293244393146116 -0.16200690643855198 -0.10371338630786124 -0.03031138696873107 -0.041121413932704534 -0.02912742306590897 -0.008445866011843958
 -0.03146159096960483 -0.0024455645971930944
 0.43735397747066845 0.011629719652952758 -0.029976353703321475 -0.040926935643135355 0.46336468108390266 -0.13941498682814835 -0.028265576257053664 -0.00705163411869485
 -0.026987667607783282 -0.010438895616191638
 0.4802656133317974 0.024361667775782404 -0.029506734143735534 -0.008691307293945986 -0.028874617132164417 -0.007227858383665797 -0.006155278073677617 0.04138182013109202
 -0.027193199150985135 -0.04985836405708564
 0.4692790755022716 0.045274413410254566 -0.03215017570763696 -0.0025121774321657008 -0.027158910396777744 -0.010422088076143414 -0.026978923939348563 -0.048913512625131154
 -0.16909384990115026 -0.24010203744597447
2180000000.0 -0.04423261802846837 -0.1408324111382321 0.46970211805099643 0.0020763475842470033 0.4394777591992401 -0.014642588874381891 0.47372720311727995 -0.006514123931548174
 0.4719310308831518 0.018905399407726745
 0.4702731636827371 0.0017749510478871193 -0.15756952932149956 -0.12363635329955543 -0.032678186547185066 -0.03916492182556975 -0.029855634365406895 -0.004966289270454375
 -0.031368675504483676 0.0007658005686385857
