! Created with skrf 1.8.0 (http://scikit-rf.org).
# Hz S RI R 50.0 
!freq ReS11 ImS11 ReS12 ImS12 ReS13 ImS13
! ReS14 ImS14 ReS15 ImS15
! ReS21 ImS21 ReS22 ImS22 ReS23 ImS23
! ReS24 ImS24 ReS25 ImS25
! ReS31 ImS31 ReS32 ImS32 ReS33 ImS33
! ReS34 ImS34 ReS35 ImS35
! ReS41 ImS41 ReS42 ImS42 ReS43 ImS43
! ReS44 ImS44 ReS45 ImS45
! ReS51 ImS51 ReS52 ImS52 ReS53 ImS53
! ReS54 ImS54 ReS55 ImS55
!
2000000000.0 0.051545246231078756 -0.10252479204491913 0.23906237378978293 0.398455227327085 0.20944591669178653 0.40773167670372973 0.21265306827222585 0.349172029879228
 0.2122453132469878 0.3776173622079903
 0.2394914481791634 0.39850173551930607 -0.11544374699049402 0.26098000235509233 0.023782449154308268 -0.050199320804868205 0.01839535306515429 -0.023744927624205665
 0.017167725275471803 -0.02479585759133174
 0.20713655821875945 0.4062687083914343 0.023784107300255646 -0.0497690292292 -0.30095663807795126 0.10732752450044314 0.019236248725865553 -0.022300163102649786
 0.022524556456080806 -0.02135367977564831
 0.21445493212449215 0.3554327473976735 0.018802684058227055 -0.023968613541219767 0.019623667199244174 -0.022749105905047577 0.13213302788662015 0.6948973797867758
 0.019906307844549567 -0.04002901444458942
 0.21224306402751678 0.3768507993055199 0.017502158954672647 -0.02528548584165171 0.02254532844836209 -0.02146212592085708 0.01942870572024344 -0.039480686032982305
 -0.5559743197549999 0.23780109479239542
2010000000.0 0.05108324517389069 -0.09199709502563468 0.26252030307740354 0.38383818388181035 0.2349830094153884 0.395146398454161 0.235036485986977 0.33843594064273125
 0.23417534098792456 0.3688152493483878
 0.26284770512071665 0.3838761928764493 -0.12493131752762868 0.2400976159981417 0.020835984694184375 -0.05128868956587015 0.015480517819415288 -0.02559810216586957
 0.014324031048299239 -0.026402619519339036
 0.23274179053265537 0.3940779439967268 0.020878096678554958 -0.05088163114753603 -0.2923606513873043 0.09344723608055883 0.016435802288657674 -0.0244024216488279
 0.01998323691616884 -0.02368032695122101
 0.23724948255542644 0.34471255070780765 0.015808129914444333 -0.025914685910202576 0.01676933929612513 -0.02483928406382132 0.0930854517067359 0.6743930692814601
 0.018255015795120573 -0.04146545670508689
 0.23393858282824592 0.3680222380570914 0.01461388559665726 -0.026858731895577557 0.019964856352219895 -0.023832854896133883 0.01778444077275806 -0.0408338674901129
 -0.5419347127344739 0.20230573896880824
2020000000.0 0.05254109224033186 -0.08246189689638506 0.28494105744336984 0.3677137889368542 0.2594681989013221 0.3806287634042664 0.2567397896742222 0.32631069553105396
 0.25571183298077127 0.3583155548889409
 0.28524427842330663 0.3675921119613616 -0.13347847593699788 0.21899769430764313 0.017881645307471782 -0.05222200681285816 0.012444584328545956 -0.027071211246410886
 0.011361548730910963 -0.027663341624104956
 0.25723595968260393 0.37975919968902233 0.017927868626396986 -0.05187127509233695 -0.28328799506597374 0.07993044462201136 0.013459055613632098 -0.026125710568236784
 0.017269055039631963 -0.02573129897035378
 0.2593929026499494 0.33246873862816334 0.012737312831651122 -0.02747668354819354 0.013776883832359064 -0.0266707898722168 0.05625140863544667 0.6516497839596883
 0.016567484335052254 -0.042843689325601515
 0.25541322985982096 0.3575475019660837 0.011648128520468093 -0.028238565585768902 0.0171937171848441 -0.0258478649551429 0.01607400560339192 -0.04223354047368733
 -0.5263910664563961 0.16913495556637534
2030000000.0 0.05596836142444746 -0.07426661486632138 0.3061900360016332 0.35009076699183234 0.2830416907203092 0.36466636689512416 0.2777971359275648 0.31279900867130145
 0.27667636955745645 0.3462027516296093
 0.306537623339746 0.3501394216642355 -0.1412074841790955 0.19762387465272646 0.014855801914672274 -0.053162692083649175 0.009168446603644683 -0.028363648155747823
 0.008308416442723817 -0.028700326804976882
 0.2807065152423779 0.3639353700714064 0.014927184271448386 -0.052804720708323226 -0.27374458183998807 0.06701959775149843 0.010336171698526693 -0.027574783556866125
 0.014277712327835196 -0.027487156711133078
 0.2806577928142724 0.31886210753452204 0.009477381368740522 -0.0287483401062249 0.010578032734761595 -0.028140460655624228 0.020961639147276362 0.6270049563419947
 0.014709257118818198 -0.044213966770431684
 0.2764601799331769 0.3456724122501871 0.00852362486788426 -0.02929488398852925 0.014249184142164447 -0.0276676091275461 0.014240369975194012 -0.04360202498367213
 -0.509185473026954 0.13756217580817054
2040000000.0 0.06094105450477195 -0.06788650022623223 0.3261975760460507 0.3312185821724607 0.3053945648067064 0.3470142600238452 0.29775190541457136 0.29781943019504625
 0.2970738863048588 0.3326700718125364
 0.3267215163945863 0.33135465710237993 -0.14803080146608671 0.17597146540602787 0.011584395079178484 -0.05390938165981737 0.005727835533387277 -0.029256439467382808
 0.0050219443547397736 -0.02945896002017228
 0.3030655318328868 0.3464229982115935 0.01171899611526299 -0.05350813542073878 -0.2636683602809478 0.05453090229326651 0.006931989765728286 -0.02869859019496913
 0.010974571304739611 -0.028975464532144446
 0.30100526748875045 0.3037709453530695 0.005967933426244887 -0.02966533409936487 0.007103163075097976 -0.02923240897289402 -0.01261215892298354 0.5999775286263423
 0.012608532902038226 -0.04559541051625619
 0.2969210440215224 0.332101999310399 0.005159300784521838 -0.030007582213681317 0.010932197012785963 -0.029130525363311566 0.012147518417570922 -0.04490860156511108
 -0.49037677770998306 0.10754851948024598
2050000000.0 0.06707686107511944 -0.06377388273071226 0.34503861029246213 0.3114016114455432 0.326542129402916 0.3280698832167705 0.3166766911895833 0.28155946396687925
 0.3168608619010282 0.3177698109990945
 0.345475596171094 0.3113147360706988 -0.15415397665163702 0.1544679707427009 0.008220936592739977 -0.054349064900874475 0.0022052274158508877 -0.02967431494243418
 0.0016026732960908359 -0.029699335210626357
 0.3242644843081622 0.3275847709176176 0.008322427360694275 -0.05404827762081796 -0.25355005580185364 0.043005619081949734 0.00335957790136509 -0.029266920763740236
 0.007483080230558872 -0.030052956181976228
 0.3204494365712121 0.28740997604855556 0.0023733319357786176 -0.030064702937959674 0.0034926103208504124 -0.02983074425297058 -0.044643758710881776 0.5712453423744225
 0.010242978034082782 -0.04674366606931061
 0.3166281894285691 0.3170409223347282 0.0017057987961341448 -0.030279925821383717 0.007394869498525975 -0.03015601888746232 0.009827088088597587 -0.04601310170164318
 -0.47067081496416685 0.07947244572750203
2060000000.0 0.07357910551900569 -0.062012984688989706 0.36242472447290996 0.29042452678739217 0.34633700040953797 0.3077365942884663 0.33459560388480464 0.2642411566935922
 0.33590000358528116 0.30142929733956597
 0.3627966684484301 0.29022002003225145 -0.159735072348636 0.13272532458695804 0.00481645798364978 -0.05459353160945149 -0.0012824588272890602 -0.029533746314926047
 -0.0016863251713459633 -0.02952634375741723
 0.34386141363496275 0.3072560843093797 0.004996711083209468 -0.05425506292957666 -0.24329691555053232 0.03197620813527867 -0.00011055214016074752 -0.0293558657189002
 0.003963681830488767 -0.03054617601701283
 0.3386148264049962 0.26977850820453786 -0.0011467685543268564 -0.02995797271136298 -9.005576667308136e-05 -0.030014471361151488 -0.07508745457495922 0.5407330389907745
 0.0077743066674108175 -0.04774659069467197
 0.33556170361259424 0.300666155263529 -0.0016947285186945473 -0.030183207386330096 0.0038731446692900407 -0.030713327438702705 0.007417753505933613 -0.046979566240872184
 -0.45031138539374405 0.05323863425134895
2070000000.0 0.07999907997995763 -0.06235940335634852 0.3784663523679821 0.2684442086674693 0.36469595891915585 0.2862694479886927 0.351387849665984 0.24578564639500264
 0.3540167832856729 0.28362077071152364
 0.37883890735739006 0.26837083489606817 -0.16426375279542071 0.11125801123601935 0.0015371311016274688 -0.054511189413223575 -0.00466533888744355 -0.028998014078017425
 -0.004918041794296684 -0.028996017320497478
 0.36214031621569515 0.2859312547370067 0.0017101485966511626 -0.054143883843038185 -0.23254998359899282 0.02228679600146119 -0.0035311512043034927 -0.029041008981207976
 0.0004569747428979182 -0.030633411111172373
 0.35568013089747713 0.25116467560913003 -0.0046059313265202515 -0.029434111712420087 -0.0035537424026029054 -0.02962837481391046 -0.10335295754771928 0.5086076356256483
 0.005323186622228327 -0.04848168918555867
 0.3536326746508113 0.28291386989444123 -0.004959817239216561 -0.029576619553178505 0.0003350042702630008 -0.03078840916629991 0.004978025732143865 -0.04772684375155948
 -0.4285194490473797 0.0294773792194237
2080000000.0 0.08584512823162303 -0.06485273846660163 0.3929899745692755 0.2458319527239747 0.3814160017475756 0.26365338324983584 0.3669859202874559 0.22636866603166575
 0.371074373429786 0.2645521754937303
 0.39337663470329365 0.2456788506106531 -0.16781749477066546 0.08972597411538212 -0.0017047307834026635 -0.054286141177674406 -0.007916830391960575 -0.02815184149455763
 -0.007982865491865821 -0.028118766494612785
 0.37904246658363355 0.2635656841356861 -0.0015335550228328045 -0.0540415671636654 -0.221211266338708 0.013119660529139968 -0.006798693503567801 -0.02834672556700398
 -0.003008654916235056 -0.03051611701973112
 0.37166761762163775 0.23155623700445258 -0.007872505068877045 -0.028622183253825532 -0.006896926472242224 -0.028909055989132043 -0.12923813988337685 0.4749556840808056
 0.0027565042826273923 -0.04928947577126646
 0.3706491943459605 0.26386096984845886 -0.008098039669987957 -0.02868867363318341 -0.003116553387137605 -0.030556485263030224 0.0025432511139280084 -0.04846553372086857
 -0.4058049152280242 0.007491881647131618
2090000000.0 0.09068145827622748 -0.0690749054031322 0.40599371570213333 0.2225068967068463 0.3968220827569053 0.24035458221281367 0.3814044946418788 0.20607251231311766
 0.3870930153149357 0.24432034738371328
 0.4065447259722081 0.22234939718022492 -0.17067157393527857 0.06816059674616834 -0.004941273246590712 -0.054055325447353184 -0.011017252236194201 -0.02700178594545661
 -0.010982504747356694 -0.027065408960938495
 0.39431024975858286 0.24015934191726518 -0.004722390935221117 -0.05373583443183106 -0.20964543851471407 0.004813142449613449 -0.009984559198242125 -0.02741118037406234
 -0.006439823669259641 -0.02992034962044859
 0.3863649866293702 0.21093692687592175 -0.01105830146757992 -0.02748759151777925 -0.010152950796656207 -0.02797579107135113 -0.15301008199918467 0.4397339385915496
 0.00014638526523397068 -0.04991647004312396
 0.3865849509275988 0.24353516208074288 -0.011163665238900137 -0.027617665945620762 -0.006560359734368509 -0.03000846388877492 -0.00010580252594351206 -0.04910830779763323
 -0.3824220318779224 -0.01269572509578673
2100000000.0 0.09411128054124882 -0.07452576030806982 0.4177156640127567 0.19879795795973715 0.41055008290654976 0.21611145618388788 0.3945240428348766 0.18492336543976845
 0.40179308186599705 0.22291022356563278
 0.4182647979102011 0.19857967507602076 -0.1722942428331741 0.04644285202599352 -0.008230879462956631 -0.053599851562931455 -0.014063911326912221 -0.025531460557752805
 -0.01390066440921053 -0.025711679763722666
 0.4080403074287849 0.21605691465373547 -0.008039724841707127 -0.053268545570985766 -0.19779363586474336 -0.002966194798684929 -0.013088035403826437 -0.02615611663473821
 -0.009864374105397108 -0.029012818236604884
 0.4000605844684886 0.1895911622931655 -0.014144190700902615 -0.025951113806887652 -0.013319659188004688 -0.026659810155304844 -0.17432739053459742 0.40306182627792464
 -0.0026543091317386787 -0.0504564226907996
 0.40134776696820385 0.22217360876965384 -0.014141548980414502 -0.026202386383243025 -0.009965753240545794 -0.02903380957157344 -0.002889075154860234 -0.04963927934805027
 -0.35829973136548976 -0.030929990506499236
2110000000.0 0.09630982953407966 -0.08085318042382528 0.42815230486937966 0.17448940694417708 0.422833400348905 0.19116421022030664 0.4065170671114954 0.16306412551591737
 0.41530267385337827 0.2003483337275113
 0.428699370616828 0.17431577836846612 -0.17310247534026785 0.024669416984100783 -0.011528590616529407 -0.05287620152180234 -0.01686604000947335 -0.023699137826258387
 -0.016743151917250162 -0.02391801774699668
 0.4203575652173848 0.19130561318698108 -0.01131195324279381 -0.052617675890853914 -0.18607399055444804 -0.009989139311155559 -0.016107799797912388 -0.024445761882467575
 -0.013146340977287736 -0.0276405086195007
 0.4122360045367614 0.16726428813459993 -0.01704553009410543 -0.024071944262072174 -0.01635713013854742 -0.02498656145450361 -0.19302839113366893 0.3650055810098008
 -0.005683911223343528 -0.05082138609504686
 0.4150113838306027 0.1998033799239095 -0.017003784501191152 -0.024460420255183465 -0.013315438734789395 -0.02769743792675733 -0.005792136586022853 -0.04998971446213566
 -0.3340485886643199 -0.04684677566736306
2120000000.0 0.09722037764970506 -0.08792050713346113 0.4372822930489717 0.14970070409080388 0.43361786338831576 0.16557459297079608 0.41710866241979866 0.14035241436706425
 0.4275826429073612 0.1768823645316601
 0.4377693396436039 0.14950554996463375 -0.17344510923750905 0.0029233895953023397 -0.014753101603912164 -0.051977706728980305 -0.019440632461872945 -0.021499543044953173
 -0.01917992877875859 -0.021803779243577077
 0.43110608809510254 0.16595816620185655 -0.014452201914809839 -0.05170826251829697 -0.17443627259875322 -0.01634238069896025 -0.018712089804233254 -0.02237786668470749
 -0.016292726098570496 -0.025864454452142725
 0.42320749882136965 0.14435920321557905 -0.01961625114194854 -0.02189489660255997 -0.01912167894497767 -0.022901002347681172 -0.20943400623988215 0.326527086732519
 -0.00872787328463588 -0.05095083192722567
 0.42700183998583413 0.17635804371040242 -0.01959173890433379 -0.022323452873655062 -0.016414027344309884 -0.02597136925430575 -0.008777066808939336 -0.050026768734456765
 -0.3094316802918226 -0.06084901887476199
2130000000.0 0.09657062414409066 -0.0956510476536343 0.4450341350129512 0.12451692984180608 0.44282600567011665 0.13957244409246714 0.42639197357558634 0.11713017564779826
 0.43827771748305683 0.15260581720191543
 0.44562879410616385 0.12438877613482018 -0.17287813943172328 -0.018763645427363657 -0.017862689785460163 -0.05090887316700076 -0.02170980121409426 -0.01904828604942445
 -0.021453041011586908 -0.019432916155908586
 0.4403270225108766 0.13999433514434545 -0.017603945823760316 -0.0506972862255958 -0.1627434660381304 -0.02191181980447173 -0.021149977367266717 -0.020033334493326036
 -0.019161607175912008 -0.023768447042261165
 0.4325319294866385 0.1206788332203657 -0.021923246425257736 -0.019400820687572696 -0.021585834242268585 -0.020448035460831123 -0.22292941186779253 0.28745102433417585
 -0.011737220874950955 -0.05082991718221497
 0.43776318589996904 0.15214312971961128 -0.021899538386307656 -0.019847839231158706 -0.01931191754776492 -0.023786120126145834 -0.011776035989425544 -0.04992059737959025
 -0.2847499471057575 -0.07276146970515827
2140000000.0 0.09390560068559156 -0.10367675273006413 0.4512228882172617 0.0988335607283862 0.4504590068550005 0.11304497498216436 0.4341076240707894 0.09329366277969145
 0.44749167715331284 0.12750855277275236
 0.45184405574872744 0.09864671271393731 -0.17122280618048594 -0.04008759389634579 -0.020948661127651813 -0.049674761309863924 -0.02362457260904567 -0.01646181513108987
 -0.023450873313932013 -0.016887590966885458
 0.4477013871531276 0.11356538354296643 -0.020661576779723845 -0.04946415994087569 -0.15084781808079084 -0.026923688444507193 -0.023288058778146076 -0.017491084294004932
 -0.021767186933401326 -0.021368880498741926
 0.4404926954344368 0.09648009554058751 -0.023934285491554498 -0.016805211212518944 -0.02376910967567576 -0.017853716687736904 -0.2336440115710294 0.24809535339290023
 -0.014855241285443877 -0.05057971026693916
 0.44703772552163473 0.1271017563565303 -0.023944614769965792 -0.017245839177960312 -0.021964671916840373 -0.021388371870192685 -0.014818614517093834 -0.04963207489845732
 -0.25985994802535517 -0.08259548252176671
2150000000.0 0.0892273868000782 -0.11157851490764237 0.45613025855918404 0.0729787073486258 0.45649959781528543 0.08621644226413708 0.4404399405423287 0.06896959991807465
 0.45531206799602053 0.10185630911953471
 0.45663025048840655 0.07266716101980839 -0.1691148694600967 -0.061454990831573464 -0.023961486183484995 -0.048355067397613555 -0.02530473571830416 -0.013664309732134151
 -0.025196946973297336 -0.014099242849102559
 0.45386877694097694 0.08680333938867181 -0.02367375493676764 -0.048101029410144006 -0.1391533128706365 -0.031356387549213584 -0.02516750826294346 -0.014691891832418986
 -0.024074902668802946 -0.018651163260378852
 0.44712188967806155 0.07187134363710362 -0.02565794944974159 -0.014000694316316979 -0.025694885537746823 -0.015047569945993855 -0.24206086798482762 0.2087916728862906
 -0.01802785812771182 -0.05013387462670352
 0.4547859221179841 0.10138526135796913 -0.02573540811077759 -0.014441263742167485 -0.024291337517416856 -0.018716119829013833 -0.017985679646364307 -0.0492277237816851
 -0.23534515609638468 -0.09046749451820257
2160000000.0 0.08268476380162545 -0.11849286697784953 0.45955442230542803 0.04688149127176617 0.4609678065058131 0.059201706468331367 0.44532843166979935 0.04434094844491466
 0.46167870155830065 0.07559248504549544
 0.46004705879434615 0.04660915014247398 -0.16609242787116113 -0.08230577880710543 -0.02702257054542689 -0.04679665751151255 -0.02671271500919835 -0.01065806668356336
 -0.026628469494647325 -0.011212684657318474
 0.4583190424485627 0.05983860820238867 -0.026648642816045936 -0.04656088269021743 -0.12743602482408634 -0.03510704620247834 -0.026709950105807595 -0.01178821464740905
 -0.02616374510947908 -0.0157248796773848
 0.4522142423063466 0.046819570659941225 -0.02705326989615325 -0.010948767663608444 -0.027259448986050636 -0.0120630487485474 -0.24773901838806145 0.16973721463167646
 -0.02125630580648776 -0.04944214993706854
 0.4611300918372664 0.07516508790101921 -0.027180793190672247 -0.011469963211942444 -0.026301246185117207 -0.01579718240893464 -0.021070552274662417 -0.04855055098354727
 -0.21115799457683906 -0.09661615632368217
2170000000.0 0.07444829081784805 -0.1243415826283355 0.4614029328046813 0.020816035555347386 0.4639127364129171 0.03189396945572043 0.44883635192464827 0.019444146020072262
 0.4663217182826883 0.048792301829193196
 0.4620357668212141 0.020474127930887903 -0.16217822069221896 -0.10270416741525921 -0.029804922419281735 -0.04500181378487967 -0.027770405016713812 -0.0075612024151652454
 -0.027728017855059232 -0.008056253734134659
 0.4612299405193627 0.032740780834604195 -0.029503522377425574 -0.04483453981737264 -0.11576888262887569 -0.03810852329030764 -0.027918729347431125 -0.00860735231152339
 -0.02787779616104988 -0.012563886450441384
 0.45591195565775317 0.0214633958477698 -0.028106816934248113 -0.0077960894821017795 -0.028519240152700572 -0.008810408918806509 -0.2511952744162013 0.13117964677922683
 -0.02445192971492528 -0.0484384930855585
 0.4658073537478325 0.04839841271496678 -0.028327247710114346 -0.00824839035646758 -0.028021818626886436 -0.012542774454867596 -0.02430860097959112 -0.047604432202345844
 -0.18732350694400704 -0.10073053843267007
2180000000.0 0.06484868897898552 -0.1286919347908758 0.4619871546166446 -0.005440469805103852 0.465348196976464 0.004447862045269978 0.45089310469020116 -0.005788785846233336
 0.469619422796558 0.021527953596664012
 0.4624916499283058 -0.0058567455965191995 -0.15762279830977438 -0.12266758996654441 -0.032594676719568644 -0.0431650835652645 -0.028449204902329144 -0.004348270477838786
 -0.02845894167656336 -0.0047358948668559265
 0.4627319758248492 0.0054458557368149635 -0.03219034208276685 -0.042917106991244645 -0.1042166020791442 -0.040444105656930296 -0.02874224318474435 -0.005252283479482329
