! Created with skrf 1.8.0 (http://scikit-rf.org).
# Hz S RI R 50.0 
!freq ReS11 ImS11 ReS12 ImS12 ReS13 ImS13
! ReS14 ImS14 ReS15 ImS15
! ReS21 ImS21 ReS22 ImS22 ReS23 ImS23
! ReS24 ImS24 ReS25 ImS25
! ReS31 ImS31 ReS32 ImS32 ReS33 ImS33
! ReS34 ImS34 ReS35 ImS35
! ReS41 ImS41 ReS42 ImS42 ReS43 ImS43
! ReS44 ImS44 ReS45 ImS45
! ReS51 ImS51 ReS52 ImS52 ReS53 ImS53
! ReS54 ImS54 ReS55 ImS55
!
2000000000.0 0.1450116542486071 -0.18234820094307705 0.22846682447185235 0.3956415535901303 0.23813001023901506 0.39869574573707467 0.22317253908653076 0.37338386826809483
 0.23286157427650195 0.39096134358334195
 0.22892639680905508 0.3956518583292677 -0.11491112515252325 0.2621618275536066 0.020741636951868616 -0.05252717057459013 0.01986818700207729 -0.02488811530587614
 0.018022799944586086 -0.02425842359684932
 0.23585001008809708 0.3975708954312317 0.020848538493517945 -0.0521819512056329 0.07039743232436743 0.044383021454298795 0.01966218640422829 -0.02558902801092021
 0.022035491664786907 -0.02543763961019721
 0.22499641230241568 0.3799952208707399 0.020291981903744368 -0.02512942899710538 0.020127224017475916 -0.026117675099757477 -0.3790241311017504 0.1151212548156674
 0.021138812377903795 -0.046319230612570796
 0.23275761280972898 0.3902619203158223 0.01845914512824398 -0.02476587626916075 0.02201065993183299 -0.025573346609154404 0.020587771172670466 -0.04566628375528566
 0.23548268207577086 0.2827462335328661
2010000000.0 0.13223923488725814 -0.18497660883997086 0.25154146843681136 0.38282203516435237 0.26194093912371075 0.38404813261285453 0.24565744483776106 0.36251669025342476
 0.25565817434336 0.3771779327397029
 0.25192829612022866 0.3827885040394065 -0.12429243228894143 0.2410839783322085 0.01777578845326405 -0.05328498403540325 0.01683921220710694 -0.026793601610028386
 0.014979433574528403 -0.025994601816255677
 0.25970663896912866 0.3831190057127121 0.017811457132207567 -0.05299608498182402 0.0808933862726106 0.0432439767217642 0.01648394263108813 -0.027527799351459145
 0.01866741220469131 -0.027555637257307003
 0.24786656680517347 0.3690301411529575 0.017201909430783056 -0.027064523204415315 0.016807866661796268 -0.02803520049386421 -0.3618616502198391 0.057197118925551835
 0.018790596266655243 -0.047414444438791885
 0.2554163248755937 0.37644469730242897 0.015285589233124772 -0.026475100544810424 0.018606463820671496 -0.027712329843867206 0.018297078134711823 -0.04674284779992239
 0.22658276370563865 0.28780777172665334
2020000000.0 0.11957949105394602 -0.18660349614333535 0.27388928999461115 0.36850116100852554 0.2846903882044976 0.36769129213814006 0.26751777767207824 0.3498301054060459
 0.2774284325262428 0.3619588328449243
 0.27425863696818326 0.3683538312985591 -0.13270100403233134 0.21991036312625917 0.014729940953796605 -0.053942953225279214 0.013636461948699554 -0.028383043573819208
 0.011775050588280376 -0.027287829063109236
 0.28241254034811614 0.36699841536668215 0.014878138555804306 -0.05364265113010779 0.0912237008249876 0.042290524578545666 0.013112392294077364 -0.02899707473542491
 0.015218223892362978 -0.02917717366200711
 0.27018126487666927 0.35644830987395126 0.01398066210345452 -0.02875064448724235 0.01341385730802466 -0.029550726588247464 -0.34135880735608554 0.0020156610199263073
 0.01642879360320222 -0.04843297120180336
 0.2772207197489299 0.36120786814931516 0.012063805172874422 -0.02782242744443387 0.01513337831129642 -0.0292934898958975 0.015968734584763722 -0.04781156197070491
 0.2175273284479858 0.29222739401157166
2030000000.0 0.10711083672974596 -0.18759140952685532 0.29542719615350704 0.3528452253848568 0.3064704024326798 0.3499553004848863 0.28853732374800667 0.33542790959549357
 0.29830836812057354 0.34559253783379923
 0.29579539236965785 0.35280219129380647 -0.1402094399899127 0.1984733776918224 0.011619676392837208 -0.054584619883392124 0.010317416895902128 -0.029694483914592076
 0.008478096402748476 -0.028371310139552425
 0.3041011609455734 0.3494021525579602 0.011774880382446975 -0.05418872433291956 0.10153859898774917 0.042029839072503496 0.009602639717437625 -0.03020940605117933
 0.01158693479455986 -0.03050639238197542
 0.29154902300884217 0.3420179587246301 0.010607065499299885 -0.030031134830840626 0.009863394496651278 -0.030790924408409335 -0.3178477550763843 -0.050881957632284
 0.013909563931083294 -0.04940899594163913
 0.2980879581764315 0.3448782106858179 0.008721696635413376 -0.028927723778239132 0.011540016190160127 -0.03063625153064519 0.013449978466984763 -0.048646963995289665
 0.2083777529661157 0.2964030995873865
2040000000.0 0.09472003545703915 -0.18793361010316237 0.3160004089187081 0.33577997146952937 0.3270551574434734 0.3309527776475257 0.30859244246104967 0.31949822194777405
 0.31816582704992424 0.328106580318266
 0.3165445589521529 0.3358737311367455 -0.14696243552612667 0.17660081784089576 0.008365763384408122 -0.05503792231965243 0.006773375264460428 -0.0305460322323588
 0.005052369177063602 -0.029024558261302753
 0.3246220850551917 0.3304622538335842 0.008536482334709718 -0.054684478139734545 0.11158177149454646 0.04238300969404177 0.005937271893523522 -0.030952315808391202
 0.007824691771681453 -0.03142194625116635
 0.31200233076015754 0.32591466868521984 0.006977342243138726 -0.030981390761167852 0.006103413469148117 -0.03155265624694241 -0.29153372422096624 -0.10118911411714843
 0.01129317282249211 -0.050275174637108996
 0.3179051463515797 0.32749809443030053 0.00520274240270922 -0.029595993270636594 0.007675982832110812 -0.031515200480908695 0.010815968613028484 -0.04941395293195
 0.19876732461094473 0.29991556008571796
2050000000.0 0.08240409863996467 -0.18773862569160157 0.33586129615976096 0.3177457050526125 0.3463588044798971 0.31067878120450504 0.32750958598905067 0.3021129300422424
 0.3370017748452403 0.30957997899352624
 0.33629341085228054 0.31752553821134427 -0.15297355873528662 0.1548815018355933 0.004946542006088326 -0.055140759154354874 0.0029899870367013338 -0.030888540591483868
 0.001521655783920086 -0.029215233766763733
 0.34402812306400066 0.3103254476665591 0.00511586436937763 -0.05490731029281359 0.12109794259997576 0.043519558064039905 0.0021466573761404644 -0.031176191226600543
 0.003898439035769271 -0.031817027516103706
 0.33129361885155156 0.30823820523969114 0.003234137259496038 -0.03139376813532281 0.0021807129728794276 -0.03180939557213568 -0.26317245940971246 -0.14849470150335467
 0.008452057277003957 -0.05078444082180411
 0.3367890934180346 0.30893643251421266 0.001542721894003348 -0.029826533769106194 0.003794360660761095 -0.03190170320880759 0.00798310994716893 -0.05002480697205715
 0.1886890967042265 0.3032727781188435
2060000000.0 0.07002442477336485 -0.1868242816778918 0.3544792510168719 0.29832043496008626 0.3645196095937498 0.2891927527063234 0.3453713418055788 0.28328273347031985
 0.35504373198945444 0.29013474836028474
 0.35491813671822653 0.298018845313168 -0.15853401131171738 0.13290978922691393 0.0016158066402347997 -0.055076647718753216 -0.0006052696164226145 -0.030802891462333525
 -0.0019313950470819848 -0.02891433697479468
 0.36214471632169004 0.2889289930936925 0.0018377976461361795 -0.05480832088353051 0.13007845084812134 0.045308417519455746 -0.0015633898670926072 -0.030846498882671197
 9.273444425241515e-05 -0.03169038156899369
 0.34941827697674777 0.289162693045676 -0.00044453340384733426 -0.03133730797730929 -0.0015779087825721393 -0.031447393063417796 -0.2327522598304409 -0.1930086063129274
 0.005542307770178097 -0.051209776341858346
 0.35465436572458325 0.2893943737816173 -0.0019529093426666165 -0.029497623632294127 2.230808667854839e-05 -0.0318303730424613 0.005167103390950603 -0.05042323405291359
 0.1780133791688764 0.30639146994229133
2070000000.0 0.057679158454757684 -0.1851236303579712 0.37213482758089406 0.2775184962437183 0.3810200388724267 0.26652545858373555 0.361867245833142 0.26308010633715473
 0.3717917675137349 0.26945109001352674
 0.37242393324046896 0.2773589587987314 -0.16307582562682138 0.11128694461145364 -0.0016061614772079225 -0.054764933628892405 -0.00412638408305877 -0.030206992822910728
 -0.005246887706795839 -0.02817714488542884
 0.37866908897926654 0.2664713880246551 -0.0014759722817534633 -0.05450626291284258 0.1387852919485801 0.048226344330797054 -0.005112925659627232 -0.030016601332451473
 -0.0034462660788040825 -0.03108878022957785
 0.36626087022612686 0.26876527166103953 -0.00402900301387703 -0.030747276040852502 -0.0051585108131687795 -0.030605231450641812 -0.20028358669663845 -0.23405075720110588
 0.0026953432440849716 -0.05132645445594366
 0.37145075320391563 0.268891631252594 -0.005294850934080104 -0.028748743760971866 -0.0036131835136441076 -0.03120326000160746 0.002368342428515937 -0.05050812478295568
 0.1671080960741252 0.30937605988198574
2080000000.0 0.045269965866088564 -0.18264064239503736 0.388283901331538 0.25580085002581776 0.3961759791220824 0.24311984437727688 0.37689335386331324 0.24157207193322325
 0.3874837176086765 0.24802009981354195
 0.38860399303677395 0.255516852732706 -0.16669850293920221 0.0895662810305582 -0.0048563226376082385 -0.05433219207724978 -0.007486222272380257 -0.029360663067361733
 -0.008322195255625393 -0.02724181888634773
 0.393863584476163 0.2431151907299085 -0.004640398467088691 -0.054128432361931864 0.1472846915699473 0.0518737360889846 -0.00839336711717679 -0.02895645526626971
 -0.006972697784565929 -0.030290699769041862
 0.3816811444580638 0.2470875551699759 -0.0074521552634638595 -0.02980096300001732 -0.008515154975307023 -0.029483860964601604 -0.16584033728102351 -0.2718467726857867
 -0.00019379000733192215 -0.05138413567912564
 0.3871813317024656 0.24745058087950547 -0.00845133913263321 -0.02776223645447293 -0.0070702768638440045 -0.030347353339571122 -0.0004208404272887042 -0.05061010352163962
 0.15614147467358888 0.31208022793607526
2090000000.0 0.03284221211718224 -0.1790822899562493 0.40317860230282304 0.23319456641686304 0.4099249300756721 0.21888736674797674 0.3905045741487347 0.2190907712268775
 0.40207392316637564 0.22554491008178454
 0.4036162860928915 0.232901925000033 -0.16960480693440017 0.06780300749938876 -0.008106002134583548 -0.053857659674525764 -0.010758582322083213 -0.028102791698613197
 -0.011339776893886898 -0.025911477986596734
 0.4075663132629666 0.2188846966173248 -0.007865783265000875 -0.05358572811792728 0.15558561137780502 0.056220132970747294 -0.011583263067154584 -0.027448553618464527
 -0.010290970822901943 -0.029099909854304516
 0.39561344021396155 0.2242913001389645 -0.01083169449040129 -0.028613038043404433 -0.0117574562525293 -0.028083730371427196 -0.1297209977384037 -0.3065544419707077
 -0.0031125684181686733 -0.051408081624206174
 0.4016547857512532 0.22489315155177741 -0.011523061236556812 -0.026520100043199695 -0.010419100148513737 -0.029217241901745194 -0.003326797048066679 -0.05059712279850267
 0.14473611395067593 0.3142382869625939
2100000000.0 0.02045702435314035 -0.17424671873797037 0.4168088256683184 0.20974347655826123 0.422240155383706 0.1938655901693931 0.40250536634665507 0.19565534181854977
 0.41535134809652224 0.20232836982691146
 0.41723124696579494 0.20933880399244284 -0.17139796038929286 0.045870546430312326 -0.011327527473744022 -0.05315811822122605 -0.01397438733663374 -0.026507716240638163
 -0.014237554642282413 -0.024394417010818032
 0.41975929459290023 0.19392026047577013 -0.011093785064669591 -0.05286714337122446 0.16348879955268744 0.0609198056146302 -0.014614366067502316 -0.0257392686367253
 -0.01359788116110599 -0.027572864423221988
 0.4080394411582262 0.2004538496220365 -0.013987144549075058 -0.02694641798390693 -0.014830873522286306 -0.02625227178038781 -0.09233802708699422 -0.3378352743621842
 -0.006178252625164725 -0.051154147512090506
 0.4151103729424029 0.20170665168779825 -0.014463986017283511 -0.02489418068973152 -0.013720045121672901 -0.027632531951794114 -0.00634104582840972 -0.05033135678971078
 0.1329318469511043 0.3161039912427192
2110000000.0 0.008609406914134175 -0.16798392933203324 0.429212630764707 0.1853569962317495 0.43304462254729037 0.1681467370168953 0.41292450724131274 0.17126148294452176
 0.42759609389568004 0.17824210659028933
 0.4296038941828691 0.18512049747176867 -0.172340930120404 0.02403187446965134 -0.014610316534126247 -0.05226068148137842 -0.016873743949803392 -0.0244869331460618
 -0.016957012858902817 -0.02243141239364376
 0.4305625739129244 0.16843214756191116 -0.014360857927194473 -0.051945668660380674 0.17066420492008888 0.06606482187134004 -0.0174071352495591 -0.023553488489084732
 -0.016639553528576746 -0.02568240430198948
 0.4187054149781885 0.1757115402455808 -0.016993323873880525 -0.024919668136867933 -0.01768833404959225 -0.024103176675043417 -0.05403220072544196 -0.36548857636667875
 -0.0092696569785908 -0.050791802054229764
 0.42722515715353204 0.17763694437399444 -0.0172400457692764 -0.022966050048909798 -0.0167738747483151 -0.025718897481555897 -0.009398090162633576 -0.049895613630431324
 0.12036854835686099 0.31728948935818574
2120000000.0 -0.0025110436888098296 -0.16052174697254987 0.4402462780858909 0.16017478682289005 0.4423270734893752 0.14174070042717277 0.42158450625658317 0.14627205325826262
 0.4383409621775751 0.15328888177908917
 0.44052816747250423 0.15990116308461266 -0.17275830409311707 0.002174026476090544 -0.017753421929106346 -0.051049015464629185 -0.019456052384880507 -0.02215485512736593
 -0.019360684215156933 -0.020221928648413517
 0.4397930091125785 0.14224318434398514 -0.017496540154616453 -0.05081295445063039 0.177377853659219 0.07191539296483672 -0.019826326737893214 -0.02112578516007748
 -0.019468689424636174 -0.02344245553821192
 0.4276367643277752 0.15037551750699932 -0.019682795726686225 -0.022588422431815667 -0.020240220808562928 -0.021582207970595436 -0.015463031350638534 -0.38955030586433603
 -0.012334908683795012 -0.0500913510308164
 0.43789469317777413 0.15275220912990148 -0.01977610122456918 -0.020673420307700554 -0.019602299327524702 -0.023469350374940533 -0.012336743900228674 -0.049218162291693346
 0.10727473354136496 0.31851077990862486
2130000000.0 -0.012847443889103138 -0.15198487624348772 0.4497546407239185 0.13419119029599927 0.4498509386060017 0.11481929417187696 0.42847547222009436 0.12077051095406048
 0.4476831633773985 0.12765045088798638
 0.4501710683524318 0.13392913447308277 -0.1723596819463636 -0.019642710641291517 -0.02083649367448978 -0.04973630609836979 -0.02180766428844857 -0.019509026955564647
 -0.021495261242345097 -0.017742516270852944
 0.4473727873068132 0.11540227708339186 -0.02054171152120964 -0.04950340210609577 0.18354025173967695 0.07797543091359468 -0.02192490255856475 -0.018430960247495187
 -0.02191009030178856 -0.02099461296923237
 0.43474909271417805 0.12442387204319905 -0.021964113137108922 -0.01988096604158053 -0.022344527383078815 -0.018856338481018874 0.02340750519756038 -0.4100243411477198
 -0.015354856073467427 -0.04920266343581752
 0.44724412671502245 0.1272545291173979 -0.021924321671141937 -0.018163938620834166 -0.022093240484409356 -0.020950895607346982 -0.015324395426851076 -0.04837735018619895
 0.09369529478391678 0.31913355488062256
2140000000.0 -0.022564092970295213 -0.14230091028391068 0.4576331642137539 0.10750391291928606 0.45571156732444873 0.08745743851446668 0.4336743068458075 0.09486715398841973
 0.4555385947127778 0.10153932377674951
 0.4579562146034862 0.10722882855753785 -0.17094500286044992 -0.0409496740479746 -0.023834239019313946 -0.04821181895839022 -0.023662288567758226 -0.01667954517123913
 -0.023305593824444238 -0.015070398392062445
 0.4531980213519155 0.08811221267669794 -0.023539472066278454 -0.047986190685439634 0.18974145311991505 0.08439145875962015 -0.0236565333436875 -0.01556166800431743
 -0.02408872978274801 -0.018250877225442434
 0.4401268058560848 0.09811605617804146 -0.02393658252804588 -0.017036213028360583 -0.02411335899754297 -0.015918180572739474 0.06262397484334287 -0.4270790310101977
 -0.018336726567138667 -0.048214465959611305
 0.45497866278691246 0.10114490940356022 -0.02377421466878961 -0.015418103281339109 -0.024276391590205556 -0.018198177074705908 -0.018248028503471594 -0.04731382537731075
 0.08010575225421362 0.3195006506940156
2150000000.0 -0.031323077247096806 -0.1315589280530203 0.4638191678169207 0.08027280145614737 0.4599512498287791 0.05980222547302656 0.4371645208339817 0.06866594328235916
 0.4619166980862797 0.07494467858001473
 0.4641727917389724 0.07998791022632644 -0.1690049794582675 -0.062307505340797494 -0.02673590830105894 -0.04662785378388702 -0.025241324535132906 -0.013693056646242692
 -0.024820982018402354 -0.012290420170005124
 0.4574723957331652 0.06058254306825151 -0.02645343068576527 -0.04643123804785124 0.19504609550041643 0.09125919034413336 -0.025050013740501958 -0.012612322235810365
 -0.026030435394490854 -0.015301010241127296
 0.44378309459914156 0.07149327109007887 -0.025599373585617632 -0.014042126362808252 -0.025534834176834022 -0.012977360181259653 0.10128628927593437 -0.4411755112099367
 -0.021279793455565653 -0.04701316581460158
 0.46141804504099987 0.07458288822922164 -0.02531910573620566 -0.012646223881210138 -0.026190936180087592 -0.015213656884996169 -0.021171923447221387 -0.046162491445788094
 0.06600222051166652 0.31922148977178866
2160000000.0 -0.038955393189440496 -0.11947151218414444 0.4683384217125827 0.052637849494055096 0.4623264743739845 0.03202779466380724 0.43876947639052566 0.042367620046489134
 0.4667443764922196 0.04795479542517793
 0.4686386048053 0.05232550898245274 -0.16614633062906314 -0.0830956025955353 -0.029618984059739603 -0.04477613540355315 -0.02650179847224013 -0.01053793933251306
 -0.02609806725242131 -0.009314546661836579
 0.45978959011070963 0.032858410974126846 -0.029287342593884155 -0.04459602767459138 0.20001964903063946 0.098352358513405 -0.02615559416018869 -0.009495399245619726
 -0.027604542642760996 -0.012157290993260166
 0.4456351213757482 0.04480553407599369 -0.02686643411092659 -0.010846504769428927 -0.026668761139339175 -0.009749532909298924 0.13951095989251183 -0.45186330711053463
 -0.024251681301840997 -0.04558003389454931
 0.46625432483387824 0.0476141561776304 -0.026618111363779954 -0.009554551217739942 -0.027839051425906074 -0.01211564262283481 -0.024047343113955875 -0.04476487958703485
 0.051721815798312004 0.31839784468770926
2170000000.0 -0.04528429923887627 -0.10652123048885481 0.4710402971724615 0.02478211715875222 0.4632530289267308 0.004128795046706132 0.4387731037332328 0.01617183952898635
 0.47024113776324294 0.02059040000569755
 0.4714991411443286 0.024435890236495374 -0.16241215144394217 -0.10343700296095792 -0.032290827817088696 -0.04271833253950848 -0.02741094694956939 -0.007334508396682014
 -0.027027173247222157 -0.00621763207449511
 0.4606384490485762 0.005107428812004444 -0.03195634205688855 -0.04251169766147185 0.20451094652880084 0.10611041296136454 -0.02689067236791548 -0.006312828091881856
 -0.028859609046431527 -0.008833199868695747
 0.44581197375124737 0.01813457790564497 -0.027783327223584838 -0.0075358595943057155 -0.027448274390492213 -0.006486732806223175 0.1770550637442142 -0.45989578984545754
 -0.027070961240272452 -0.04396966398111699
 0.4696892014435998 0.020249345774164866 -0.027590491895201477 -0.006383868277349636 -0.029004702348665097 -0.008825820456313055 -0.026823887935079355 -0.04317556875737861
 0.03712628435799448 0.31726654901441903
2180000000.0 -0.050071418250785135 -0.09256781903285996 0.4720141299090434 -0.003316889073927424 0.4623453983644181 -0.023986784688449118 0.4371325775825529 -0.009923415552042705
 0.47198998351075605 -0.007121273913448539
 0.4723858514538928 -0.0036417174457643816 -0.15796871117643327 -0.12331663056225195 -0.034898818133882084 -0.040556600594760954 -0.027817555430961642 -0.00398838898253592
 -0.027448815205889213 -0.002985046269502534
 0.45989575786070586 -0.022788240421710116 -0.03447555635289055 -0.040394197268648145 0.20864504359520947 0.11437776589979579 -0.027107533268756503 -0.0030348505977701333
