! Created with skrf 1.8.0 (http://scikit-rf.org).
# Hz S RI R 50.0 
!freq ReS11 ImS11 ReS12 ImS12 ReS13 ImS13
! ReS14 ImS14 ReS15 ImS15
! ReS21 ImS21 ReS22 ImS22 ReS23 ImS23
! ReS24 ImS24 ReS25 ImS25
! ReS31 ImS31 ReS32 ImS32 ReS33 ImS33
! ReS34 ImS34 ReS35 ImS35
! ReS41 ImS41 ReS42 ImS42 ReS43 ImS43
! ReS44 ImS44 ReS45 ImS45
! ReS51 ImS51 ReS52 ImS52 ReS53 ImS53
! ReS54 ImS54 ReS55 ImS55
!
2000000000.0 0.2320953163263566 -0.1683862176583646 0.24136266834587605 0.3765596187263081 0.23731253107847122 0.3596778878737973 0.23088634910637892 0.38782987141927006
 0.21250167372527823 0.3950577138820792
 0.24161372551002983 0.3763502170136652 0.258747438489974 -0.274993820721288 0.014477586772163082 -0.050316712575476354 0.01953229039840318 -0.026406244592954344
 0.018345370362362702 -0.024712543484437365
 0.23503467425972246 0.35859405979728465 0.014607714688535743 -0.05002514953322719 0.10089096336886626 -0.38916477071742955 0.017825538749696706 -0.02521667482360608
 0.020557314838645285 -0.023468766477557693
 0.23272697266291711 0.39452513842626635 0.019928857606904906 -0.026704252459090597 0.01818760367397922 -0.025719778211466884 -0.1151107298201679 -0.07947214618827919
 0.02457316455456176 -0.0476687527657804
 0.21243032204538412 0.3941091734401117 0.018732207599645275 -0.02521183031191021 0.02055371946863707 -0.02361177366663916 0.023876093513086737 -0.04701237647054217
 -0.11225731398450117 0.27772737249891677
2010000000.0 0.2207833784189841 -0.18249054148942156 0.26219474619999866 0.36218378129467993 0.2571944424912141 0.3452279823586718 0.2524496896262564 0.37435749937431045
 0.2346833627062326 0.3834373457767617
 0.26235565484565365 0.36196201632182506 0.27704617455168845 -0.2753732870558273 0.011708264941099552 -0.050420590282211616 0.016192000884931456 -0.028110036129551142
 0.01517677896032107 -0.02628310807156613
 0.25508850045997206 0.3444912936886022 0.011799419562939553 -0.05013664779486729 0.11990663255258222 -0.3975061852704487 0.01459051553659387 -0.026690130887905734
 0.017532943137679467 -0.025321995688175513
 0.25467785177036717 0.38112436217193824 0.016544669054030486 -0.02842548471209477 0.01490277156916989 -0.027193685475486114 -0.1075644297229874 -0.09767780357419169
 0.022114599899575347 -0.048631672963986586
 0.23434603515714358 0.38246285715215544 0.015514832555382283 -0.026785819560083798 0.01747115524938005 -0.025463681255333926 0.02157579044892175 -0.04795087622718382
 -0.12084524210198044 0.25728657160232604
2020000000.0 0.207969721918438 -0.1959600911505428 0.28201126342698296 0.34643140629085933 0.27596947874713984 0.3296735739816496 0.2733112894526032 0.35976553040762566
 0.2561631488447928 0.37050156208663193
 0.28219241095461267 0.3462496677016947 0.29467005160835097 -0.27481299727247965 0.00900766608512401 -0.050441025764034274 0.012759620660430307 -0.029339052706777058
 0.011985843828043028 -0.027440518649025213
 0.27386800641221554 0.3289866735648745 0.009149395685926357 -0.050206864473918936 0.13849291675595773 -0.40468202934659586 0.01135045749518645 -0.027733669976816
 0.014455886558959559 -0.026795178501619714
 0.2758864680105137 0.36643735164116586 0.013074514211052882 -0.0297480655929083 0.01162085633437867 -0.028275257736207433 -0.09954062320784149 -0.115106485758689
 0.019783319536894453 -0.04960978464725054
 0.2557618261455178 0.36952889914103093 0.012274494040552858 -0.02797675604865689 0.014387589582978134 -0.026981386516688147 0.019197202055746255 -0.04882502271057968
 -0.12833262367713427 0.23671597374732292
2030000000.0 0.1937322275984317 -0.20870320687337973 0.30092027697753043 0.3296202130149472 0.29387381545364216 0.31314812273005926 0.29337529559298386 0.3440616690059151
 0.2769368717635374 0.3563657248196602
 0.3011181482329032 0.3294884045689306 0.3119588793323123 -0.2733905845362453 0.006249197953178096 -0.05042066627254538 0.009196167386981166 -0.03031962324959043
 0.008674906148458356 -0.028367381725285686
 0.29167810283746587 0.31256524458301005 0.0064276066623429814 -0.050152921173137424 0.15730990156150593 -0.4111756071051707 0.008008551279680472 -0.028548543036352635
 0.011223792940648533 -0.02797026835008464
 0.2961817028176769 0.35063897900716884 0.009466015132669097 -0.030755708581870517 0.008198340230656782 -0.02907794353444231 -0.09108723716258944 -0.13241208278323316
 0.017299506263505862 -0.050525237552424204
 0.276583865198531 0.3556089017858465 0.008881660769076554 -0.02890705170533446 0.011178936435657842 -0.028175614546989816 0.016782554100156232 -0.0498380198778945
 -0.13499888803659227 0.2157840497680521
2040000000.0 0.1778373735748706 -0.22033189764181094 0.3188197217962779 0.31173590517690664 0.3108854170655765 0.295749830162728 0.3124380822782902 0.3272901532273563
 0.29701938673572575 0.3410876826296088
 0.319056287239208 0.3116608086168464 0.3289084528842533 -0.27115092787484574 0.003448179061280826 -0.05039263970375592 0.0055126793030091294 -0.03080428938159828
 0.0052477163191570735 -0.02897172374715877
 0.308584537549685 0.2951928840220516 0.00366245866405066 -0.0500990334463109 0.17614501045912107 -0.4168358486438265 0.0045707338951680165 -0.029027133319902115
 0.007840432335259634 -0.02887086966539512
 0.3158327119773371 0.33377018531087144 0.00578870990336093 -0.03127775965760678 0.00473431890440028 -0.02962234984179128 -0.08230208988138187 -0.14934260213524778
 0.014634090144893344 -0.05148358541307297
 0.2967727426018494 0.3404072526273392 0.005434033931725389 -0.02956708649394433 0.007756711649226043 -0.02902566151227253 0.014152381925109637 -0.05068105151082027
 -0.140932686831066 0.19439481616094365
2050000000.0 0.16067646782253817 -0.23075556832418015 0.335568513542491 0.29307958845921733 0.326755000435103 0.2772473998032072 0.3307080703073573 0.30958124705318496
 0.31651861832024114 0.32487446018551897
 0.33584295244691414 0.2929431949165647 0.3450283930133681 -0.267776968313085 0.0005998208718909388 -0.050017467786839354 0.0018762595784631506 -0.030874938685771302
 0.0017317401388330482 -0.029054383246191025
 0.32448979860259136 0.2769180348069804 0.0007603752611438081 -0.04972477261745138 0.19478447678149838 -0.4213928266261698 0.0010627737521795117 -0.028979161211082606
 0.004305565497516653 -0.029251762669613345
 0.33446997811043727 0.31573124538980185 0.002007138614380417 -0.03131071595792005 0.0011514938751660585 -0.029570296415162373 -0.07326594265296038 -0.1656706813550359
 0.011734459317021379 -0.05216622600951974
 0.31616401425817947 0.3240417389547778 0.0018411866508865273 -0.029651878453834962 0.004285235196884491 -0.029353601855416727 0.01131334450724768 -0.05134783623481794
 -0.14622331999075897 0.1730862737202883
2060000000.0 0.1421579305769009 -0.2395795932525692 0.3513344895589402 0.27350924185818065 0.3416063269587085 0.25804750116660724 0.34806691704719317 0.29068389213557877
 0.3352845691836031 0.30754973195432644
 0.3514930414237575 0.2732218051294249 0.36054976358984314 -0.2635714640796816 -0.0022211928239777873 -0.04949925501774645 -0.0017211887043335288 -0.030400487059370682
 -0.0016629798777033694 -0.028757619123818665
 0.3392735914335499 0.25779135341229 -0.0020449308388647276 -0.0492370020544127 0.2130909645248574 -0.42532062283525013 -0.0023061717180328555 -0.028566269858376018
 0.0009804759161622845 -0.02924063307899596
 0.352114185888947 0.2966243698380177 -0.0016547582933835086 -0.030900241173799373 -0.0023302345156011204 -0.029134444085117634 -0.06384280313010528 -0.1817367095357965
 0.008886604700263015 -0.05272415899293033
 0.3347341682099502 0.3065923752608061 -0.0016739235623103113 -0.02933424454510514 0.000862237834511095 -0.029313225432456947 0.008439159957762881 -0.05185963956320995
 -0.15120101072628966 0.15166104085799417
2070000000.0 0.12241214146569897 -0.24678761224301568 0.3659256628518139 0.2531130432945388 0.3553282129921348 0.2380022971447104 0.3644996628243215 0.27081834557306345
 0.3530131612043278 0.2887692196845802
 0.3660890322311995 0.25290388898479554 0.37604979866057137 -0.2578568850011472 -0.0048834857833894895 -0.048851142762041555 -0.005080260539456168 -0.029557641369486864
 -0.0048337718928287135 -0.027997860821968798
 0.3529642663874803 0.2378514129644358 -0.004676231921219699 -0.04856458217224623 0.23188480767132394 -0.427703537485835 -0.005427776505504023 -0.027697250509741377
 -0.002331599258775309 -0.028766773203419076
 0.3688449707856519 0.27654182815840095 -0.005015996907197452 -0.030040341321009686 -0.005547159005811562 -0.02824887183674456 -0.05356044843146025 -0.19695046779375994
 0.006017459313199549 -0.05294147888460319
 0.35253666901008923 0.2880396126375968 -0.00494251853524456 -0.028566529276288596 -0.002419317097574814 -0.02887498261357786 0.005640428369201287 -0.052185696055805905
 -0.15527190266893087 0.13044998014420328
2080000000.0 0.10166740805156756 -0.25183430557351083 0.379278163098185 0.2320264539645712 0.3677515861381261 0.21717183564221995 0.37969975352362717 0.24990244830717506
 0.36983528429059004 0.26911344223917855
 0.3793610533593697 0.23175385258085449 0.3913038645327506 -0.2514987267706826 -0.007545072476230706 -0.0481518513564757 -0.008210343473985904 -0.02847787698970361
 -0.007941995911617886 -0.027069630367550963
 0.3654945736826967 0.2171998954930373 -0.007290855930357939 -0.04791819081688679 0.2507179348926968 -0.42921797761375396 -0.008471574146745623 -0.026666190750262223
 -0.005384612521013382 -0.028071319161166505
 0.3843048623727313 0.25538224089897665 -0.008167399489627311 -0.028894324686008513 -0.00854624157383911 -0.027211408057333915 -0.04245893262856126 -0.21181235715968313
 0.003121742076985497 -0.05332298602907926
 0.3692762657898842 0.26837833575489256 -0.00800648637885786 -0.02763982998748656 -0.005555085823810252 -0.028163546483570393 0.0028083750487528044 -0.052458372721547276
 -0.15844357893631336 0.1091180906907559
2090000000.0 0.08040899386092698 -0.25476410871613714 0.39160330991524683 0.21028973565657924 0.3791340458008822 0.19578735065642253 0.39392059049819483 0.22807503770607612
 0.3855834507996601 0.248446772052055
 0.391764131951295 0.21004404602008314 0.4063702572045945 -0.24468418164504238 -0.010184107270716149 -0.04733045156280055 -0.011171330135833664 -0.027067990963678377
 -0.010869679904140277 -0.025852368983961524
 0.3768699741258043 0.19583766977945188 -0.009999791070563367 -0.04711107570851484 0.2698724973365196 -0.43017955323788065 -0.011326653358677143 -0.02535806723658118
 -0.00850382442642951 -0.02713368874151399
 0.3988765911293296 0.23331129850291377 -0.011236979662896213 -0.027478811828130868 -0.011509353032833776 -0.025848751246725813 -0.030757590211609058 -0.2262808869767736
 0.00014146898519993087 -0.05352057624394282
 0.3851354406720414 0.24778851930290574 -0.011051236587319326 -0.026373299795320868 -0.008580701435343093 -0.027140961853867992 -0.0001147434682905059 -0.05270091194675253
 -0.16113654298712465 0.08775282331114691
2100000000.0 0.058813351202974866 -0.25551934387297165 0.40283279671793093 0.18791987475356395 0.3891821215650507 0.17383446459300173 0.40675760721393156 0.20542847043732265
 0.40031288985994506 0.2268763499301399
 0.40305387248633395 0.18772772678770366 0.4212228935138621 -0.23704416952271629 -0.012773020234276107 -0.046412122588370956 -0.014056442167439414 -0.025418110455626055
 -0.013726389486158046 -0.024290885245390487
 0.38691685877517534 0.17398197345819164 -0.012621866650759084 -0.046217936285474555 0.2889257730487942 -0.42999361275133996 -0.014089484792741093 -0.023707381856042528
 -0.01144297642942135 -0.025834029372607734
 0.41220445596355215 0.2103884015717366 -0.014164564991915478 -0.025845056188028355 -0.014359596174096914 -0.02424034968665415 -0.018046935650318313 -0.24015582191986867
 -0.0028992797320613103 -0.053614711385201845
 0.3997963131131346 0.22612158486393896 -0.014000046588345248 -0.024851684611652904 -0.011520133185140462 -0.02588258807942682 -0.0030890988237149736 -0.052732292970062176
 -0.16274032206597436 0.06614831627277783
2110000000.0 0.03706956054691998 -0.25407576982776037 0.4129053214591422 0.1648208652732531 0.3981276605270929 0.15136468793316654 0.41849339102061006 0.18190324107265896
 0.41398990306140665 0.20424364263231437
 0.41327377825684886 0.16463941478284738 0.43552348862777196 -0.2289373423519888 -0.015441004607096194 -0.04532282936504304 -0.016702090482768595 -0.023424063148478565
 -0.016384784596002316 -0.022457133648884204
 0.39579604581163913 0.15163135158078336 -0.01523128057032466 -0.04512073036303679 0.30787515718556213 -0.42900245700396933 -0.016638905557583926 -0.021800228849137106
 -0.014192271364728101 -0.024244194926576278
 0.42428458829912014 0.18648637167643622 -0.0168481542680117 -0.023862125341184034 -0.01694626725610981 -0.02226776162924417 -0.004722066026172832 -0.25357033572549287
 -0.0061394052433046105 -0.05349045291347316
 0.41345277659518714 0.2036452598202788 -0.016692919200792872 -0.022940459929969202 -0.014369285506465872 -0.024257236524192156 -0.006257445313718914 -0.05260424040406577
 -0.16372897054611119 0.044496615776182497
2120000000.0 0.015169732398791751 -0.25029621579887923 0.4216956428892183 0.14105982151385077 0.40592795187851605 0.12844185714009176 0.4288367668283271 0.15752459718971115
 0.42653579372768013 0.18066037543537475
 0.4220499836904618 0.14084412394082607 0.44901319221786584 -0.22029085291897635 -0.01798241325800895 -0.04407569065231582 -0.019050683744473877 -0.02119224552549626
 -0.01881535517513215 -0.020251076683784234
 0.40346147743410443 0.12880179015777227 -0.017703540126739574 -0.04387883864437454 0.32656765755966394 -0.42730081863365565 -0.018947250076356358 -0.019544135221681642
 -0.016792335093023636 -0.022308306663004124
 0.43485940844690524 0.16181852160913565 -0.01923248582790145 -0.02156507325227493 -0.01930229841893345 -0.019985474677394276 0.008905112449565862 -0.2660627714183628
 -0.009278950066335265 -0.05316853977611512
 0.4259071373813621 0.18008952090671093 -0.01917138363249177 -0.020709928430306786 -0.01682823228262441 -0.022382421120435557 -0.00946682885859555 -0.052229273771951364
 -0.16438983270187568 0.022773472854301466
2130000000.0 -0.0065518957808365 -0.24403973607570303 0.4292796134220916 0.11677586376928295 0.41226207937685755 0.1050402945602761 0.4378092275911094 0.13253025993363315
 0.4377351003254623 0.1561054217601709
 0.42938066946997827 0.1164881344641088 0.4618994373753511 -0.21096753198174437 -0.020376064767156445 -0.042664426033990135 -0.021117614219217977 -0.0187198406336129
 -0.02100758551390762 -0.01778414395018772
 0.4099194777523831 0.10550890577407351 -0.02014191794227877 -0.04249420999776343 0.34474249387335376 -0.4246060833920732 -0.02100994730841325 -0.01705181747495568
 -0.019037927850071034 -0.020147298115152285
 0.4440281581671299 0.1363784026255617 -0.021350474564125973 -0.019073633497185643 -0.021359137468840713 -0.017448931768046946 0.02283580756027831 -0.2776923645343959
 -0.012520973967829818 -0.0526005523191134
 0.4371559821256652 0.1556485221623894 -0.021370409587035386 -0.01820946536619097 -0.019265439410264665 -0.020182390162921622 -0.012560494363689279 -0.05168121213461379
 -0.1642750008710264 0.0010689649172141262
2140000000.0 -0.027786417381310477 -0.23511199004806227 0.43521226497706544 0.09193977414376574 0.41722704424387924 0.08118878925823268 0.4451051826235142 0.10685749598648464
 0.4474988198355931 0.1307084454811431
 0.4353365608155571 0.09168799191706042 0.47422817950707197 -0.2009007202499022 -0.022677080458618225 -0.04123263880619309 -0.022858599191441564 -0.01614123046948782
 -0.022753566437954856 -0.015182452101966415
 0.4148935904809688 0.0817882925698846 -0.022455768566837547 -0.04102147555806432 0.36260911630799614 -0.42086827749308564 -0.02262194273933205 -0.014438981794630107
 -0.021124983065497836 -0.017738166879234837
 0.4515662818098192 0.11028055168591033 -0.023130631358898958 -0.01645543447892572 -0.023075763037176227 -0.014753846281277865 0.03727508758008906 -0.2882568343429356
 -0.015709385108224852 -0.051873596221370284
 0.4468268420627935 0.1301987073906947 -0.02322603572037601 -0.0155189139009163 -0.02131320755239052 -0.017793384581839714 -0.015673944473887574 -0.050997861156899846
 -0.16317041001553056 -0.02028944856205985
2150000000.0 -0.048186943805150886 -0.22378909941908545 0.4397658139740662 0.06687925750105832 0.42101314843442667 0.0571587243886812 0.45091960502682255 0.08060546768082552
 0.45562710234850606 0.10453827746411049
 0.4400564140339465 0.06669057978373888 0.4855072459932962 -0.1902185613550602 -0.025013001302290432 -0.039607434157727946 -0.02438705836026552 -0.013430836553601742
 -0.024274774571514633 -0.012430995026113802
 0.41862249667582907 0.05788089217323999 -0.024756476838296623 -0.039445407050994585 0.3799623820313959 -0.4165227971437156 -0.02400629163567243 -0.0116981403675099
 -0.02293731547819954 -0.01519286852715771
 0.4576705810424947 0.08367432037698497 -0.02464961192587304 -0.013736624401644876 -0.0245272816874701 -0.011966657915062079 0.0514685393921679 -0.29811239776297893
 -0.018934926193434426 -0.05099518127389119
 0.4549320601567047 0.10410524159343411 -0.024813292962447518 -0.012719173823816089 -0.023035126782950954 -0.015249489948681697 -0.018879816525919357 -0.05012990133750358
 -0.16168128712688148 -0.04160068216201211
2160000000.0 -0.06743319580484589 -0.2098313967557844 0.44301344517097485 0.041671251488123916 0.4233070968387065 0.03309133961900654 0.4550049031298174 0.05403845326885321
 0.4622737107232183 0.07784129755569666
 0.44338362977788437 0.04143527801839122 0.49610825737772796 -0.17876452130942236 -0.02723041649194092 -0.03793941448380438 -0.02568092004202084 -0.010541971872273565
 -0.02553728765867752 -0.009505720770079013
 0.42103069935748977 0.033750238834604096 -0.026925449829113587 -0.03775640450984288 0.39679747509456953 -0.41088079752092765 -0.025125207414979003 -0.008804487094294624
 -0.024459522604155126 -0.012501469152909513
 0.4620597990250749 0.05670908060104149 -0.0260057119417547 -0.010806652413551209 -0.025637775353517703 -0.009056685137108198 0.06587616438327007 -0.30680803821145414
 -0.022181807588543913 -0.04989960570361353
 0.4615483884627733 0.07747613491593255 -0.026072255006521168 -0.009775721420958672 -0.024557742669340927 -0.012489136405955907 -0.022039670013394737 -0.049009079718490244
 -0.1592874467215427 -0.062491069202987096
2170000000.0 -0.08508277720897747 -0.1932942371280996 0.4450208167390223 0.01618191730882653 0.42428195683148884 0.008705286541515436 0.4575778094900469 0.027197860168754952
 0.46727339930853556 0.05062346367908948
 0.445407481789812 0.01584318545908681 0.5061387273699934 -0.1665924778348436 -0.02931445179184581 -0.036105833510113754 -0.026544951381079727 -0.007512410466889887
 -0.026404267130956033 -0.006513928811920715
 0.42205029887621726 0.00956580549014145 -0.029048644519368845 -0.035981054847574655 0.41325647312574487 -0.40466743895998136 -0.025861535081361128 -0.005867242073006779
 -0.025662221390687023 -0.009605110500436897
 0.4647021926772971 0.029334283781839682 -0.02694557594859907 -0.007755823502278489 -0.026390630379693927 -0.005966366613704089 0.08035612297391352 -0.31454704020686375
 -0.025304153897367992 -0.048549420829146504
 0.46661911104924964 0.05030099716873502 -0.02696277428845722 -0.006619777378415487 -0.02582264182679014 -0.009610127829637955 -0.025131138511541053 -0.04763012339343651
 -0.15599046200070543 -0.08293738607924167
2180000000.0 -0.10071035908120335 -0.1745008486283889 0.4456638202655196 -0.009620954907539352 0.42407672940008867 -0.01570603779285792 0.45843044963795404 0.000112490108320668
 0.4705570957162896 0.022803483524434683
 0.4459312846391016 -0.009895429611108172 0.5154303123749577 -0.15388077408928227 -0.03129701994695029 -0.03416611582423282 -0.027204495410862367 -0.004371870108976464
 -0.026934284618489953 -0.0033469543454709735
 0.421707277525538 -0.01476084709609181 -0.030959017365308875 -0.03401831267319371 0.42923329792178 -0.39736377440748993 -0.026253651360347706 -0.0027869960415813433
