! Created with skrf 1.8.0 (http://scikit-rf.org).
# Hz S RI R 50.0 
!freq ReS11 ImS11 ReS12 ImS12 ReS13 ImS13
! ReS14 ImS14 ReS15 ImS15
! ReS21 ImS21 ReS22 ImS22 ReS23 ImS23
! ReS24 ImS24 ReS25 ImS25
! ReS31 ImS31 ReS32 ImS32 ReS33 ImS33
! ReS34 ImS34 ReS35 ImS35
! ReS41 ImS41 ReS42 ImS42 ReS43 ImS43
! ReS44 ImS44 ReS45 ImS45
! ReS51 ImS51 ReS52 ImS52 ReS53 ImS53
! ReS54 ImS54 ReS55 ImS55
!
2000000000.0 0.17601419844113889 -0.07389603394019847 0.2407752717093342 0.41071208235748036 0.20946099533082282 0.3958429468602306 0.24589894763874323 0.36021408222912177
 0.21826560081642374 0.397258266473419
 0.24100749821388323 0.4104997529351022 -0.09279951102842965 0.014311982523417335 0.02497168407195085 -0.051702634146823044 0.019405857434922187 -0.026846513655197694
 0.01959492620009797 -0.02633514337467349
 0.2071964388504728 0.3944188319719864 0.025039007280204955 -0.05131449829663891 -0.3021141829343247 0.10761737803098899 0.018771611631224042 -0.02459812995938856
 0.02373327699541112 -0.022017449883032083
 0.2480997980241185 0.36667262607222245 0.019766776084387035 -0.0271165219008863 0.019161390180626486 -0.02506169970109202 0.10043967317490154 -0.38008367687705064
 0.021424739241041674 -0.04702768516925483
 0.21808392705639731 0.39631803204337135 0.020012391519420573 -0.02682453127300991 0.023775645699171954 -0.022230939059034095 0.020829759014365103 -0.04628223984324
 -0.11214943044752043 0.2774408083404465
2010000000.0 0.17634504672460474 -0.08397665294356334 0.2648209613869345 0.3959141820589277 0.23289152473692729 0.38411794834119334 0.265513313934106 0.3441262863619449
 0.24057981087002184 0.3844974361141413
 0.264899643868029 0.3957754943433234 -0.08389109479509203 0.015337387047850828 0.021840374832957584 -0.05287052210575099 0.015894123904724933 -0.028452605736860957
 0.016157613231647074 -0.028059616104432143
 0.23063821731604037 0.38311215036113117 0.02194629183488452 -0.0525186178753094 -0.29333666559235355 0.09401508400484238 0.015553647785662381 -0.026277382067478622
 0.020902698280525295 -0.024493017218228
 0.2681067609174357 0.3505721163557834 0.01625097352964077 -0.02883721808996586 0.015905499658229568 -0.026811063607535324 0.11958101821532331 -0.388675102289508
 0.018921816721170104 -0.04772067046732394
 0.24025447681978018 0.3836190531245481 0.016535983960363577 -0.028627683457835867 0.02085970130517144 -0.024605163027785457 0.01833466059205349 -0.04699916066532175
 -0.12074611959317622 0.25702566032587054
2020000000.0 0.17508189609406896 -0.09485906083523284 0.28789770986898966 0.3795614572215134 0.2554936363273679 0.3708829335886252 0.28399322643408614 0.3271318627949465
 0.26199683286665437 0.37041841568457873
 0.2880632063385054 0.37942474722630304 -0.07506967270482755 0.016757927846118452 0.018727267888612578 -0.053840209885696266 0.012289725823704096 -0.029708217378615988
 0.012686306484107799 -0.029413091443235107
 0.2533295056727843 0.3700027618744938 0.018758942148928263 -0.053457374209303396 -0.2840686405496262 0.08063779505327646 0.012300676303396287 -0.027599080236134547
 0.017860565470156898 -0.02647476877751008
 0.28695816270813984 0.333419344067674 0.012621539376753383 -0.030094133640641604 0.012562048268249602 -0.02817578865617971 0.13874777893611673 -0.3961068720614895
 0.016400832977868856 -0.04835501053319542
 0.26158756093662777 0.36948509767848026 0.012965020724187737 -0.03003049630055303 0.017784782329468132 -0.026666737440791167 0.01591025984136493 -0.04757823174612582
 -0.1283942764387761 0.23646427398790007
2030000000.0 0.1721538693514953 -0.10602108503205233 0.3098635461318352 0.3618143370539654 0.27755049563006995 0.35639307504543066 0.30130700222236567 0.30925690748701723
 0.28260882034481355 0.35517032788005914
 0.3100800088858849 0.36173905442932947 -0.06673329736699628 0.018237072037361673 0.01542395262280224 -0.0547038443881856 0.008616629301978956 -0.030614237731691543
 0.009132188338912252 -0.030512072551757415
 0.27523398003505567 0.35569303710892197 0.015623032971762693 -0.05438711331526277 -0.27442523794475954 0.06775400809603331 0.008960395864845132 -0.02867345444053718
 0.014617172229589458 -0.0282410646946442
 0.30459359820677834 0.3154638710654832 0.008928437809559344 -0.031067987349215676 0.009129094540873845 -0.029198645148777562 0.15804591286387729 -0.4030277677363559
 0.013854425141517527 -0.04897769291956326
 0.2822261516565015 0.35446970944536904 0.009312911127058083 -0.031076431293518936 0.014550286167530391 -0.02842363685043082 0.013387935091664138 -0.048271127662308934
 -0.13520882597980588 0.21550256407438412
2040000000.0 0.16762045756851332 -0.11706021919034273 0.33067008700166 0.3428595460820812 0.29876728769813793 0.3405680551076835 0.31748022239449514 0.2906093789559749
 0.30228179789538545 0.3389048031022939
 0.33089416683891143 0.3426908621562076 -0.0588779177696064 0.020121685265555914 0.012094633678252632 -0.05546000655137858 0.004823351363546984 -0.031084474459226363
 0.00536029175446237 -0.031107870605195757
 0.2964484323704717 0.3398550061206384 0.012238073857417703 -0.055124523597201484 -0.2639949637874822 0.05525833205232542 0.005408406467095747 -0.029289276366694622
 0.011174658580472624 -0.0296569136505172
 0.32104142881464914 0.2965638476462994 0.005039862376960929 -0.03155037506058092 0.005581090433767878 -0.029855448361430125 0.17743452853178315 -0.40916376816076167
 0.011197097032680797 -0.049567337856284005
 0.30196132894501304 0.33825204475220616 0.005549438472076184 -0.03172754473350397 0.011136354720223333 -0.029802464493263958 0.010756589707140872 -0.04878259601183828
 -0.1411747287994357 0.19423642061875196
2050000000.0 0.16175725728737098 -0.12803730514852113 0.35029868577021783 0.3228833816011983 0.3192403608731187 0.32345285461363216 0.33242471048327127 0.2712696301244427
 0.3211461350149287 0.32177570952687146
 0.35050035539604374 0.3226613652839708 -0.05186601197005115 0.022425251560568262 0.00851989700735174 -0.05590895278280527 0.0009744286305788538 -0.031016950679250175
 0.001624806430366691 -0.031234786253904176
 0.31686846137743446 0.32292070845499304 0.00873803169887318 -0.05565387813524999 -0.25374207358836154 0.043654110654156204 0.0018766493945290162 -0.029449338824104776
 0.007518567367255565 -0.030591987511064882
 0.33636609896502095 0.2769675893933891 0.0011341758556369388 -0.031531596562305586 0.0018928682569371315 -0.030035682384873624 0.19647903034258327 -0.4141325861532016
 0.00846168313486252 -0.04994176138263471
 0.3207449122840272 0.3210124708774926 0.0016402500280087357 -0.031870752667169565 0.007451520140221355 -0.03074019544992235 0.008037266376866121 -0.04915143681982622
 -0.1465150118983444 0.17300925384641574
2060000000.0 0.15438170306277116 -0.13865660617997377 0.36870577809968424 0.3017889243410627 0.3387844981509605 0.3050123656462017 0.3463419389128588 0.2512784112331623
 0.33908110499495125 0.3035925986284423
 0.36898109762798353 0.3015932208957065 -0.04562508372866827 0.02495805649819021 0.005064855642740041 -0.05611316813453247 -0.002704467569064186 -0.03051570010928447
 -0.002049921321728949 -0.030900366645412552
 0.3363144004688381 0.304583703878939 0.0052643460136807966 -0.055816750968789866 -0.24335741300526953 0.03259136125701181 -0.0016117647969894563 -0.02916887300110072
 0.003838227509395109 -0.031076818677781483
 0.3505090461269941 0.25675735837861113 -0.002619439418315084 -0.03099058066913837 -0.001691308564698284 -0.029732818517908238 0.2155691674219678 -0.4184840516601886
 0.0056405391715919915 -0.05006193010500981
 0.3385793935798156 0.30279944580400237 -0.002141855141149357 -0.031509203697913477 0.003745587651552308 -0.031152495543289027 0.0052330035877732415 -0.04930249996731999
 -0.15152273100058064 0.1515878279349345
2070000000.0 0.14552108093417113 -0.1487154164415292 0.3859795922125071 0.2798070148280383 0.3572969814796044 0.2852526000799105 0.3591089368810647 0.23068921009305005
 0.35609883664535985 0.2843251905060669
 0.3861454214834211 0.2795423948526348 -0.0399349358360155 0.028396786811983248 0.0016332845556913 -0.056063870107876335 -0.006209240278715898 -0.02951281487301855
 -0.00562990963093263 -0.03008306467517553
 0.3547786827004607 0.28497887134178573 0.001866008854920762 -0.05578207387619684 -0.2324469552278264 0.022820186748233058 -0.005007837133944932 -0.02842548918082535
 0.00024427054639213666 -0.031012707083144405
 0.36352014826863027 0.2359171465883577 -0.006134009668141789 -0.029973030101994418 -0.005039956632712536 -0.028977989238663522 0.23515768578597057 -0.4212894901992054
 0.0028790498043042723 -0.05008500958720679
 0.35560622058034436 0.2837121242848044 -0.005666899079545999 -0.0306849138656071 0.00012901967719025734 -0.031135098114909433 0.002532334488242881 -0.049305794361143275
 -0.15550448543705864 0.1305527123761012
2080000000.0 0.13524152379399593 -0.15797938102941558 0.40192577265084445 0.2568265717311492 0.3744679925538379 0.26422766547227783 0.37047923674356065 0.20940407478111597
 0.3720102689374374 0.26425030005411176
 0.4021195404890966 0.2565285961821893 -0.03444216360477857 0.032161092086309045 -0.0016492470056620261 -0.05592837948228138 -0.009416530991591503 -0.02823100997859352
 -0.008886206668936289 -0.029010951183043605
 0.3721876252993895 0.26417227125140336 -0.0014694002519054057 -0.0556769196881816 -0.2209580186709524 0.013530900695516667 -0.00810385508673378 -0.02742825937267585
 -0.003232320281973362 -0.03072358538847606
 0.3753558073407776 0.21446983490530908 -0.009456748389557726 -0.028730627091687434 -0.00821870825744787 -0.027967143717591937 0.254840557612267 -0.4232894928345016
 0.00021000401887059168 -0.050030463570033636
 0.3714589593348558 0.2635781076078605 -0.009014976285026143 -0.02959280606367274 -0.003348584096157535 -0.030815711883961667 -6.0960111886777355e-05 -0.04917573138696251
 -0.15867693094145524 0.1092783241702069
2090000000.0 0.12360508718100584 -0.16637335566633388 0.41680674068959 0.23295327416008532 0.39066277830279644 0.24232045860120568 0.38089873431205495 0.18768231592467702
 0.38680884819070815 0.2432550495719444
 0.4169183123622305 0.232664552644105 -0.02953491762816222 0.036464521764212485 -0.005074780595905729 -0.05577023196266605 -0.012514735835236063 -0.026708825023393615
 -0.012020023749106473 -0.0276719345357468
 0.3881868882398499 0.24215669829850547 -0.004864507959964634 -0.05546946293727976 -0.20939851034855597 0.005095426757989051 -0.011084063976479711 -0.02616891032014557
 -0.006688165862685834 -0.030089447416730426
 0.38598745264817225 0.19234366090191415 -0.012606763094651693 -0.02715244014717561 -0.01128674266551767 -0.026733652522582942 0.27484006271588834 -0.4246299344990024
 -0.0025862706630439525 -0.04995852534050426
 0.3863624760693268 0.24260767361687968 -0.012242811560877025 -0.02828079870187026 -0.0068242303657424465 -0.03016192248315801 -0.0027746053612271826 -0.04911827261045452
 -0.16129094393394483 0.0880201884736246
2100000000.0 0.11051607124849498 -0.17342189003498137 0.43021421969774865 0.20823018084345402 0.4053347292390727 0.21925585352067808 0.38982173927008523 0.16547914837676655
 0.4005958499071778 0.22165043058678277
 0.4305419661754665 0.20796963560387136 -0.025022516134573618 0.041044292855936255 -0.00860432543784993 -0.05538575978893976 -0.015469908923969416 -0.024758053325363762
 -0.015098239320845542 -0.026042086274801198
 0.40285101473421236 0.21922727212701795 -0.00838757710740801 -0.055160484734408266 -0.1975232129207024 -0.002824709354460086 -0.014011569276104537 -0.024621107186741698
 -0.010157843207349929 -0.029071333507497066
 0.39537409225126396 0.169812419147373 -0.015615875384732528 -0.025220941840443312 -0.014220959703569026 -0.02512665147893436 0.294983227802988 -0.4246599497816749
 -0.005394670064700965 -0.04973614797264884
 0.40003553722386165 0.22089900381417368 -0.015330460516086034 -0.026585334013733843 -0.010255354776314736 -0.029135232374349316 -0.0055877990465229704 -0.0488761575569025
 -0.16281210137335203 0.06651407626620334
2110000000.0 0.09625743697965447 -0.17879438246341878 0.4423821358557743 0.182493076485416 0.4189407450173392 0.1953142653761591 0.3979353708864526 0.14297424158547334
 0.4132595072089241 0.19905103026867366
 0.4427057747597727 0.18234538854225196 -0.021256992957506403 0.04574438356618821 -0.012214785696102088 -0.05477283924293199 -0.018156242728994527 -0.022554754634094752
 -0.017969820547686612 -0.024067338063600865
 0.416386763799008 0.19545752247584997 -0.011990799032365931 -0.05451712179174945 -0.18571976123778092 -0.009938338042492459 -0.016738291119945636 -0.022747598111814534
 -0.013451644791955781 -0.027603468746888227
 0.40345046403331036 0.146864117892513 -0.018339334758808057 -0.022957206600999286 -0.017006491692724855 -0.02320652130177999 0.31501892665268055 -0.42377184886270824
 -0.008329197483819873 -0.049267317036294
 0.41265329041661847 0.19850588047530843 -0.0182695187293572 -0.024566571095697043 -0.013561938361772646 -0.027706985772606323 -0.008409032906016906 -0.04848127616883277
 -0.1636154367737782 0.04482054866302505
2120000000.0 0.08118085488769712 -0.18207076418451165 0.453011979648717 0.15598442655757727 0.43105938097800756 0.17037193829147013 0.4045691536304022 0.11999154098421093
 0.42472706502027036 0.17569925729521313
 0.4531925732094983 0.15575039263679966 -0.018137960961979265 0.051021296449028045 -0.015738823641897638 -0.05376015710108642 -0.020483571736118086 -0.01997767002575506
 -0.020541895651906717 -0.02176660597348397
 0.42840733636239375 0.17071204068466805 -0.015495579306672488 -0.05349775024364915 -0.17420264680335543 -0.01638549338988947 -0.019166563355978185 -0.02055655555269706
 -0.01650544588925971 -0.02576758921731701
 0.4104211772497093 0.12356052649424415 -0.020701319285215656 -0.020317926298430326 -0.01949683329151863 -0.020977377287627545 0.3345829724326248 -0.42183221840175905
 -0.011137717118814127 -0.04870705794437769
 0.42404751735570356 0.175212036812775 -0.02090783631819531 -0.022224731685142718 -0.016651525865748237 -0.025843961836874096 -0.011243622707109383 -0.047831272771512556
 -0.16431587525071814 0.02317346009448189
2130000000.0 0.06576702987650089 -0.1833512016047662 0.4619806608812402 0.12885963116571847 0.44162473890971693 0.14464839454044526 0.41003959873702217 0.09666145792807208
 0.4350474953652728 0.1515654881365698
 0.4622112508513722 0.12862259189043823 -0.01546558896303302 0.05632380948235033 -0.019142791293449115 -0.052637418170363555 -0.022416325790638725 -0.017228592242249992
 -0.02279830231569378 -0.01909133648194797
 0.4391520681133152 0.14511470479023889 -0.018925744500605288 -0.052306884653089115 -0.16260072095865555 -0.022074296081554538 -0.02128567842601956 -0.01801054011936136
 -0.019392885288084513 -0.02366202578366637
 0.41601826724940527 0.09987448051643463 -0.022655291592486998 -0.017549883526625756 -0.021745729184959067 -0.018395480881545422 0.35378504451294374 -0.41901267993076785
 -0.01397618209121662 -0.04794033640403889
 0.4344945371252993 0.1512073313839105 -0.023309597222187752 -0.01950909069451544 -0.01947556253626448 -0.02368845079416544 -0.013990961202664949 -0.047127552443039344
 -0.16404593597411354 0.0014648390783294227
2140000000.0 0.0501146283631892 -0.18253827764985794 0.4692260358888714 0.10114426419375164 0.45068243337588576 0.11806158193563576 0.4139826357922125 0.07312915587894313
 0.4439415101929221 0.12679405870778554
 0.4693673536296643 0.10097987794674776 -0.013027435717651593 0.061752483360920506 -0.02254602372132399 -0.05129191590466813 -0.02392397467475256 -0.014324323429912732
 -0.024790395044309986 -0.016298170801648207
 0.44794893380820333 0.11859269375159982 -0.022196055519736843 -0.051038991741780095 -0.1507629227957202 -0.027120517717393062 -0.0231361551758654 -0.01534848998133553
 -0.021943933527584957 -0.02121614714223446
 0.42021639239550507 0.07593510625922473 -0.02425506610252824 -0.014705217134141281 -0.023597081550949067 -0.015739928593460347 0.37269229130772075 -0.414999005752653
 -0.01677482104939723 -0.04708008296063525
 0.44339028349550685 0.12640336283982917 -0.025288559003680117 -0.016711559692488626 -0.02207562430654608 -0.021237146986341642 -0.01671822408632889 -0.0462348023679029
 -0.1629143230346146 -0.019916382948741713
2150000000.0 0.03452424734958879 -0.1798667955359368 0.47484777040528575 0.07314096234226716 0.4579610346492363 0.09091045395833455 0.4168278808406632 0.049391010243978836
 0.45134997149069445 0.10138031532323005
 0.4751399723601497 0.07297442901986906 -0.011545279764657116 0.06719895729321572 -0.02579618846783855 -0.049845049506452195 -0.025228899834214967 -0.011414735970024847
 -0.026440811701357734 -0.013380745268439714
 0.4554310194973581 0.09146756018531224 -0.025485871697201734 -0.0495696369400649 -0.1391956238025061 -0.03161369038046606 -0.024666685078033032 -0.012578840390381847
 -0.024244555863686967 -0.018520206536194392
 0.4231623000510476 0.05185668218539365 -0.025528707867535933 -0.011686339511762305 -0.025165280230446764 -0.012849656172921905 0.39087099096660716 -0.41043950641745125
 -0.01960743348390648 -0.04610805596114305
 0.4508469109119799 0.10104359508382749 -0.02698850940986565 -0.013665311213920606 -0.024423909597350375 -0.01855182693574976 -0.01949714309314637 -0.04532304593628489
 -0.16126325047991294 -0.041339158698404974
2160000000.0 0.019229763958861834 -0.1749390043762905 0.4789171417373631 0.044848806844344426 0.46370378447441535 0.06320027297224899 0.4181335547292726 0.02566448493527769
 0.45746156088291007 0.07548559098147997
 0.4792154849938487 0.044648185416108106 -0.010535203720271322 0.07271443359811787 -0.0290643874860505 -0.04807989161800849 -0.026211148343167155 -0.008389231209381568
 -0.027792837964269457 -0.010180554334461104
 0.46099037000173243 0.06382347559237855 -0.02880010030474185 -0.04784724320599185 -0.12758491997490154 -0.03534934820305841 -0.025892985155522397 -0.009551151268405304
 -0.026258437074947627 -0.015574403031094948
 0.42472116818298405 0.02776924494205009 -0.02651402190746219 -0.008694914215652466 -0.026459109417097285 -0.009840194397552607 0.408396710631164 -0.40462283875560734
 -0.022391618987907834 -0.044973440173929215
 0.45693510729415854 0.07516968138271982 -0.028411515967991862 -0.010481903155541405 -0.026429711043337238 -0.015598731480258693 -0.02222888822741337 -0.04410299218823285
 -0.15881193934940147 -0.06235389711261904
2170000000.0 0.0046055907271186705 -0.1680073540039192 0.4813364260777531 0.016254574311505156 0.46754974512642367 0.035016460748308914 0.4183651511597657 0.0019326794098211166
 0.462031481653377 0.04917928341356724
 0.48184435951740606 0.01595413282399049 -0.010263270498125594 0.07847244010591574 -0.03218576953775513 -0.0460713700990872 -0.02683955512028945 -0.0053126990803297495
 -0.02880510678584516 -0.006919752265125458
 0.4648404483791606 0.035864518263031574 -0.03184955847686666 -0.0459244352321376 -0.11612810598577844 -0.03834209324586509 -0.02678693314994299 -0.006475311105205601
 -0.027911040195248118 -0.012426703760551137
 0.4250489378863951 0.003584112597210346 -0.027228788575170075 -0.005490516274577866 -0.027322717909638188 -0.006657974350972802 0.4254123334906732 -0.3981576747056444
 -0.025164209047982215 -0.043607974293832556
 0.4615470963989767 0.048898695722726225 -0.029384744415419526 -0.007107377744926324 -0.02810285550529128 -0.012393899601877553 -0.024920226786551175 -0.042755973161359304
 -0.1554528173878859 -0.08283842607942307
2180000000.0 -0.009071440235880784 -0.1591308549485769 0.4823580955607545 -0.012674109196866894 0.469766362061212 0.006493735023539895 0.41731111512600044 -0.021750002749614084
 0.46519281430954135 0.022451602172463798
 0.48270262503195477 -0.012977799971796065 -0.010545720213597736 0.08440544734728843 -0.03517601033565412 -0.04390066168481451 -0.027158768735755383 -0.0021306918047693697
 -0.029353203890709154 -0.0035448360030582286
 0.46714639034187333 0.0074272757798917585 -0.03477550802963774 -0.043708614455797504 -0.10456629663499875 -0.0406512857038184 -0.02724469205226412 -0.0033101151306583394
