! Created with skrf 1.8.0 (http://scikit-rf.org).
# Hz S RI R 50.0 
!freq ReS11 ImS11 ReS12 ImS12 ReS13 ImS13
! ReS14 ImS14 ReS15 ImS15
! ReS21 ImS21 ReS22 ImS22 ReS23 ImS23
! ReS24 ImS24 ReS25 ImS25
! ReS31 ImS31 ReS32 ImS32 ReS33 ImS33
! ReS34 ImS34 ReS35 ImS35
! ReS41 ImS41 ReS42 ImS42 ReS43 ImS43
! ReS44 ImS44 ReS45 ImS45
! ReS51 ImS51 ReS52 ImS52 ReS53 ImS53
! ReS54 ImS54 ReS55 ImS55
!
2000000000.0 0.1775960623755465 -0.1572553860066212 0.23845950669504604 0.3698415177858753 0.22311618802227318 0.40728450475969324 0.24202835913138876 0.376598311285306
 0.2143386754198224 0.39887777895609977
 0.23886908151967876 0.36977387508134407 -0.1877154244051542 0.46494630054468367 0.02000108016680447 -0.05108562532653274 0.01758741660596394 -0.026021835614370607
 0.0054053072971043765 -0.0341100384493694
 0.22087564473436988 0.4058471381675858 0.020021700153814374 -0.05074368643526859 -0.10693322368202732 -0.036023580904847786 0.0202261846139755 -0.026547439338563513
 0.02411575344996676 -0.02341157667794101
 0.24400131605276257 0.3831851527644162 0.017984915150860325 -0.026312765603311188 0.02065032357410825 -0.027014896969554197 0.25970774029237637 -0.2342034425955003
 0.022972360482482936 -0.04769607985910429
 0.2142280914393125 0.397978659584809 0.005564643264921844 -0.034734863358209814 0.024093871156038414 -0.02364500861963276 0.022433090170813633 -0.04708698847252711
 -0.11203648752306145 0.27753676452932874
2010000000.0 0.16718711761296495 -0.16416149284330392 0.26055181927336235 0.3592487701632914 0.24754580908235502 0.3936920254227823 0.2630582743573359 0.3614234782016999
 0.23718783574506583 0.3867022661466519
 0.2608102184743863 0.35902180691850377 -0.21117368503595918 0.4202326389606493 0.017202597577429337 -0.052163814575507096 0.014474029584643397 -0.027674251191916445
 0.002123795022473499 -0.034203054134766785
 0.245325085156784 0.3926242741207236 0.01728542339441662 -0.05186272107532194 -0.09628215663173798 -0.036376971069502245 0.01675085528302347 -0.028351646189360313
 0.021066968120568175 -0.025809231822391747
 0.2655008979854205 0.36802982708984094 0.014798967773595692 -0.027964498087827916 0.017063880032767542 -0.02889481694049291 0.2757610302594921 -0.23400872743626222
 0.020418123075054806 -0.048552843087654646
 0.23679520775966725 0.38584319072390544 0.0021696690888855404 -0.03485594717599365 0.021008296703065314 -0.025999311595859522 0.019897650790394707 -0.04785757665356209
 -0.12065359416712176 0.2570822237094723
2020000000.0 0.15628580455081542 -0.1703287809471268 0.28193818134760357 0.3469474496728984 0.27111118908049586 0.3784228259602681 0.28316563297520797 0.34508218786780687
 0.25910159993591303 0.37321876761973694
 0.28213079655166967 0.3467467834520372 -0.23102375179468362 0.3745365604986093 0.01437671122869592 -0.05312865274512187 0.01130339693704887 -0.02890589979776131
 -0.001113933028968439 -0.034010708458192526
 0.2687695473262471 0.37762513549703286 0.014532916619172543 -0.05282189540534123 -0.0857754581868266 -0.036210150191690334 0.013173921135528762 -0.029747603624669283
 0.01779967133020228 -0.027820340808393098
 0.28595746780497294 0.35165827866375343 0.011578016903576472 -0.029349540471602677 0.013439640025651674 -0.030308175360454763 0.29142482618345855 -0.23304721545298998
 0.018016388870988092 -0.04935088126946679
 0.25868105609644015 0.3722807531689358 -0.001105277915018466 -0.03465868476338271 0.017765232567658454 -0.028004153571421535 0.017439448265052285 -0.048656650377846916
 -0.12825510198614326 0.23646599818841388
2030000000.0 0.14504893272589148 -0.175811111437812 0.3026071984452425 0.33339542368037095 0.2937178766917836 0.3619806247848199 0.30220386954663275 0.3276767889315389
 0.2802484053631508 0.3584075225404607
 0.3028328344612927 0.33319511206173813 -0.24756248206444875 0.32801919300723503 0.011458930525641417 -0.05398879655857851 0.007853221306139828 -0.029887289981773375
 -0.0043444328031442 -0.03363485358611123
 0.2912775779477675 0.3612181441594758 0.011628201662416777 -0.05369709237430083 -0.07575754677307985 -0.035660118183376985 0.009518934097990006 -0.030834239849320356
 0.014360928124736858 -0.029548527052321014
 0.30531335706028256 0.3340793275614871 0.008161408688035903 -0.030315261223805033 0.009715885875847843 -0.03141059273685344 0.306838144146061 -0.23156092975610085
 0.015437602857899994 -0.050123188132999284
 0.27997634061755 0.35765561389180733 -0.004400741536133223 -0.03427996284004504 0.014334809920793924 -0.029679683218720717 0.014937765215500567 -0.04937544630898802
 -0.13501291840162633 0.2154888278926618
2040000000.0 0.13338671253456813 -0.18065177816574762 0.3225402979569403 0.318346130093085 0.3152551302857884 0.34392512947411463 0.32011947503201277 0.3092749912762778
 0.30063676874919654 0.3424155597430964
 0.32275994561691795 0.3182787274250435 -0.2606420613507745 0.28054130443734865 0.008381105671999997 -0.05467811888456165 0.0043793388831674385 -0.03054414857008714
 -0.00758299440638914 -0.03285862162644443
 0.31282468454833035 0.343309712406811 0.008518272273479623 -0.05441456086829274 -0.06591827188040575 -0.03459591871472594 0.0057009022764952745 -0.031438533816878146
 0.010727765213244991 -0.030835252100041385
 0.3236981288385153 0.3155754372601678 0.004627704698934286 -0.030986958013971857 0.0058564755590610066 -0.03208449910892455 0.3220460564187024 -0.2294659283054607
 0.012619828222360796 -0.05081126304850765
 0.30038032952473204 0.3418043383653407 -0.007702240052804642 -0.03356522519318978 0.010667414922389928 -0.031004730093485006 0.012215903284101923 -0.05006510571908346
 -0.14098844884022868 0.19417774839237656
2050000000.0 0.12136566317738831 -0.18486664846088713 0.3415903478921095 0.30214270621553413 0.33574822050170283 0.3247095244912686 0.33695105038090395 0.289976360637901
 0.320171077361106 0.3254551290082368
 0.34191184317737755 0.30194347224308776 -0.2707640304349455 0.23311523875951373 0.005119562355170474 -0.05515928718151631 0.0007061406645980557 -0.030649966067040728
 -0.010778613186742588 -0.03172836507050544
 0.3332929195667902 0.32413917194755665 0.005308933679411761 -0.05484767836059932 -0.057120914384120355 -0.03282297972894687 0.001814101627460243 -0.03155409856101574
 0.006886296849329538 -0.0316575667596072
 0.3409148616724791 0.29594205527314005 0.0008619256350994794 -0.031100750982513914 0.001895020689905963 -0.03222347050939298 0.336609346359666 -0.22651976109426059
 0.0097525476340831 -0.05133415218442478
 0.3198757584761894 0.32466551969526064 -0.010966537619799736 -0.032416500159629984 0.006792425288990196 -0.03178728722168157 0.009395093310125628 -0.0505680905161688
 -0.14636831648920556 0.1729168785597057
2060000000.0 0.10904113872928273 -0.18830106390472318 0.3599695688666366 0.2846031043287018 0.3550214693476771 0.3041190344379003 0.35259018442783513 0.2696932421045129
 0.33880139452759345 0.3073642853435334
 0.360150852173656 0.2843038886333575 -0.2779772813261688 0.18580687854069863 0.0018348170651670403 -0.055306650430846906 -0.0027624623687549613 -0.03028931970192833
 -0.013783187350323887 -0.030280566530721257
 0.3525945040350539 0.3038062217964204 0.0020163932599804 -0.05503621875359146 -0.04887882694552517 -0.030702918515877652 -0.0019697334159430066 -0.03119019621939496
 0.0030851671122060806 -0.03196279678158688
 0.3568769372484621 0.2754688842343667 -0.0026743341065805005 -0.030785661439581273 -0.001971303626644272 -0.03180119899308418 0.3508234175023114 -0.22274255970847584
 0.006932721910798626 -0.05166074929146437
 0.33836536127752875 0.30644399397068744 -0.014017818592406306 -0.030893953762998562 0.0029954363594731533 -0.03207049495784479 0.006544012212828415 -0.050799997326550855
 -0.15134675281839416 0.15147513652921968
2070000000.0 0.09623712977595943 -0.19090542957754503 0.37719349768966076 0.26564822976365826 0.3728833814197095 0.2823444282539415 0.36709884502783474 0.24858020132083658
 0.35648730345906005 0.2879940754891708
 0.37737300038891886 0.2654097383985733 -0.2818711972015257 0.1388267622313034 -0.001391384363994715 -0.055147495837398634 -0.006176396260651489 -0.02955649368977301
 -0.016394421435803885 -0.028579858868949065
 0.37046974088924417 0.2821091672269744 -0.0011288738289217408 -0.0548913032834176 -0.0411671530552804 -0.02763492983392721 -0.005428998643382669 -0.030345779534958883
 -0.0006138646129076548 -0.03178604620636796
 0.37153610391015907 0.2541113683398054 -0.006133060852945387 -0.029979950697683572 -0.005524114523509455 -0.030930922435151977 0.3649081327736365 -0.21760687746373528
 0.004045338724109555 -0.05169891987208782
 0.3559655706068355 0.28724419784093524 -0.01670767745958106 -0.02914272716835235 -0.0006982641247124203 -0.03190741221919532 0.0037240420418049023 -0.0509031651179181
 -0.1553995723411351 0.13035245212166896
2080000000.0 0.08311326091663587 -0.19265545961762184 0.3931466936173233 0.2454440233951043 0.3894060473822457 0.25960452380704874 0.3802104881548439 0.22673488557753668
 0.37292350306606564 0.2677342666634956
 0.39345439092603907 0.24523764863126404 -0.2824830650247902 0.09249398372713921 -0.004414696167346286 -0.05500661836678336 -0.009368050459931377 -0.028493251536509487
 -0.01887457756047585 -0.02666077492006279
 0.3870154993524911 0.25944199124394723 -0.004240930163688877 -0.05473493862403675 -0.03379574187963361 -0.024277419653370234 -0.008773135386608287 -0.02916929513358913
 -0.0042139515338482396 -0.0313271007629027
 0.3849448015481415 0.23193853120923866 -0.009336345447926518 -0.028945726844662834 -0.00889349692312628 -0.029758354800931478 0.37901538660529177 -0.21163488437001574
 0.0012673607351076693 -0.05181298697296708
 0.37233715779579846 0.2669243906228107 -0.019205878257737913 -0.027223280234895113 -0.0042638011098715106 -0.03141829582620512 0.0009546361064643953 -0.050945932300576854
 -0.158617062460103 0.10909447476053363
2090000000.0 0.06968708124633864 -0.1933245739274 0.40795626708444976 0.22421654579852823 0.4046340034456851 0.2360367751654242 0.3920636924610822 0.20420897848438796
 0.3882125914352752 0.24650467785017496
 0.40811900740299933 0.22396740438283919 -0.28042238714386064 0.04674617274033936 -0.0076065556378022295 -0.05475707736649079 -0.012452995806917248 -0.027127954633876315
 -0.021228534179316385 -0.02460597425130164
 0.40208517740586047 0.23592640292703315 -0.007380455406150866 -0.05447659088034852 -0.0270433964136536 -0.02039495381716181 -0.011975040523401736 -0.02773496400919733
 -0.0076596804693802815 -0.0304718804070879
 0.39719031054268267 0.20908939972705434 -0.0125030047430779 -0.027626459883116267 -0.012145243245083174 -0.02838692206065299 0.39286215469109936 -0.20505768715822334
 -0.0016421788903095464 -0.051835273103969744
 0.3878089988978333 0.24578285327646698 -0.021631114904083936 -0.025233090689833263 -0.007850580988778106 -0.03061399727449381 -0.0018359847721391954 -0.050933927192022346
 -0.16120831624773935 0.08780707946286115
2100000000.0 0.05594511529485175 -0.19267787866206063 0.4212579478126632 0.20192269784178712 0.4183456888650962 0.21152103309836087 0.4025718100288973 0.1811023453809891
 0.40243790311128497 0.2245038035075449
 0.4216245187496303 0.20170268708576838 -0.27507279858605493 0.002040127130461443 -0.010815398906701731 -0.05427559105253429 -0.015413267904681095 -0.025465168005695957
 -0.023363974646879126 -0.022430843924401592
 0.41574505102349973 0.21150147987479562 -0.010585136296502935 -0.05398995852354629 -0.020442276369231505 -0.016499858502876736 -0.014933704241373502 -0.02603857416167393
 -0.011117694386209607 -0.029261796944805175
 0.40803341013388333 0.1857114593862104 -0.015525269033745808 -0.025885938024938375 -0.01517596925755875 -0.026621718214349964 0.4063909492194118 -0.19739919615659562
 -0.004611720230499703 -0.051652085129226415
 0.4019285814650917 0.22373345024875993 -0.02381015647357711 -0.02296369789353662 -0.01125191762035902 -0.029369145132604933 -0.004795151129908094 -0.05079493106685251
 -0.16278966449076776 0.06626397887297227
2110000000.0 0.04228940315387978 -0.19071132787224074 0.4333277660594005 0.17874388079273437 0.4306096923982063 0.1861686028531652 0.4118623595693448 0.15747751448258487
 0.41555013385140954 0.20161134284972304
 0.4336579307407043 0.17853086734956794 -0.2671630862945934 -0.041584818570357264 -0.014135573035647032 -0.053556549190107376 -0.018172415072741324 -0.023353435507277098
 -0.025367273019236948 -0.01993315075901936
 0.42795939388049054 0.18633713847603584 -0.01385756601453128 -0.05332229311989501 -0.01480100553428974 -0.012383156223802542 -0.017771168526608223 -0.023950080366467823
 -0.014473099458210365 -0.02770706972062345
 0.41756138577115887 0.16173625328163763 -0.01837531375780569 -0.02377791138393892 -0.018065625510866285 -0.02450254703648648 0.41945633366278884 -0.18913183342125522
 -0.007666740236166722 -0.05133379072220843
 0.41498220630179483 0.2010098093427823 -0.025842233638153005 -0.02042433707301511 -0.014602813454788024 -0.0277833348878646 -0.007741782602947306 -0.05045831844733288
 -0.16372931210492436 0.04459702661745429
2120000000.0 0.0288065135920668 -0.18743245796443914 0.4438138911805228 0.15460724678296903 0.4413295041194615 0.1600841839056653 0.4196295580394994 0.13337255960297814
 0.42739984609505544 0.17781035886149282
 0.4440803902243966 0.1544084388967177 -0.2569195884759361 -0.08375509415957513 -0.01732589872626873 -0.052607131307646 -0.020664579030244958 -0.02088460664030263
 -0.027081811275494697 -0.017258026973500182
 0.4386624672122052 0.16047862224672116 -0.017030213070465757 -0.0523128912146915 -0.009908303731444438 -0.007888288132116138 -0.02028983497277329 -0.0215720231388592
 -0.017492075441837465 -0.02572673738024825
 0.4256777332415751 0.1372387156134139 -0.020885031215450593 -0.021350804540717555 -0.020638433056662013 -0.022082678224870537 0.4316047698835741 -0.18021318214970763
 -0.010644930437154107 -0.05081720554084701
 0.42679589699896037 0.1772365202137787 -0.027581185084755346 -0.01769895374876809 -0.017635735842562797 -0.025765111522599762 -0.010724581865882318 -0.049896525476209846
 -0.16442444990878405 0.02283497952277415
2130000000.0 0.015560321583983025 -0.1829976833352086 0.45302689461476064 0.12988978733674136 0.4504887926871849 0.1333948469599841 0.4262793244673117 0.10892719672658525
 0.4379200618961065 0.15325099322039162
 0.45321416591604907 0.12960923412646178 -0.24401381952382975 -0.12429519168420704 -0.020408179527867387 -0.05142766353093303 -0.022732342266469367 -0.018281126870251532
 -0.028427403234231256 -0.014476136352200474
 0.4479550824406636 0.13386581014952273 -0.020135695244447496 -0.05116167195857355 -0.005256870767093185 -0.003030653115824705 -0.022428571813467572 -0.018971703686892074
 -0.02023994130088426 -0.02344594424853095
 0.4323089929688994 0.11235640771398511 -0.022982094624979122 -0.018653556970592115 -0.022865038294787116 -0.019365580822824923 0.4429881764472568 -0.17064091836940215
 -0.013603941713082808 -0.05011897634643109
 0.4374164151242599 0.152841058103745 -0.02900836211953551 -0.014792530484582058 -0.020475676819502922 -0.023470538067286634 -0.013664109037233382 -0.049182904793628725
 -0.16418771418675213 0.001215644301682195
2140000000.0 0.002499430843321224 -0.17705108436450184 0.46030484756145507 0.10435425990366558 0.45795285633083904 0.10613736303681882 0.4312703753932393 0.08410670071573854
 0.4470556077493482 0.1279979243712497
 0.4605148177432011 0.10402537818994236 -0.22829213963720582 -0.16282197105021562 -0.023507703975803554 -0.0500603744093495 -0.024496606161023823 -0.015407012358915588
 -0.029558956264548488 -0.01157372640973756
 0.4554179262855324 0.10670246193437943 -0.0231256425491322 -0.04988685353384374 -0.0007186457451488552 0.0020070687669271276 -0.02430204341694025 -0.016169258278410575
 -0.022774473542259588 -0.02089864717689806
 0.43760298205370357 0.08712937168931235 -0.02478423548865196 -0.01573708583921055 -0.024774718581211795 -0.016547805549884588 0.45390179644463163 -0.1605084209740608
 -0.016602078726399704 -0.04928377676784739
 0.4464571486340652 0.12752369828671017 -0.03016208528985295 -0.011865759151617718 -0.02295114421621332 -0.020899981595025482 -0.01655298232161481 -0.04840573488492674
 -0.1631263625057171 -0.020138032296395724
2150000000.0 -0.010180787391599048 -0.16978290668298754 0.4659736449240685 0.07835853296110729 0.46385724356328634 0.07844941555352475 0.4349460479784828 0.059033330832215014
 0.45470663945696277 0.10206133824284219
 0.46634281561173385 0.07812101239184828 -0.21063662444765696 -0.1997805472658325 -0.026458142968513544 -0.0485998276019384 -0.025895107452854397 -0.012492610164828307
 -0.030489846694898144 -0.008605231139763067
 0.46135415849803363 0.07907874951902828 -0.026213550673822986 -0.048409855041215394 0.0029893909118040825 0.007274458739343859 -0.025918142708431787 -0.013230313637433903
 -0.02505806106543024 -0.018131855497363354
 0.4414206264791391 0.061750662182008725 -0.026207807388541702 -0.012751060004496259 -0.02640435972966496 -0.013536033879576508 0.46370732213725363 -0.15019976664240764
 -0.019650912927829087 -0.04831576560865754
 0.4540755617723872 0.10168984353910991 -0.031085706363053085 -0.008814373391224897 -0.025143154950010318 -0.018074572684484154 -0.019484623918543827 -0.04745012836338744
 -0.1615096380563556 -0.04155223991129156
2160000000.0 -0.02215921513370642 -0.16092275982116955 0.4700194052718656 0.05202293754623339 0.4680853023455613 0.05050369144545337 0.4370782735437301 0.033958157869714775
 0.46083622295499704 0.07566623413774182
 0.47026958583940137 0.05173762780807998 -0.19069772769255253 -0.23451512849720463 -0.029384394278755468 -0.04687369113187361 -0.026970350089579934 -0.00939920316311394
 -0.03105524570906924 -0.005540064416537079
 0.4653449400028618 0.0512153975994503 -0.029069753134028323 -0.046719576043387 0.006366258778024752 0.012854538482478032 -0.02712750245908726 -0.010128323143496841
 -0.026901192617351737 -0.015041042869412363
 0.44374323141183986 0.03623359006661904 -0.02735655782372023 -0.009683930171043563 -0.02765784749946857 -0.010356483859016143 0.472689828355641 -0.1392878128183756
 -0.022595342119433558 -0.047144313296356995
 0.46012053269132447 0.07531054351872458 -0.031676140990056105 -0.005669141113969253 -0.02706888256439573 -0.015018343757379673 -0.0223871007649032 -0.046295308988703994
 -0.15904657328544056 -0.06248727626463986
2170000000.0 -0.0333883305427551 -0.15071077426937102 0.47230633602024275 0.025433170064223534 0.47053570843261017 0.022233700535205042 0.43790217028537753 0.008737414922480443
 0.46534615938075347 0.048863961163308225
 0.4726556300205808 0.025152652082885602 -0.1689422517713447 -0.26714254991117237 -0.03220491313969723 -0.045023862555755294 -0.027766164859217634 -0.0062820293431014385
 -0.03134294961207525 -0.0023608655600137265
 0.46784603240116557 0.023148720812510765 -0.03188403035989485 -0.04481309140456809 0.009258748807134006 0.018811992184983257 -0.028021948741658035 -0.006860876785022157
 -0.028455245162721444 -0.011802271341032431
 0.4448229958454898 0.010663696800753148 -0.028109670578822153 -0.006453752958672493 -0.028563306892620544 -0.007103956714397012 0.48093463387876406 -0.1280580881230709
 -0.025477822149629768 -0.045815506629469815
 0.46473486968213423 0.04853647949373264 -0.031974728236296865 -0.0025125882593275504 -0.028620725085360985 -0.011769741204384563 -0.025283071759868617 -0.04494341646025357
 -0.15572895048719423 -0.08297969233964164
2180000000.0 -0.043625405043207846 -0.13905620983547778 0.4729278463990145 -0.0013504957238965136 0.4714623410476548 -0.006251522166515278 0.43752464174914507 -0.016486162846726486
 0.4683610630800327 0.02171277506059317
 0.47330258720219465 -0.0016714807764548366 -0.145540831974638 -0.29758529812936946 -0.034894064516606024 -0.042874954836018324 -0.028071853850269536 -0.00306344351971357
 -0.03124167896710039 0.0007921241412125539
 0.46883208395880144 -0.005168561830039075 -0.03451585322053443 -0.04268889249353981 0.0116981683280186 0.02495871644927843 -0.028470360251008152 -0.0035552610644266993
