! Created with skrf 1.8.0 (http://scikit-rf.org).
# Hz S RI R 50.0 
!freq ReS11 ImS11 ReS12 ImS12 ReS13 ImS13
! ReS14 ImS14 ReS15 ImS15
! ReS21 ImS21 ReS22 ImS22 ReS23 ImS23
! ReS24 ImS24 ReS25 ImS25
! ReS31 ImS31 ReS32 ImS32 ReS33 ImS33
! ReS34 ImS34 ReS35 ImS35
! ReS41 ImS41 ReS42 ImS42 ReS43 ImS43
! ReS44 ImS44 ReS45 ImS45
! ReS51 ImS51 ReS52 ImS52 ReS53 ImS53
! ReS54 ImS54 ReS55 ImS55
!
2000000000.0 0.05180495450874739 -0.10103224698751481 0.22838906108540635 0.3736582128322324 0.21559238875109304 0.35240261942355044 0.20742496911673514 0.4081529011163289
 0.2242559585966582 0.4049012135564479
 0.22863150593433024 0.3733362193359917 -0.5348885500614365 0.2364987862382055 0.016593152925542847 -0.04390623157665072 0.02080874364989389 -0.02367687072095059
 0.017372800722931875 -0.024812897558961423
 0.21349708118622804 0.3513702322563964 0.01667733485253697 -0.043603288522368305 0.136603516766669 0.6582512782492704 0.019522781630224858 -0.022453283327872275
 0.0202656008680413 -0.02189630052615148
 0.20876092639669158 0.4149789993401432 0.02120892928927769 -0.023907919688374746 0.019901982102264383 -0.02292806216364812 -0.2985539136094402 0.11838160889018584
 0.028130329534783345 -0.04565027824991217
 0.22408683900464182 0.40395371397861174 0.017719776741487614 -0.025333321234239262 0.020255636588137164 -0.022029523658553075 0.027456233834819026 -0.04507681760040848
 -0.11208078401113558 0.2764046729148386
2010000000.0 0.05151324843418492 -0.09019534259951345 0.25042195214520835 0.3636990185473288 0.2383913728513965 0.3415546352850206 0.23308965705755202 0.3955759128428668
 0.24802569410434314 0.39128441128606023
 0.25051583908875424 0.36339094832527147 -0.521054617969504 0.201472478630666 0.014527481238384692 -0.04517788948846886 0.01794778113076645 -0.02586009135814517
 0.014519272989124102 -0.026429934150873167
 0.23641202180340146 0.3408011737329744 0.014636193159561568 -0.04494958879443784 0.09875744527070922 0.6379805464026758 0.016690775526435164 -0.02457683401299669
 0.017494489629541306 -0.024025231113894936
 0.23485028125543753 0.40255143785989667 0.018349620121062716 -0.026133259774163985 0.017035665079576504 -0.0250762404338151 -0.28929341578583606 0.10476329105733943
 0.025604535858208342 -0.047068799324030915
 0.24770029229260954 0.3904170978341232 0.014831539599981477 -0.026979252524168097 0.017472500560534638 -0.024181814559205483 0.025012994550337755 -0.04645077770059282
 -0.12086036791704868 0.25600255564135965
2020000000.0 0.05361319679731573 -0.08071017579149765 0.27182936124910656 0.3519378540346331 0.26028035006464545 0.32890269798417254 0.25770407327262196 0.38114874757816886
 0.27069762829824834 0.3760099832097984
 0.2718908545874937 0.3516149257720944 -0.5055171333424479 0.16874548417566884 0.012358958470779698 -0.04634717977254799 0.014895429986275799 -0.027633863304724383
 0.011535865419144756 -0.027779349958843
 0.2582875402478554 0.3282804498976337 0.012469823909347776 -0.046052829446807414 0.06279185207935142 0.6153692677178733 0.013664693443025705 -0.02637335874255155
 0.014704663873077633 -0.025807617028494274
 0.26002461297906543 0.3881889059326645 0.015249706578565295 -0.027996666656653214 0.013972261661335613 -0.02687599618268292 -0.2797007509702929 0.0917244437983959
 0.023084875535737837 -0.04846967452132288
 0.2703298786701853 0.37509823131925285 0.011798619362253474 -0.02831091396424238 0.014571394727047804 -0.025966409203342828 0.022451868275411974 -0.04771245246089622
 -0.1286260903557571 0.23534293918052585
2030000000.0 0.05739562803730851 -0.07294588555405049 0.2926399782380707 0.3386160344594841 0.28140798276097256 0.31492698410766207 0.28142138243925996 0.36524728332113415
 0.2924235683496247 0.35943362450101674
 0.29283457383754946 0.3385024020499636 -0.4884356259500474 0.13768395147229104 0.010046103060750189 -0.047462136753025706 0.011680800235116928 -0.02921896830803027
 0.008460294526614228 -0.028878425292772267
 0.27925743516284735 0.3144141002243828 0.010142142748517836 -0.047242908187457494 0.028296836350565457 0.5908958197387 0.010503777824335645 -0.02787352492445954
 0.011616583733488332 -0.027371302522582026
 0.28408764751911203 0.3722141270664003 0.012007590701047696 -0.029598897858855396 0.010736983498207724 -0.02839464378207412 -0.26960139692180696 0.07911282220444427
 0.02046405948370991 -0.049715333399845844
 0.29200604516665746 0.358635268727398 0.008647669854383687 -0.029411322803935123 0.01153900992522269 -0.02746497825628951 0.019870708881037927 -0.0490596791743366
 -0.13558842922485762 0.21446434963348232
2040000000.0 0.06229014885474962 -0.06704392429871492 0.31281286829797444 0.3238666214618234 0.30135889547528816 0.29955982869349757 0.30386155682316496 0.34769580540432743
 0.31284371776023917 0.3415233713508775
 0.3130409186788796 0.32367175838260936 -0.4697648526807067 0.10842426438433436 0.007496577651501733 -0.04842978169178213 0.008232379185481925 -0.03039316872335777
 0.005170539116731403 -0.029595048505410292
 0.29921035408229635 0.2991641496698436 0.007681398961803041 -0.04819037897941163 -0.004349436926330611 0.5642870513189466 0.00709282405729142 -0.02895735731600184
 0.008229379555974229 -0.028513971322767572
 0.3069518289807476 0.3544363781727465 0.008477854359119364 -0.030860186830801665 0.007262258879978924 -0.02953810201692633 -0.25875280818169794 0.0669121145628514
 0.017592843221734624 -0.05095966812894439
 0.3124913434169395 0.3408586323418762 0.005310585534285925 -0.030188451351611644 0.008232740714574756 -0.02866117684854297 0.017049159351417553 -0.050166910360423686
 -0.14173542269005163 0.1931651166878221
2050000000.0 0.06813357701435795 -0.0632543962303368 0.3321704345356212 0.3077716007008976 0.32030129442379485 0.2830741826373124 0.32506704730429103 0.3289145837963405
 0.3321292554449131 0.32261522661853564
 0.3324435332867046 0.30748406038246073 -0.4500547024838655 0.08119845146036848 0.004765924740995908 -0.04916228448800196 0.00457050747287096 -0.031124495142110777
 0.001774549142100478 -0.0298507676251268
 0.3181917237413545 0.2826975657021715 0.004905713437497557 -0.048944567922847404 -0.03545910420234118 0.5358818144515103 0.0035274415317878703 -0.029528541925795498
 0.0048910038308258965 -0.029235111842755904
 0.3287119958788199 0.3355054114127669 0.004780087018173433 -0.031594031678880814 0.0035993836332166864 -0.030160182061022344 -0.24809255101883224 0.0556645828333313
 0.014527949689455685 -0.05194742248232007
 0.3317378473838651 0.3217316657819021 0.0018145540473840825 -0.030483162906565987 0.004776265861981879 -0.0293202202522473 0.014035773135962415 -0.05115446028128992
 -0.14727044178361148 0.1720965998896494
2060000000.0 0.07437710437515496 -0.061427650038075335 0.3508236251143582 0.29016713222238566 0.33826133959917065 0.26540410717876217 0.34508833592842736 0.3087832468910089
 0.35009436433764873 0.30259082451678826
 0.3509333273671767 0.289844324043493 -0.42977497867395087 0.055973548326556634 0.002021527194243725 -0.04972227361497088 0.0008989283233361902 -0.03136572565150789
 -0.00160455744989515 -0.02970557660333196
 0.33599141424501733 0.2650630626410058 0.0022139659701958902 -0.04951827154843918 -0.06484549232538526 0.5059456564654902 -4.596648825809995e-05 -0.029657134610255223
 0.001423576738020433 -0.029492678353336754
 0.3490286213020754 0.31505228992711537 0.0010100351097455922 -0.031826015991303365 3.877915786778364e-06 -0.03030169835135553 -0.2371609948033625 0.0451398507584665
 0.011409032516766905 -0.052654505300830566
 0.3496526673330615 0.30171583497455917 -0.0015853998713424968 -0.0303620585803779 0.0013465589565339942 -0.02955552238859573 0.010972188110715809 -0.051851756536504805
 -0.15241777485474486 0.15078298866115059
2070000000.0 0.08056253972824491 -0.06163492678275885 0.3683138985806036 0.2711762738378269 0.35494327929740205 0.24660388812073802 0.36363550868520506 0.2873782648598063
 0.36682997215138713 0.28154499504112257
 0.3683815531498792 0.2708587586397124 -0.40802742188968616 0.033204113775182675 -0.0007548803607512501 -0.05003285177743035 -0.002760525545276887 -0.031062999449849072
 -0.004839664593964474 -0.029175738399713682
 0.3526781047297909 0.2463838322671383 -0.0005943424230882076 -0.04983163742814863 -0.09208851133598409 0.4746302773165579 -0.003483932606888441 -0.029336931511003216
 -0.0019249107734489266 -0.02931428446677632
 0.3678591479936538 0.293442023581138 -0.0026497254540404705 -0.03150847676124269 -0.00351441481866677 -0.029915972885925502 -0.22588640649650685 0.03581067442352945
 0.008335404843437264 -0.05316775720795576
 0.36632841513001557 0.2808205435630902 -0.004896523178602875 -0.02976481217218841 -0.001955775011776878 -0.029363136361906444 0.007932636483741805 -0.052344629113077704
 -0.15653869065415296 0.12983172761217074
2080000000.0 0.08630867006726071 -0.06374825043558555 0.3846074634205731 0.2509593647578792 0.37062221430699643 0.2268431212296779 0.38071498588194447 0.2648579979919695
 0.3821535510137142 0.25976302879773405
 0.3847596850737508 0.2507002713385995 -0.3853878670078609 0.012284368294097266 -0.0034895911582895484 -0.050248185331355666 -0.006223428743155843 -0.03048371546625411
 -0.00799767537395868 -0.028415356129861718
 0.36838449439296056 0.22680142364609276 -0.00329089316036158 -0.050062035551312195 -0.11704840625772092 0.44202091889638245 -0.006847815536051259 -0.028739006212597524
 -0.0050972749503344 -0.02886409810898135
 0.3853832054763838 0.27074928406197696 -0.006144549864606823 -0.03096521328918026 -0.006866478376526818 -0.02931549387416385 -0.21406973187694442 0.02726858781869897
 0.005300242202276338 -0.0536092116279382
 0.38163648048496945 0.259000343101019 -0.008038547502286948 -0.028985616781997656 -0.0051947568531433876 -0.028974038168522873 0.00493156531581183 -0.05281388907124194
 -0.15978571206060488 0.1086790335649766
2090000000.0 0.09144627054094083 -0.06751699815687903 0.3997729233674772 0.22963010535145623 0.38494341155933576 0.20614121424639767 0.3963646300609038 0.2414555366993065
 0.39614667931027875 0.2372660574957433
 0.39989485067688674 0.22929123801375717 -0.36220074296568766 -0.006769833960218657 -0.006323948478984358 -0.050400423297939714 -0.009716779114308726 -0.02959008433516972
 -0.011059987418601652 -0.027341089880611076
 0.3826965346767441 0.20623551540026858 -0.006144409545751698 -0.05021520562259657 -0.13988794750406233 0.4080437010015995 -0.010108877212666272 -0.02779581179004135
 -0.008313846801045653 -0.028084459578296216
 0.4013983566131933 0.24699998148197588 -0.009633565990849077 -0.030070539918215157 -0.010224639281173965 -0.02831037071003929 -0.20209871623767062 0.019604294428619256
 0.0021725926273463898 -0.05396081484494955
 0.39557761481799975 0.23650810291445098 -0.011196275198157366 -0.027863888524737604 -0.008427108376996215 -0.028198515830912995 0.001888340778827592 -0.05316466570346547
 -0.16246016706815916 0.08759854525708208
2100000000.0 0.09553198907074677 -0.07280783425845871 0.41362183804248165 0.20728409505539308 0.39791383916497686 0.18462379428647813 0.4101773192555275 0.2171287039374872
 0.40870542531763077 0.21423124038605457
 0.4137808277575891 0.20690712235467484 -0.33843742593332177 -0.02376015217014495 -0.009278939903602984 -0.05034013565206583 -0.012992027808908135 -0.0282942483630192
 -0.014010931913866107 -0.025874416612296725
 0.3957071232134417 0.1847768698435367 -0.009067716239243797 -0.050153813507640074 -0.1603917829351325 0.37295508951309486 -0.013257598626890302 -0.026420469763471018
 -0.011437955263260914 -0.02701937099386218
 0.4157359948739616 0.22236786461020253 -0.013106087613124396 -0.028805027776365403 -0.013453007134442455 -0.026977002365233926 -0.1901043347916081 0.012561919212363961
 -0.00110439464767626 -0.05415272844558632
 0.4081965832007871 0.2134775120834518 -0.014225619272472574 -0.026436450377565607 -0.011623485769156613 -0.027103063797387493 -0.0013209496525297556 -0.05325399544235915
 -0.16407701629346988 0.06631129879900544
2110000000.0 0.09834737053208524 -0.07953355356007062 0.42614977586301744 0.18383959088840734 0.4096531596722481 0.16240877581823945 0.4227055595726684 0.19221124700034797
 0.42007933280302867 0.19055307988796294
 0.42650233934071974 0.18358022167441881 -0.31445577778879386 -0.038619858468887686 -0.012353645622890182 -0.05010943027067815 -0.016307481616182454 -0.026618862716589493
 -0.016893341683519567 -0.024112167464328364
 0.4074223029149576 0.16259393298281835 -0.01213396763356461 -0.04987234674581568 -0.1783522989199605 0.33656098171357657 -0.016323319753137576 -0.02472034535771071
 -0.014438261369142351 -0.025589191602225298
 0.4284400769087012 0.19699166676204735 -0.016430830607869835 -0.027066251712758133 -0.016554234659656573 -0.025215032873267682 -0.1783597179934792 0.006329502616813286
 -0.0044249675596582175 -0.054184722698898
 0.4195391719967457 0.18992774738300638 -0.017138204271814245 -0.024597226206206284 -0.014573115471847748 -0.02563750239907573 -0.004616590371766417 -0.053257913515945145
 -0.1650071136910177 0.04479520766282666
2120000000.0 0.09936127308300738 -0.08716186867665661 0.4373360674267197 0.1595122772543306 0.4200463547668185 0.1394707165086968 0.4335315090887703 0.16667771095636377
 0.43025773289551483 0.16630355971605518
 0.43746619855224594 0.15929733883423766 -0.29027235554426717 -0.0514748804213267 -0.015332978060127633 -0.04961075457759105 -0.019341793109249966 -0.024507112727737597
 -0.019399942649482246 -0.02194979290932988
 0.41773313277790153 0.13978625372706224 -0.015119875679288665 -0.049379290886279806 -0.19436636224424386 0.29984180918656667 -0.01901227225755774 -0.022595855248916306
 -0.017306985253992282 -0.02377914667487581
 0.43958318346023856 0.17116255631378696 -0.019500378328313108 -0.02490771913056654 -0.019369060478222913 -0.023102981355189386 -0.16692799746082185 0.000586891898667307
 -0.007760984207220224 -0.053854222629040445
 0.4295950413945962 0.1657656227690195 -0.01977673493231124 -0.022443871036905653 -0.017406193305776245 -0.023789045235106998 -0.007866174160070195 -0.052982063362110705
 -0.16556527850802366 0.023298744334791538
2130000000.0 0.0984605534571301 -0.09529683778388989 0.44691360071105835 0.13448305930308296 0.42910228314955257 0.11594426555127983 0.44279007680440735 0.14065580461026925
 0.439015579497356 0.141645684959064
 0.44717111008922733 0.13422234937087066 -0.26609186184626954 -0.06242443198925665 -0.018342086895626438 -0.048947202604084104 -0.022068359321220428 -0.022015520735889967
 -0.021686144580119783 -0.019563737913790034
 0.4266212884576572 0.11631136298408276 -0.018087168173962633 -0.04870348910289569 -0.20771383131876264 0.26256370879907753 -0.021456659593733853 -0.020222549150969778
 -0.01981105027892166 -0.021637812008392203
 0.4492760500109207 0.14476925075902314 -0.022318937246420378 -0.02240361194036432 -0.02186956959253044 -0.02064018874055315 -0.15552109131404532 -0.004425331843857393
 -0.010990952839068013 -0.05345615831708316
 0.43841221102133415 0.14115175299071472 -0.022103406704513072 -0.019965166819486922 -0.020026887855316484 -0.021672869863316978 -0.011095563889250294 -0.05252371068377928
 -0.16517975371099622 0.001767148277292305
2140000000.0 0.09560462517435393 -0.1032903195228124 0.45505930402983835 0.10864731790326324 0.4365894420137443 0.09190332761480692 0.4506293729211964 0.11421987762617777
 0.4462609699978517 0.11650312364452554
 0.4553354414070537 0.10841294833227297 -0.2417017738599948 -0.07129297159436096 -0.021298883896188767 -0.04803987649661807 -0.02449630203736943 -0.019223267578007124
 -0.023667711181134973 -0.016951832930983998
 0.433971359601087 0.09241470987944916 -0.021033616644480523 -0.04781631201568015 -0.2183866674614548 0.22523734426626632 -0.023581826477419483 -0.01760684233696528
 -0.022085625204988833 -0.019303746251551134
 0.4571761789683222 0.1178292312645012 -0.024777751111658117 -0.01962376185534314 -0.02404407655016547 -0.017992055746652465 -0.14397745267794632 -0.008797933922081502
 -0.014331272544085272 -0.05284376414229388
 0.44560417261693397 0.11604991164339447 -0.02412985944283311 -0.017323206332892492 -0.022293644559910997 -0.01926840749934034 -0.014265554996838464 -0.05196141391636028
 -0.16399902342713488 -0.019401226112819317
2150000000.0 0.09103874223368445 -0.11093146435779039 0.4616129120937871 0.0823096999953946 0.4427356681168691 0.0673562834480992 0.4567748212636891 0.08729047194641228
 0.4521540143359798 0.0909561739232679
 0.46181451979111243 0.08193880013384378 -0.2176834971272394 -0.07835372026637041 -0.02431852741793963 -0.04701184985643463 -0.0266195563296544 -0.01620442898371583
 -0.025395409808677594 -0.014176475858613622
 0.44029973480572615 0.06803561036006721 -0.024001002433854376 -0.04685835216387547 -0.2268382115308254 0.18764498948587272 -0.025447594607611267 -0.014816778763528623
 -0.024214031017111143 -0.016758395637775165
 0.4636378236869147 0.09046355330715651 -0.026914126999038068 -0.016567012500337583 -0.02593684097722623 -0.015132313020275512 -0.13268082150929733 -0.012789229010915382
 -0.017685702983925668 -0.05212065998447907
 0.45157014961863395 0.0905484655967326 -0.02588261571300919 -0.014486363610823996 -0.0242747652467562 -0.01669982513626861 -0.017643861806714317 -0.05120091612032258
 -0.1622690361365809 -0.04073739179635379
2160000000.0 0.08476655482510384 -0.11788090556261738 0.4665213742514306 0.055404904542907835 0.4474605410986054 0.04258308568391377 0.461388499499033 0.06018649276135634
 0.4566787888299165 0.06520134944619667
 0.46677507399286794 0.05513262935788469 -0.1938673004836966 -0.08365722969757819 -0.027214939300381477 -0.04578170397374765 -0.028289009362091545 -0.01286995144405979
 -0.026778477333157816 -0.01116103444034665
 0.4449016665096834 0.043321733019469844 -0.026972827842258292 -0.045581321970067895 -0.23287824734922521 0.150439799647166 -0.026951315835960107 -0.011772296345864228
 -0.025927365479941455 -0.01390829660430479
 0.46837958128697016 0.0629259956206965 -0.02866733164084369 -0.013240608845995209 -0.02756563733102584 -0.01210151804085431 -0.12139797714534141 -0.01628247384576198
 -0.021022649295265275 -0.05112811614732902
 0.4560157263711106 0.06488124204418394 -0.027396179051431224 -0.01148395493471642 -0.02611661850411403 -0.013895773538532188 -0.02090260031169592 -0.05023889128903764
 -0.1596664486954296 -0.06151083910055685
2170000000.0 0.0769162039029811 -0.12391313524975264 0.4698621046603503 0.02824824162261467 0.45063512262623295 0.01744679756864026 0.4644291827232566 0.03284909263283139
 0.45978127949317965 0.03931969855877557
 0.47017996633264314 0.027923696786041088 -0.17048843146404946 -0.08709813923163638 -0.030124976536174245 -0.04427535534190942 -0.029664437192528037 -0.00939951964612192
 -0.0278683524579132 -0.008026158848030158
 0.4481914682394534 0.018271134803951296 -0.02984598332565353 -0.04410715732632909 -0.23673495885900223 0.11343830631647903 -0.028152230675657555 -0.008591917953690395
 -0.02738070039394081 -0.010904680155875965
 0.47165803870839207 0.03513097382470132 -0.030060744119663984 -0.009697991726861312 -0.028741049011143674 -0.008808131371918021 -0.11012627839711005 -0.01913416647128994
 -0.024292690591543063 -0.04992938897917836
 0.4591220671582645 0.03904419263774394 -0.028459590985393853 -0.008230083011880916 -0.027576958209785632 -0.0108775026288965 -0.024179387063963564 -0.04901881387304806
 -0.15623984655293105 -0.08196974776257099
2180000000.0 0.0676079603419151 -0.12855683618802663 0.4717066929381488 0.0006805193305552263 0.45236996691052017 -0.007945296881532693 0.46601058648509974 0.005315695505503712
 0.4615480172824034 0.013236608952784728
 0.47188889117707383 0.0003710596720382866 -0.14766587924353083 -0.08887006871600335 -0.03297381624543234 -0.04263242334846066 -0.030510065318969545 -0.005751791232307607
 -0.02857456503975884 -0.004685097258690543
 0.45001904849087465 -0.0069858776721841214 -0.03262206801279928 -0.0424405788509789 -0.23839026873065472 0.07697943914876222 -0.02895906416748934 -0.005199954788440398
