! Created with skrf 1.8.0 (http://scikit-rf.org).
# Hz S RI R 50.0 
!freq ReS11 ImS11 ReS12 ImS12 ReS13 ImS13
! ReS14 ImS14 ReS15 ImS15
! ReS21 ImS21 ReS22 ImS22 ReS23 ImS23
! ReS24 ImS24 ReS25 ImS25
! ReS31 ImS31 ReS32 ImS32 ReS33 ImS33
! ReS34 ImS34 ReS35 ImS35
! ReS41 ImS41 ReS42 ImS42 ReS43 ImS43
! ReS44 ImS44 ReS45 ImS45
! ReS51 ImS51 ReS52 ImS52 ReS53 ImS53
! ReS54 ImS54 ReS55 ImS55
!
2000000000.0 0.14363641909363614 -0.1813407256886263 0.24667963674057827 0.38500717294243986 0.22696602423649145 0.3744861497829798 0.23929526426908515 0.3997640569125549
 0.2140664748836175 0.40152333135604606
 0.24688791937096458 0.3847161568021899 0.23374804908439825 0.2808968615690889 0.017053814936543434 -0.050442983027403014 0.019902063229740623 -0.027781990352863144
 0.018059161331005873 -0.02433897438684432
 0.2247184930216852 0.3732891978085433 0.017118216881578233 -0.05011128765195887 -0.3575141017344621 0.09784918776620823 0.01981586238554945 -0.025938236233271968
 0.021708063762960028 -0.023095489002610544
 0.24118953602156828 0.4067947128442058 0.02031366567200916 -0.02807417529807791 0.02023383456458459 -0.026461945628864985 0.07545710748792135 0.06923358911728192
 0.025347244337081378 -0.04847813980000194
 0.2138596749871998 0.40061402001130153 0.018447249929592742 -0.024826416377718336 0.021702978457945332 -0.023296206123043995 0.024650884586804277 -0.04784636779213886
 -0.11180490509248539 0.27741946202078593
2010000000.0 0.1311212287760331 -0.18381271558651474 0.2693674403671038 0.3703938916562658 0.24961284847130338 0.3632794707140092 0.2630712978268476 0.38462808743227034
 0.23739693701518028 0.3896647431094758
 0.2694285199246708 0.37011269474597086 0.22396052870680147 0.28615116956220127 0.01430900986227627 -0.05125245580458271 0.016262822405106084 -0.02959849096371596
 0.014981648178256698 -0.026009879130928688
 0.24742500265820738 0.36237231925708646 0.01444706054922811 -0.050961667325546224 -0.3410609923601855 0.04142269173413019 0.01654487447285843 -0.027817718480180276
 0.018921443745684597 -0.025344867705043815
 0.2654603665101813 0.3916171117090653 0.016683095223651224 -0.029930900163094982 0.016926400699868737 -0.02841490681822751 0.08608443429593891 0.0677353499349782
 0.02266012666870394 -0.04961735282802197
 0.23700856174688847 0.38878550942921736 0.015331084937059479 -0.026572725299649408 0.018893368371196866 -0.025403920485995463 0.02211885051322001 -0.048898946958787326
 -0.12045523171588665 0.2569437771279704
2020000000.0 0.1185750434695354 -0.18556779378441304 0.2909519938726331 0.3543634498864803 0.27151121080136914 0.35028046138236296 0.28590942004348663 0.3680356257098977
 0.25992815061628666 0.37626856721939034
 0.2911156969870773 0.35406827522321926 0.21397350758215847 0.29078025954433406 0.011525069130966178 -0.05191131561004025 0.012561829787067678 -0.030978163353973902
 0.011806298253208353 -0.027369653002345968
 0.2693340082997535 0.3495112392626487 0.011726297588794362 -0.05168927136994485 -0.321526649234878 -0.012452320351253847 0.01314947114384317 -0.02934746436692917
 0.015953045820033304 -0.02716240309378697
 0.2887803871807346 0.3751549979600595 0.012890484411353412 -0.03134635572678051 0.01344674656468201 -0.02986615858916654 0.09660339330491231 0.06707752263878142
 0.020065465332385103 -0.050679162004133686
 0.25949622008037465 0.37534048834191125 0.012072526955764726 -0.02784885438216685 0.015877554371946576 -0.027226542689247176 0.019461435899485742 -0.04988973948810236
 -0.12807228673433152 0.23622324457081964
2030000000.0 0.10601817519424674 -0.1865711501512554 0.31159852099556035 0.33702128628357747 0.2925472099056452 0.33554118447333303 0.3077364717046352 0.3500863302433894
 0.2817435635318408 0.36151599768905457
 0.31176925575497105 0.33686728587308695 0.20387519751587424 0.2950884286289923 0.008726389118790777 -0.052497243777599865 0.008717195592875662 -0.031924586040358124
 0.008518697742173812 -0.028379765232570155
 0.2902192235263263 0.3349480673357 0.008755037821443466 -0.05222001175009783 -0.2989520178601207 -0.06389186307430698 0.009605462755693642 -0.030478971070680316
 0.012813448242798132 -0.028679351844314853
 0.31102140857022 0.35709289121631466 0.009061384267046663 -0.03239323432264316 0.00983694140401351 -0.031063186810472817 0.10719706247353311 0.0669588706781192
 0.017301352997503943 -0.05167770864396072
 0.281342461010069 0.36069786399211085 0.008727095129286577 -0.02892683090641515 0.01269581110333735 -0.028804471097348627 0.016783739777974486 -0.05085881586877933
 -0.13489874534442692 0.2151984841146617
2040000000.0 0.09341419615116933 -0.18669356615318367 0.3310822051299084 0.3186458273044567 0.31252246086713853 0.3192509474672736 0.32841396787850213 0.33097941713127116
 0.30267065468926785 0.3453703912854826
 0.3313394836460572 0.3185395822697121 0.19327084026809313 0.29884273450686005 0.005657391458152622 -0.05288215308453418 0.004806041007223049 -0.03241899716662705
 0.005066169987614231 -0.029048798505421455
 0.3102490798737506 0.3187160123241389 0.005784383247090797 -0.05262173821465931 -0.2735677513176696 -0.11272386510521812 0.005868186862210741 -0.031225738677828282
 0.009334787758722821 -0.029849792214028417
 0.3320537580822882 0.3376772200256015 0.005051313990469204 -0.03293081436327458 0.006009538746021464 -0.03182557267381997 0.11745195611883824 0.06755421913665743
 0.01434085765237515 -0.05256256440295477
 0.30235753299263735 0.34477489559119967 0.005193605105037614 -0.029612807285502897 0.009268200352116071 -0.029949792641834852 0.01390931331983981 -0.051797116624327795
 -0.14088450992260704 0.19382293813851215
2050000000.0 0.08110432409763066 -0.18618804048386567 0.3495928457271007 0.2993049525752721 0.33139675070341545 0.3014615450905295 0.34781090773376616 0.31055742038221906
 0.32289310122800047 0.3282500712817177
 0.34982212066605306 0.29906659420861637 0.18214651303590568 0.3024211653405509 0.0025032614280388133 -0.05305172800547508 0.0008370873049425653 -0.03241312859517819
 0.0015328166884301404 -0.029259212870434582
 0.3291206668441992 0.3009742336986385 0.0026488929315499096 -0.05272924037384923 -0.24622134852053393 -0.15851858243452444 0.002035095228263558 -0.031437762838794514
 0.005806820561913141 -0.030561653746096512
 0.35196265061102117 0.3169104953540004 0.0009550890350356907 -0.03292007479018896 0.002129755978969214 -0.03208138063466536 0.12718936843649764 0.06898499453357294
 0.01124271094392075 -0.05326662267394295
 0.3224129005378994 0.3273800425299633 0.0016198375310554132 -0.029856575778614763 0.005711930064772529 -0.030664797735215087 0.010809248374855081 -0.05241595879501937
 -0.14631177940541149 0.17255162259616047
2060000000.0 0.06891024778210024 -0.18487568489674241 0.3670947108000612 0.27901699530010415 0.34915184680545114 0.28216089132629807 0.3660329211828861 0.2889917140617509
 0.34207816353921033 0.3097691297595349
 0.3671999438586143 0.2787022475850756 0.17036462206250189 0.3055829682504155 -0.0005618866041624229 -0.05286115620798401 -0.0029890210921709047 -0.031935772674972406
 -0.001894283097791488 -0.0289881270745099
 0.3467354903713301 0.28183247780349624 -0.0003972132595456404 -0.052617061910455405 -0.21711493992967654 -0.2014603259953844 -0.0016909545680621374 -0.031106329911433136
 0.0022548197343792518 -0.030787643579353187
 0.37045893063782287 0.29512631796483124 -0.0028618768933469907 -0.03244639216302657 -0.0016891260368726482 -0.03172062823448504 0.13623312780981478 0.07123728787886574
 0.008075688866266691 -0.05374068800645522
 0.34148610879034025 0.30883964784292145 -0.001900073530418703 -0.02955727088155446 0.0021525335259102987 -0.030894063441648016 0.00770277036897299 -0.05285969930187913
 -0.15135275382803554 0.15107403017543528
2070000000.0 0.05682406825486892 -0.1828644457838842 0.3833973017098426 0.25760821822924135 0.36554210075285537 0.26157327158070703 0.38280868090012277 0.26617065446885485
 0.36006040984944077 0.28997113245205985
 0.3835143911316725 0.2573646847216841 0.15843197154120037 0.3087914757315905 -0.003611554662123796 -0.052431604203039314 -0.006611295042633503 -0.03096732458051946
 -0.005219096043394893 -0.028249195234292902
 0.36312610973484255 0.2613042879518824 -0.0033651690576689485 -0.05223713181498575 -0.18606065025731067 -0.2410318726363808 -0.005283928043311945 -0.030239832850791945
 -0.0012587934729138969 -0.030578079695678273
 0.38745975673617683 0.27205859427261475 -0.006607434357754236 -0.031454677443872495 -0.005349958248303738 -0.030882864204101707 0.14500503405912907 0.07453847504814255
 0.004943162933895718 -0.05395423788898396
 0.35951479887322707 0.28928310902679755 -0.00529078133430673 -0.02884864259274848 -0.0013767864132911418 -0.030674627070175337 0.004578474015347479 -0.053075228592519064
 -0.15554148126221076 0.12991136852281804
2080000000.0 0.04480424682628359 -0.18008037754799305 0.39865249109085293 0.2353328425084782 0.38032956505916193 0.23978839619452322 0.3980187367929055 0.24240172255292994
 0.3770045857282441 0.2691924763242184
 0.39877169769568516 0.23510260068601926 0.14651053483334148 0.31164930249954087 -0.006563740637125484 -0.05200870426899221 -0.010016582476461073 -0.029679357374175895
 -0.008345937080690782 -0.02737279166289613
 0.3779602216862342 0.23967401352730267 -0.0063706308561601805 -0.05176284783961558 -0.1531330107258122 -0.2773188731731214 -0.008633687021686223 -0.02919683973450216
 -0.004592923729775311 -0.030010987716584704
 0.4031260852915881 0.24809201266874278 -0.010019219226922988 -0.030195265512865988 -0.008761376730371532 -0.029792848545415643 0.15343954341198607 0.0786400488340424
 0.0019028354390300123 -0.05417118068762683
 0.3764697477146368 0.2685266012558743 -0.008469735783762925 -0.027923563401729322 -0.004722765708776472 -0.030112422755421087 0.0015219025860600973 -0.05326079490363126
 -0.15879097810284024 0.10869537900321033
2090000000.0 0.03288072226902941 -0.17647896045440145 0.4125818728398689 0.2120635939020706 0.3936665691040817 0.21692396009633075 0.4117599566141638 0.21786900510661403
 0.39271817932052383 0.24744909094913875
 0.41274313331930823 0.21177541071805314 0.1341122821998898 0.31383967026573495 -0.009533244585109207 -0.051457056326289816 -0.013249250642742077 -0.028116769296000904
 -0.01138454406684349 -0.0261170121835081
 0.3911973093844797 0.21689963360622094 -0.009356614400850201 -0.05117891369145996 -0.11880909928706322 -0.3105650031901138 -0.011859554165501352 -0.027741439883292467
 -0.007908999505801413 -0.029180066050495782
 0.41722138799648556 0.22311433499307476 -0.013286708312869861 -0.028666539955995045 -0.012027652234769818 -0.028308727738125716 0.1615635558842156 0.08335430070194724
 -0.0013101216768874719 -0.05429886840612005
 0.3921861037697486 0.2467779327701624 -0.011546787095659513 -0.026658930600662746 -0.00807132247209846 -0.02924718891185617 -0.0015695811087686972 -0.05332615946424367
 -0.16149010478997572 0.08733398612454223
2100000000.0 0.021013711035538864 -0.17179349687074738 0.4252786061027623 0.18804382415143975 0.40536568164935133 0.19327361372741791 0.42382876524854474 0.19262760367432175
 0.4071803451563411 0.2247776406575268
 0.4255769329272477 0.18771078472216202 0.12147950967755201 0.31570435146113585 -0.012578221102900768 -0.050626560125630035 -0.01628277056392768 -0.026297283138227642
 -0.014273183557444613 -0.024512253625394963
 0.40294134248473606 0.19329353147474945 -0.012348617171293097 -0.050404341036333566 -0.08345177288343715 -0.34044946809185894 -0.014886359385994207 -0.025891947777886754
 -0.011136873182252425 -0.027960872778679518
 0.42984114106739263 0.1975670392888002 -0.0164640310754358 -0.026769166602446177 -0.015177263365150441 -0.026429604331724598 0.1689652050710009 0.08841242914205373
 -0.004600254460987497 -0.05414477968618573
 0.40660806368505475 0.22407821962134636 -0.014551155933337967 -0.02502118260686508 -0.01132643687564222 -0.028024540884876298 -0.004808241902626393 -0.053237029515644296
 -0.16319354196310826 0.06590654041861696
2110000000.0 0.009437144290849932 -0.1658059252933351 0.43666668320191676 0.1630540860689556 0.41538842606092613 0.16877110320272068 0.43457331208099165 0.16683173837000045
 0.42049343648958376 0.20118241099458115
 0.43698062286682304 0.1628336705970803 0.10831973361228873 0.3169094804116871 -0.0156337041416863 -0.049690699173279514 -0.019161539669097383 -0.024122836378879527
 -0.017012021316700297 -0.022585756645238386
 0.41303175025073247 0.1689130833496592 -0.01537739181101894 -0.0493992143041607 -0.047101277299707346 -0.36703807462765764 -0.017708984935329772 -0.023706319304995376
 -0.014268610434036934 -0.026355649125735865
 0.44073677942913847 0.17130272728841986 -0.01931337071981567 -0.024516003952158492 -0.018038810831617107 -0.024201449254644288 0.175454123939563 0.09393858227243324
 -0.007963278370734591 -0.05380768655591708
 0.4199190906001713 0.20059393351615232 -0.0173397127537382 -0.02305856726963391 -0.014362832999432647 -0.026427266622966676 -0.008041290692434769 -0.0528616789411278
 -0.16422714205687 0.04425990509245023
2120000000.0 -0.0015632962600831846 -0.15843835759345787 0.4466637381809444 0.1373684281230588 0.42379861466542695 0.14367127843379118 0.4435951713432737 0.1403441390754145
 0.43243082001144434 0.1766035062662294
 0.4468175172825933 0.13712965404666136 0.09480988720621852 0.31799390563464414 -0.01855732262152986 -0.04837542647869758 -0.021738892602302416 -0.02157328590802525
 -0.019452020922334973 -0.02032805307949033
 0.42129426835499684 0.14398557882463386 -0.0182951644016994 -0.04811441875899412 -0.010458346283053008 -0.39024622339302356 -0.020156798979802996 -0.021181208100997977
 -0.01704213318571529 -0.024322656545148553
 0.45011017741001064 0.14451736994572423 -0.021918197174232986 -0.021988172957304923 -0.020483045252439592 -0.021670989408852245 0.1814193462702311 0.09979675298961913
 -0.011262319919601894 -0.05321925179665791
 0.4318363723281174 0.17613392823781568 -0.019775318866275385 -0.020789962170365606 -0.01722086159042773 -0.02440448298870466 -0.011332344163197778 -0.05229901469797891
 -0.16493599703437006 0.022679144963815578
2130000000.0 -0.011792906050732662 -0.14984867388364168 0.4550262934134888 0.11102132506343768 0.4304447276124802 0.11806752689024869 0.45110620076027075 0.1133584031322525
 0.44298970055814085 0.15127787288500605
 0.45519190222096323 0.11080538884329293 0.08082673079337875 0.31847802966897415 -0.02136684608691132 -0.04699865063247613 -0.023961777522132754 -0.018822623924563565
 -0.021609635260549813 -0.01784243771342459
 0.42798761951532266 0.11852922662475487 -0.021102172731396526 -0.04674903152682222 0.02661322831566711 -0.41011823835968836 -0.022260918313493538 -0.01844491179308833
 -0.019617832633078605 -0.022059896971429422
 0.45775722864786744 0.11702240307411783 -0.024270290148018056 -0.01920720549485865 -0.02261304493224051 -0.018869863567029046 0.18678718157359353 0.1059889082981353
 -0.01454005988989971 -0.05247411471784019
 0.4424148861747962 0.15082464421732333 -0.021953976024400246 -0.018245161217328013 -0.019774586496475087 -0.022063458960012407 -0.014519902186035561 -0.051548891267106385
 -0.16477280141217812 0.000997388507910378
2140000000.0 -0.02103833949378343 -0.14010247746293752 0.4618571630572918 0.0842767777054723 0.43542958281600336 0.09210640487414128 0.456821867149199 0.0859375757874466
 0.45188394895699413 0.1252296348726111
 0.4619724732803841 0.08408251908876696 0.0669194265363006 0.3186354239850575 -0.024021439659561553 -0.04544059417913114 -0.0258413927352278 -0.01589766959360892
 -0.023412452274958147 -0.015170634878200206
 0.4328139857530623 0.09265294146928892 -0.023764925041268748 -0.04522712239037326 0.06385415803310514 -0.4265985351715559 -0.02396652577045401 -0.015549427320101653
 -0.02186664817570541 -0.019559152798082683
 0.4637522624425004 0.08914307379684183 -0.02610811920776727 -0.016225958734393125 -0.024431030863157427 -0.015908009446143234 0.19207622614135095 0.11252692433808055
 -0.017835958040136955 -0.05158263973982574
 0.45122118163066954 0.12484141030502688 -0.023869213654772275 -0.015515823966971702 -0.022002214131115742 -0.019577140304813185 -0.01777561517700564 -0.05071030173474636
 -0.1637092287972571 -0.020250382774871248
2150000000.0 -0.02927946937798808 -0.12954291098294488 0.4670111648512794 0.05709726660960136 0.43851374345426053 0.06589721491707247 0.4610045865229728 0.05818747141232302
 0.4591408458875211 0.09852569228753859
 0.46734742553641206 0.056879655983790585 0.05264286805734376 0.31807861798500986 -0.026668478821359656 -0.04378498533706594 -0.027496282030228223 -0.012753888684003671
 -0.024926638916117527 -0.012309117243813672
 0.43610279191932033 0.06655870137231173 -0.02641581768111843 -0.04357248878951792 0.10091574671907977 -0.4401919491674085 -0.02533800175285303 -0.012488682979790862
 -0.023824002059406556 -0.0167815196794286
 0.4681411984563853 0.061041224192375676 -0.02783726717139805 -0.01307908118076454 -0.0258904322788799 -0.012822351371140397 0.1967064036454132 0.11923476153366859
 -0.021080046575035014 -0.05050025354579452
 0.4585453644326389 0.09811800948871026 -0.025474626468600377 -0.012632706022678488 -0.02396192511202334 -0.016817537108846575 -0.02094768879209142 -0.049584644458460364
 -0.16215496408038163 -0.04157107559292682
2160000000.0 -0.03644722764278702 -0.1178519441591332 0.47080642851635507 0.02962896093314959 0.4398245045996924 0.03968244124678577 0.46331719865836274 0.030361583317939787
 0.46476272278936437 0.07139840748483221
 0.47105058946992845 0.0293440574205631 0.038247995561972684 0.31707652337780884 -0.029273106019249467 -0.04189265030792394 -0.02877605849924943 -0.009471679748339942
 -0.026196381111629977 -0.009329039733413168
 0.4374503332587243 0.04039783154781975 -0.028957509584200188 -0.04171244795929006 0.1375608317397717 -0.45082071651607325 -0.026415038363201727 -0.00934653103954174
 -0.025494487038850124 -0.013850228337922446
 0.47058508016333633 0.032669720898957706 -0.029209002541954517 -0.009722778953755987 -0.026921286593972485 -0.009571304530599987 0.20094068873336238 0.12617835014994633
 -0.024242435365931313 -0.04915706734557339
 0.4641882726494523 0.0710598036568667 -0.026706931131208603 -0.009551737520803464 -0.025590830027782153 -0.013865274417413958 -0.024129940118422715 -0.04826472808432247
 -0.15968848337476232 -0.06236845544112908
2170000000.0 -0.042469009031888036 -0.10528194990704705 0.47311877757137116 0.001865587180787584 0.43956615955264133 0.013518339852951628 0.46408422449066944 0.0023322429685009695
 0.468762223814656 0.0439147413960722
 0.4732319828503712 0.001473831506665859 0.023590355687331126 0.3157346154683222 -0.03166214080984067 -0.03990397828494016 -0.029661487598927637 -0.005982909819970003
 -0.027063276129826386 -0.006214411543483369
 0.43703572155281256 0.014385908798029066 -0.03134516855650908 -0.039722512312246584 0.17389829098071471 -0.4586353887682021 -0.027059911195058968 -0.006116396285764248
 -0.02670515619021841 -0.010772981348228086
 0.47135131607811553 0.004271662694501778 -0.030091394842906124 -0.006201277833553042 -0.027680270863993137 -0.006277128642779145 0.20487989647382965 0.1336395935985701
 -0.027416375227266893 -0.04758132587339671
 0.46822141427978897 0.04358648993889759 -0.027696298228897517 -0.006365934869829627 -0.026965861307256946 -0.010751487827101924 -0.027207012499326735 -0.046769502690817075
 -0.15637650402762848 -0.08278956723045244
2180000000.0 -0.047034474480011045 -0.09184295809112741 0.47366780536314523 -0.02623521722406096 0.43759851530951277 -0.012461777912463293 0.4630945269702238 -0.02569911097867498
 0.47113386177625927 0.01610217865013241
 0.4738356683265372 -0.02648041718008764 0.008807826908152584 0.3137709399242977 -0.03389754385805852 -0.03780791799781713 -0.03013001579607583 -0.002347791862279318
 -0.027635338991066866 -0.002921045751122805
 0.43526384891092795 -0.011519275431617647 -0.03356121524717631 -0.03766389089670326 0.2096709136595909 -0.46374917628464446 -0.02738320416856003 -0.0027588054865597877
