! Created with skrf 1.8.0 (http://scikit-rf.org).
# Hz S RI R 50.0 
!freq ReS11 ImS11 ReS12 ImS12 ReS13 ImS13
! ReS14 ImS14 ReS15 ImS15
! ReS21 ImS21 ReS22 ImS22 ReS23 ImS23
! ReS24 ImS24 ReS25 ImS25
! ReS31 ImS31 ReS32 ImS32 ReS33 ImS33
! ReS34 ImS34 ReS35 ImS35
! ReS41 ImS41 ReS42 ImS42 ReS43 ImS43
! ReS44 ImS44 ReS45 ImS45
! ReS51 ImS51 ReS52 ImS52 ReS53 ImS53
! ReS54 ImS54 ReS55 ImS55
!
2000000000.0 0.20866020039841332 -0.229365644103299 0.08524376722353741 -0.3237539971742915 0.08430631343514969 -0.31933580955278695 0.08371727468429693 -0.3172857558902287
 0.09452847902026594 -0.31980214002217056
 0.08485810914963708 -0.3237488357634681 -0.023688010806866448 0.088766608609786 0.027707488611916093 0.010757356330777214 0.013989882807516717 0.01112891439315846
 0.0134432094029119 0.010872412903450581
 0.08466873219070371 -0.31704269242858574 0.027480229462391082 0.010804454196687558 -0.00044290242778898095 0.09603053115710741 0.0134432094029119 0.010872412903450581
 0.01289034990690996 0.012012965978208832
 0.08611237833797447 -0.3212327320666115 0.01410329012844602 0.011347764041477615 0.013720765761444664 0.011119382935488397 -0.015727320230552497 0.09285272108832772
 0.02576601796212772 0.012643432528529267
 0.09402343230491825 -0.31884788873367437 0.013720765761444664 0.011119382935488397 0.012992306066320992 0.011995922500879263 0.025416374670290714 0.012367347084412053
 -0.03188103107488702 0.09039837782898605
2010000000.0 0.18672844376970718 -0.2387502038260113 0.05589646454037631 -0.33143467503258056 0.05535796757708113 -0.32691584671051005 0.054967546221410285 -0.3246540708742905
 0.06561595272345876 -0.3282376017084938
 0.05559308926357587 -0.33123328093789295 -0.015132798587734714 0.08860421573043932 0.028696316001096973 0.007392987997325435 0.015626941054643545 0.008311248962220363
 0.014996470954147648 0.008219248361806708
 0.05595739691962471 -0.32480259205126616 0.028505225854233516 0.007440290159956399 0.007711554004452363 0.09575695773694512 0.014996470954147648 0.008219248361806708
 0.014716432088753104 0.00941660388186578
 0.05708643847145955 -0.32883373825983014 0.015801437515841742 0.008502739388815897 0.015320422429830826 0.008391645184331649 -0.007501680589479136 0.09339864019953761
 0.027026184324471937 0.009598567975897584
 0.06527024185707368 -0.3271184192940241 0.015320422429830826 0.008391645184331649 0.014820275574439351 0.00942754657090723 0.026622257214961014 0.009328588197707903
 -0.023498457401693998 0.09119184997608341
2020000000.0 0.16416914098753832 -0.24539029421024766 0.025826726613716176 -0.33633547674295095 0.02568231619469638 -0.33181665705534885 0.02550629501237821 -0.329407874532446
 0.035934757244421696 -0.333876376920813
 0.025579946809382952 -0.3361560457832893 -0.006610572319809728 0.08763880773951466 0.029349901344421704 0.003981878377405646 0.016751104188892123 0.005356991748055906
 0.016149993807956616 0.005380392201595142
 0.02648220299477633 -0.32979336689250255 0.029151542346883667 0.004044046537677189 0.01577061491031844 0.09465676079690756 0.016149993807956616 0.005380392201595142
 0.016059711542184885 0.0065942426169397
 0.027327504281404253 -0.33392981900014745 0.016957154759894344 0.005502341642798493 0.016435031923232413 0.005506567602211027 0.0006623338497391421 0.09327457977114957
 0.027988712513817654 0.006416786146765972
 0.03571541986685924 -0.33280934265222795 0.016435031923232413 0.005506567602211027 0.01612142784943167 0.006560767099656588 0.02754314942120438 0.006217799734075489
 -0.01500260443729183 0.09125270362209788
2030000000.0 0.14157227039419384 -0.2493254789412909 -0.004670115920787386 -0.33845554256319366 -0.004458513214907986 -0.333950600079737 -0.004408234224922134 -0.33150054353232866
 0.005741001176533959 -0.3368312889950952
 -0.004916804183917216 -0.3383890532235365 0.0018016717546333694 0.08592095431997152 0.029608670639349844 0.00040905106061241294 0.017349258781203993 0.002230490796841803
 0.016746973316822542 0.002371447073263829
 -0.0034636942517592166 -0.33199695904486454 0.02946285846348355 0.0005369863705935538 0.02370897739515625 0.09274435585969001 0.016746973316822542 0.002371447073263829
 0.01687421600547344 0.0036120519280006267
 -0.002987041434724197 -0.33624711305857313 0.017569027417703217 0.0023761937638008828 0.0171146916072687 0.0024703628412873846 0.008785698506613567 0.09224934013985943
 0.028622249894797856 0.003120626759584381
 0.0056371173041813195 -0.3358863510080157 0.0171146916072687 0.0024703628412873846 0.016922693603814702 0.0035625726970545724 0.028157855783971324 0.0029760663329115476
 -0.006497829387677405 0.0905376734712767
2040000000.0 0.11918041652754052 -0.2509521364373882 -0.03540180380013547 -0.3378330216670428 -0.03475664102254842 -0.3332758494875099 -0.034513500821477874 -0.3309170411640213
 -0.024724172752673752 -0.33715949110907434
 -0.03570014557403319 -0.33781767398810947 0.010037980962546565 0.0833731648769498 0.02949385304248354 -0.0032143995964219883 0.01738264439945874 -0.0009498762321137428
 0.016843454598251973 -0.0007363179376299789
 -0.03366559273298848 -0.33144061845393885 0.02932437556280862 -0.0030691482683222544 0.03145099902664259 0.09007570453045317 0.016843454598251973 -0.0007363179376299789
 0.017152877318092136 0.0004919847206626599
 -0.033516890725835476 -0.3357793963227644 0.017635655213982186 -0.0008692450496129864 0.017176178607671764 -0.0007097426627994146 0.016766085255465503 0.09035084454155491
 0.02889384005581558 -0.00032655840715437663
 -0.024809999203124048 -0.3362543199756188 0.017176178607671764 -0.0007097426627994146 0.017198819637497982 0.000431052136899354 0.028409042898562598 -0.00044153765697595946
 0.001858510348333711 0.08900361332785817
2050000000.0 0.09729195580366345 -0.2503211258071524 -0.0661891279362599 -0.33453048588514733 -0.06508119997258198 -0.3299775772823421 -0.06459168476782454 -0.3276251303164412
 -0.055279143451873076 -0.3347886588545783
 -0.06651012004110848 -0.33437718818639506 0.01792828909207601 0.08007798218207934 0.028858017776069955 -0.0068529877909286425 0.016820935662718965 -0.004072646559901767
 0.01630958115541788 -0.003797846995189165
 -0.06385419830841055 -0.3281622405979049 0.02869787953031236 -0.0067375025433497404 0.03890746744827801 0.08662660607920769 0.01630958115541788 -0.003797846995189165
 0.01681647010212167 -0.0026642909812623805
 -0.0640819234837507 -0.3324851847395181 0.017086232783697423 -0.004056370051655226 0.01665447179689886 -0.003875482780755161 0.02448356510183032 0.08762712300242717
 0.028675433349809636 -0.003823077658435044
 -0.055304437144714766 -0.33376933598917524 0.01665447179689886 -0.003875482780755161 0.01690794796181306 -0.002680770154796723 0.028191615084065518 -0.003891341443421829
 0.010008797038747668 0.08666280379992587
2060000000.0 0.07603131117728355 -0.2475294582255081 -0.09678037919342254 -0.32834821166196926 -0.09513672059845091 -0.3238446237639713 -0.0943377896829724 -0.32141940280640546
 -0.08563209008794039 -0.3295758791339723
 -0.09706800223816678 -0.3280307565605666 0.02549319750886919 0.07616376762345564 0.02772393349407129 -0.010376151566359463 0.01568883495557806 -0.007018361850466662
 0.015214519824632539 -0.006673539488171733
 -0.09374332453400232 -0.32211887087328717 0.027620314712782375 -0.010215068779255638 0.046012927509285734 0.08258059181062503 0.015214519824632539 -0.006673539488171733
 0.015964437786880566 -0.005597089869932245
 -0.0943135095090513 -0.3263764413343232 0.0159306520525636 -0.00705457971706399 0.015527623829220679 -0.0067575785886175395 0.03194148762569251 0.08418523875618313
 0.028007741130713824 -0.0072782207935169225
 -0.08558700060824402 -0.32848095252594056 0.015527623829220679 -0.0067575785886175395 0.015997650937967005 -0.005660660577860599 0.02753046540830061 -0.007280057755595087
 0.01782704088590926 0.0836636930137623
2070000000.0 0.05567658101739529 -0.24260113210574916 -0.12675741265021576 -0.3191468407297035 -0.12460780662642107 -0.31478454865235267 -0.12361444649283725 -0.31251942841745467
 -0.1155870140479097 -0.3214340339614713
 -0.12700143245051657 -0.3188270412993545 0.03262118183658332 0.07163380378436333 0.026146529863086354 -0.01367306241678717 0.01401087801483523 -0.009638303948957741
 0.013637690545141804 -0.00923115134717408
 -0.12306856958210687 -0.3131662953870431 0.026066671543348317 -0.013491976564760859 0.05275551909145217 0.0779779215909505 0.013637690545141804 -0.00923115134717408
 0.014583775740604706 -0.008298463826644547
 -0.12396035948062031 -0.3173986583855017 0.014270991531267242 -0.009698440770422806 0.013920852747317447 -0.009369925112433092 0.03914142363835352 0.08017538594283966
 0.026922532622670792 -0.010586429121697261
 -0.11542915937684207 -0.32040958756143684 0.013920852747317447 -0.009369925112433092 0.014625625219155886 -0.00836985321326613 0.02645189804565299 -0.010568348211227605
 0.02530295765249535 0.07994039869837131
2080000000.0 0.03644389279356863 -0.2358724641866378 -0.15581838274258591 -0.30710213065594544 -0.15320407312252637 -0.30302516676378527 -0.15200210993379382 -0.3008900651517981
 -0.14474019079592002 -0.3105920526525186
 -0.15609922879374866 -0.30682095174072666 0.039341085855304984 0.06644689299755449 0.024237115286832544 -0.016774081791766354 0.012026213782506432 -0.011908162542919012
 0.011698779901618437 -0.011423794658330065
 -0.15153615129826098 -0.30154582727016854 0.02417156706570823 -0.016596905306347474 0.05919924927264896 0.07276555077297898 0.011698779901618437 -0.011423794658330065
 0.012812656234908359 -0.010693747409184298
 -0.15277571304070536 -0.3057711493798817 0.012261339948852874 -0.012006592141178678 0.011977385135139901 -0.011657840899954473 0.04607956188023913 0.0754560903034926
 0.025553371547140134 -0.01374879937934959
 -0.1444947517809048 -0.30953438056575927 0.011977385135139901 -0.011657840899954473 0.012836288876648456 -0.010770264042373981 0.025049184339696908 -0.013679365331420345
 0.03245504784610683 0.07558845243967781
2090000000.0 0.018422787906016643 -0.22745332687787634 -0.18363372108145182 -0.29239770374451013 -0.1807001919034715 -0.2886581863708663 -0.17922675438633176 -0.28668802268077787
 -0.1727843054352237 -0.29695124017038177
 -0.1839116653185036 -0.2921204840564818 0.04557335164441231 0.0606969332290693 0.02201308636999267 -0.019655168574027767 0.009706037196669192 -0.013771644877392651
 0.009459914891239415 -0.013321178124271211
 -0.17895965107451062 -0.2873187452566089 0.021948312953812655 -0.019437085508400866 0.06522426276166533 0.0669770385190497 0.009459914891239415 -0.013321178124271211
 0.010676227323049289 -0.012722106007676915
 -0.18057481179085003 -0.2915430101270992 0.009936039713479094 -0.013935726495742803 0.009652660274554902 -0.01356777820298554 0.05269377618190524 0.07017401324758009
 0.023760569991615466 -0.01681771647688187
 -0.1725447691407471 -0.29601150878857885 0.009652660274554902 -0.01356777820298554 0.010699543728383039 -0.012836272991578135 0.02331237195084514 -0.016687172886392068
 0.03914263542348037 0.07049080363649654
2100000000.0 0.0016042651396465835 -0.21729333930040992 -0.21005415553497295 -0.2752152787589678 -0.20686340105793244 -0.2717202366352322 -0.2052018589252113 -0.2699327505327254
 -0.19959019094085526 -0.2808544192986877
 -0.21033488965158068 -0.27485181572223405 0.05116991559009346 0.05437892594664482 0.019393462430747313 -0.02222569812066382 0.0070744582680912485 -0.015244531654063743
 0.006853594628533811 -0.014774312904434888
 -0.2049511473187709 -0.27050311231661656 0.019334920136089964 -0.02204011319908898 0.07067114545491335 0.060766493785575096 0.006853594628533811 -0.014774312904434888
 0.008200257426147288 -0.014407013031246054
 -0.2070047771825422 -0.27468616385341604 0.007240225622415893 -0.015426160261985256 0.007018996978483369 -0.015084405830595712 0.05893348233736732 0.06438037695175733
 0.02162515723937407 -0.0197426182681811
 -0.19925383419496423 -0.2799423580113324 0.007018996978483369 -0.015084405830595712 0.008170042173546978 -0.014505658984974554 0.02114292171667049 -0.01951436309261943
 0.04525736143885509 0.06483969685760502
2110000000.0 -0.013564434939969642 -0.20543133180211948 -0.23489808654570338 -0.2555578698461382 -0.2314322039456514 -0.2524104379192275 -0.22955411476056112 -0.2508265385080317
 -0.22492426845597885 -0.2623180925143004
 -0.23514295148947578 -0.2552952283012367 0.05615574810833832 0.04771778194796031 0.01645984748798333 -0.024505629562927417 0.004231657800765943 -0.016235499756532
 0.0040335857189928185 -0.015723649302442296
 -0.22945121412317812 -0.251327475421742 0.016452910510275327 -0.024328824424372595 0.07560359434936738 0.054138230587504804 0.0040335857189928185 -0.015723649302442296
 0.005467666767534863 -0.015617796339983553
 -0.23187242976405031 -0.25534648695253226 0.0043358119103957425 -0.016443522203164113 0.004106666397934271 -0.016085163676640524 0.06465499236284847 0.058132603279945474
 0.019066552268396972 -0.02232375754367305
 -0.22447583166674034 -0.26148592009707955 0.004106666397934271 -0.016085163676640524 0.005452456421404479 -0.015667205304795494 0.01870553793591621 -0.022065937617200992
 0.05080203386044918 0.058667023492991514
2120000000.0 -0.02680715411405266 -0.1920737970907907 -0.2579618080753136 -0.23366267756769857 -0.2541870233518754 -0.23076103853739377 -0.25219572835882165 -0.2293966297592181
 -0.24849721952322873 -0.24137627136374903
 -0.25815736851392096 -0.2334468853664951 0.060497341215932525 0.04068851827481588 0.013271230297457344 -0.026383984708242384 0.00124411525272203 -0.016694427388450905
 0.0010512809001067178 -0.016145914756937614
 -0.2520705540295129 -0.22990474186806706 0.013238757850595589 -0.026174714402848697 0.07993944441440391 0.047262247304165846 0.0010512809001067178 -0.016145914756937614
 0.0025747584940277526 -0.016294635395994093
 -0.25487401495422524 -0.23374163652432414 0.0013162499442648326 -0.016931048693366927 0.0011280901007083806 -0.016515817701150196 0.06985634944787751 0.051630934074042296
 0.0162240022907395 -0.024587393053031693
 -0.24799188741065345 -0.24066260105608422 0.0011280901007083806 -0.016515817701150196 0.002554662687441044 -0.01638016716319887 0.015867501633918948 -0.024276983114091454
 0.05567083633424107 0.052030002919027075
2130000000.0 -0.037877040153501025 -0.17782978001886426 -0.278954886381982 -0.2095847625821541 -0.27481204783992663 -0.20699731053600387 -0.27272925864020275 -0.20591190154460276
 -0.27022319552570423 -0.2184004414316359
 -0.2791696518795267 -0.20943603645817935 0.06424267669997606 0.03338908828575837 0.009860334215805592 -0.027850982731556253 -0.0017731876509060607 -0.016622806646061503
 -0.0018895208540347162 -0.01602877028705099
 -0.2726397304700176 -0.20629860539750366 0.009901931106466104 -0.027641606684046343 0.08363957486529307 0.04015510244993663 -0.0018895208540347162 -0.01602877028705099
 -0.0003826891770180968 -0.016436120344849713
 -0.27582428509186163 -0.20997500435370683 -0.0017280674377897157 -0.016855012444973137 -0.0019187177602885642 -0.016348247033033926 0.07449378406571838 0.04487926107925521
 0.013076031741239265 -0.026500222174749215
 -0.26956349981921973 -0.2177327333628185 -0.0019187177602885642 -0.016348247033033926 -0.00042406660368631726 -0.016529553582718924 0.012805627509444735 -0.026146756833151038
 0.059994015742440246 0.04505590975645534
2140000000.0 -0.04700375533343927 -0.16309691387615474 -0.2976403890064028 -0.18359731751389208 -0.2931985394080657 -0.18139430299930864 -0.29092774755407885 -0.18052726719322432
 -0.2895609271630666 -0.19329463025948418
 -0.2978390489212993 -0.18342246735927709 0.06735078800715102 0.02583372664741895 0.006344655590055044 -0.0288834411167154 -0.004680439652773163 -0.016010232637890864
 -0.004725990953879262 -0.015372326079943757
 -0.2908630475028271 -0.1808816700849513 0.006397255730411462 -0.02867008527901014 0.08675837053958915 0.03291631407314481 -0.004725990953879262 -0.015372326079943757
 -0.003285337444257541 -0.016087448732253047
 -0.29451564812385717 -0.18430894753439672 -0.004699733635337128 -0.016264420903148218 -0.004837729523463696 -0.015715857041145833 0.07858961465087755 0.03788636457983517
 0.0097734038399545 -0.028045231980557576
 -0.288979983221203 -0.1927318124262928 -0.004837729523463696 -0.015715857041145833 -0.0033566879725798453 -0.01614608333503755 0.009500488847829844 -0.027659292002265096
 0.06367546098151781 0.03770368107815626
2150000000.0 -0.05439848872364783 -0.1481491874776901 -0.31385280156024403 -0.1558693066746689 -0.3090531827430501 -0.15416057192552066 -0.30684648501532164 -0.1535761641099602
 -0.3065883621227952 -0.16646867931843504
 -0.31403698301254335 -0.15565539970078665 0.06980563958818442 0.018100110441079034 0.00269232442958464 -0.02948784041541765 -0.007471680131984335 -0.014916679122087544
 -0.007423402033637502 -0.014260404931340762
 -0.3067920197811719 -0.1538859869426297 0.0027974124626332967 -0.029292702874704875 0.08926370596889095 0.0254566802840442 -0.007423402033637502 -0.014260404931340762
 -0.006104499886419747 -0.01525610635522709
 -0.3108079210184411 -0.15704892785409605 -0.007510745929605867 -0.015171605660657532 -0.007555161358814824 -0.014558569488782385 0.08199462912201283 0.030617505613294793
 0.006239808271775093 -0.029205766180977435
 -0.30599930080577753 -0.1659771712180812 -0.007555161358814824 -0.014558569488782385 -0.006177181365685467 -0.015304023606509544 0.00601492867008367 -0.028806663109068462
 0.06673406032944798 0.030082530649909383
2160000000.0 -0.060116010633434164 -0.13273758957604362 -0.32738693484157216 -0.12678325475157856 -0.32239093779973416 -0.1255672938455229 -0.3202391472376422 -0.1252343306711443
 -0.3211608352580069 -0.13820268399822044
 -0.32749506535113887 -0.1265399415659038 0.0715827386860475 0.010262162205940955 -0.0010404272062209524 -0.029667198975240453 -0.010055693813336219 -0.013356827169136887
 -0.00989353716631986 -0.012666234712390008
 -0.3200831369309433 -0.12545512786095575 -0.0009298138759969622 -0.029469120816936433 0.09106530103018683 0.017961546763814666 -0.00989353716631986 -0.012666234712390008
 -0.008740498652709077 -0.013955869371227173
 -0.32448184060518614 -0.12830521263906572 -0.010146128677449994 -0.013568000557667258 -0.010091176073377393 -0.012997507727523668 0.08476581085499556 0.023352009048776327
 0.002557526873817707 -0.029923498778976355
 -0.32046090288338047 -0.13778662507844144 -0.010091176073377393 -0.012997507727523668 -0.008805721109454009 -0.013988786270848833 0.0023783680592622844 -0.02946268029279204
 0.06916207965632303 0.022352643433814164
2170000000.0 -0.0641662007227999 -0.11725369960073981 -0.33809816748532534 -0.09649043265148265 -0.33305641938371483 -0.09579781809458536 -0.33094767466319935 -0.09567558537836403
 -0.3330774445552531 -0.10864544926020998
 -0.3382920216433889 -0.09632844142257486 0.07267802158138409 0.0023986729676047118 -0.00474116573048719 -0.029359966387954125 -0.0123078118687058 -0.011307983206772381
 -0.012030123580408962 -0.010665923898300988
 -0.3307629500289537 -0.0959003589530575 -0.004618116442137288 -0.029160930399472297 0.09224937986666357 0.010422456690536234 -0.012030123580408962 -0.010665923898300988
 -0.011094285464057715 -0.012150755371726525
 -0.3355488314217992 -0.09838738769455363 -0.012422527450811831 -0.01154286430338656 -0.012304790623709627 -0.010942240736617289 0.0867668123186164 0.015977135820228257
 -0.0011923803556974475 -0.030190189219163426
 -0.332348849039879 -0.10834425890402123 -0.012304790623709627 -0.010942240736617289 -0.011180560295230438 -0.012188681481688758 -0.0013420610515616571 -0.02971541301464953
 0.07084765129250008 0.014517650579893286
2180000000.0 -0.06641802797981076 -0.10164859918301926 -0.3459244455066417 -0.065318018923926 -0.34088874386306445 -0.06512444908583626 -0.33891908456797754 -0.06522074703407145
 -0.34212490789178474 -0.07802657270428856
