! Created with skrf 1.8.0 (http://scikit-rf.org).
# Hz S RI R 50.0 
!freq ReS11 ImS11 ReS12 ImS12 ReS13 ImS13
! ReS14 ImS14 ReS15 ImS15
! ReS21 ImS21 ReS22 ImS22 ReS23 ImS23
! ReS24 ImS24 ReS25 ImS25
! ReS31 ImS31 ReS32 ImS32 ReS33 ImS33
! ReS34 ImS34 ReS35 ImS35
! ReS41 ImS41 ReS42 ImS42 ReS43 ImS43
! ReS44 ImS44 ReS45 ImS45
! ReS51 ImS51 ReS52 ImS52 ReS53 ImS53
! ReS54 ImS54 ReS55 ImS55
!
2000000000.0 0.21096350647254672 -0.22134959972009824 0.08416849719909204 -0.3237420931006772 -0.032947863695712426 -0.3328892586610186 -0.1814584350022708 -0.2704343598754041
 -0.2660562776054338 -0.20725067172399447
 0.0837599626629452 -0.32360198366340515 -0.02365501560726389 0.08868341178422158 0.030121447349432163 0.00033504010965592637 0.017455663076878947 -0.0031413164723300933
 0.014858308674762963 -0.008788837060629853
 -0.03180474439281185 -0.33088169474952595 0.029895032926409663 0.00044153927514898884 0.059771814195507846 0.030276152996998925 0.014858308674762963 -0.008788837060629853
 0.012705878302742144 -0.012880755551931763
 -0.18276259710410267 -0.2747235002002718 0.01769141504947149 -0.0031129733063775407 0.015165278193513449 -0.008913642210510091 0.1938351384659101 -0.013226647839281498
 -0.00011730416743118849 -0.028645450627661617
 -0.26530412149258503 -0.2063957092962784 0.015165278193513449 -0.008913642210510091 0.012687472118843352 -0.012954659361775098 -0.0002269624055357051 -0.02819464166221942
 0.11298514113295068 -0.07451376211442415
2010000000.0 0.19072181923824796 -0.23200325898338656 0.05490974283100415 -0.33126752488091393 -0.06326685874992062 -0.32969031211588995 -0.20509085241769393 -0.25388305812308537
 -0.2841525677437046 -0.18343943402526114
 0.0545776454332474 -0.33094700798206916 -0.015110024759909663 0.08845007201015266 0.02982952834090983 -0.0032117082536657557 0.016432063846812443 -0.0061511173198784555
 0.012880366955637476 -0.011184735072559038
 -0.06191544457412508 -0.3279062838245633 0.029703789824595695 -0.0030822616230794042 0.06444321112144193 0.02524468435367042 0.012880366955637476 -0.011184735072559038
 0.01010312923196539 -0.01483015170267113
 -0.20676173645400045 -0.2581877563513473 0.016706576900213904 -0.0061494018454972986 0.013159123123112475 -0.011362901052889196 0.19347206444227985 -0.025761574233723328
 -0.0033061384234367567 -0.028360403543355686
 -0.2833127946451071 -0.18269708190756948 0.013159123123112475 -0.011362901052889196 0.010101566361072548 -0.014887894863282625 -0.0034040495138896324 -0.027906248446262705
 0.1086250792257449 -0.08399720106538065
2020000000.0 0.16949007049168432 -0.24020358063347616 0.024964324328759342 -0.3359640421259675 -0.09320374378046697 -0.32357060789018494 -0.22724435998660225 -0.23528530256349417
 -0.30003383452597593 -0.1579788830808345
 0.024691516603254627 -0.3357218625041366 -0.006593051006632248 0.08753737734558384 0.02920482738539407 -0.006697658034291559 0.014967317137724822 -0.008892906679154431
 0.010615479184813042 -0.01315972850058947
 -0.09171803294201707 -0.32198100243354516 0.029086572305118793 -0.006555038187528412 0.06858076145176922 0.019735249728594962 0.010615479184813042 -0.01315972850058947
 0.007268833018578503 -0.01625988548733299
 -0.22936320611488895 -0.23955859728355694 0.015237975020927427 -0.008950444498594024 0.010822117014099415 -0.013389591837279457 0.1923507763426087 -0.03828593021582984
 -0.006461371468628642 -0.02779166480387397
 -0.2991137198596434 -0.15729922627327672 0.010822117014099415 -0.013389591837279457 0.00722116562557824 -0.016330715555369375 -0.0064886638183647115 -0.02732274395877028
 0.10360303560174469 -0.09305389356041527
2030000000.0 0.14777290786059452 -0.24600958147019664 -0.005430646246142748 -0.33796846602132946 -0.12258415398106526 -0.31479304571276784 -0.2477008674833859 -0.21479309569681349
 -0.3135691808807233 -0.13113937921644306
 -0.005623754007603257 -0.3377950892642048 0.0017969188429409135 0.08583008523749062 0.02819001005824512 -0.01015867029502709 0.013072390348225897 -0.01134589045911586
 0.008026728761144656 -0.014764544992000635
 -0.12095154566962402 -0.3132871871056997 0.02806818559819656 -0.009986182145305243 0.07220857860026565 0.01373138213061684 0.008026728761144656 -0.014764544992000635
 0.00419107691607622 -0.017203870925100558
 -0.25021950327352427 -0.21888173462546445 0.01334640580574411 -0.011451999762198625 0.008206280419889609 -0.01501079582960366 0.19024842548714527 -0.05078922124728099
 -0.009571040326259165 -0.026902879884395662
 -0.31270240401065064 -0.1305519955776353 0.008206280419889609 -0.01501079582960366 0.004143261618391359 -0.017277618353129628 -0.009551035237081566 -0.02642970487243578
 0.09782462360108694 -0.1016193881612305
2040000000.0 0.12582638649476507 -0.24961157424076794 -0.03598024927497882 -0.33730016527221207 -0.1511343219987905 -0.3032840297038064 -0.26633259907588924 -0.19255521857521876
 -0.32468284078496845 -0.10319427291579344
 -0.03625885869372519 -0.3371893897616099 0.010021817130744713 0.08328087194936921 0.026781160953562602 -0.013554077192748508 0.010730626437803481 -0.013445150672491624
 0.00520521870834056 -0.015878427567213305
 -0.14943295522915756 -0.3019226635053079 0.02667505911820434 -0.013377203711298738 0.07524981642145487 0.007287627339576946 0.00520521870834056 -0.015878427567213305
 0.0010327955246155398 -0.017589755960743896
 -0.2692480279271601 -0.1964180851590724 0.01098213976646327 -0.013579073759725009 0.0053445508556012955 -0.01619836642406281 0.18726761420564225 -0.06312942496902023
 -0.012639028208613201 -0.0256655399813675
 -0.32385449177082787 -0.10267502949033 0.0053445508556012955 -0.01619836642406281 0.0009610328361866788 -0.017661959546249984 -0.012526772564959125 -0.025160307200102837
 0.09146743260070093 -0.10958895982907195
2050000000.0 0.10391567782044189 -0.25095128173313913 -0.06665352048443267 -0.333982054823198 -0.17871601133943407 -0.2892304835493347 -0.2830683099219282 -0.16867047004807958
 -0.33341746248493087 -0.07423398074037414
 -0.06693301770271637 -0.3337376130675564 0.017926070965688504 0.07998289778082028 0.024842929001438488 -0.01677435498414202 0.008070178818720328 -0.015103967360601435
 0.0021639253109751494 -0.016452609603375964
 -0.1769218900307292 -0.28795853193050075 0.024774004186947248 -0.016604680959992936 0.07766655090298305 0.0004980945868771179 0.0021639253109751494 -0.016452609603375964
 -0.0021942853667854885 -0.01735063164827191
 -0.2863039172788058 -0.17219391957582122 0.008254235667438221 -0.015254513938297748 0.0022503142056189205 -0.01675710895488285 0.18345532477823473 -0.07518257846180948
 -0.01557977325726821 -0.02396439427827284
 -0.33255896837729626 -0.07378586245644578 0.0022503142056189205 -0.01675710895488285 -0.002224186597731996 -0.017406510525276243 -0.01542914796026058 -0.02354286834467045
 0.08451238740962817 -0.11691346987433529
2060000000.0 0.08230337894220689 -0.2500280107196991 -0.09704316066600122 -0.32776073110771164 -0.20500552807693542 -0.27250971438965665 -0.29770411438911887 -0.14329508923595374
 -0.3396783452644778 -0.04450456597540314
 -0.09733007269148487 -0.3273687767130523 0.0254522250523213 0.07608743807612396 0.022525688972129396 -0.01971004923324533 0.0051907776558661675 -0.016129984264376087
 -0.000811302471810354 -0.016410325789130743
 -0.2030818314883721 -0.27140484103965623 0.022455148559346737 -0.019515104885821994 0.07947656522612602 -0.006502906845582439 -0.000811302471810354 -0.016410325789130743
 -0.005211554919948761 -0.01654801251356205
 -0.30122940543819005 -0.1465395132245435 0.005324700940427297 -0.016340947007622234 -0.0008311873031631967 -0.016748282693949002 0.17902439485795466 -0.08697525514798934
 -0.01827246224153231 -0.02198349639086716
 -0.338646159888626 -0.044094311279602096 -0.0008311873031631967 -0.016748282693949002 -0.005290413823698728 -0.016573771477001776 -0.018094683163817668 -0.0215528808545077
 0.07716702428595941 -0.12361489887956299
2070000000.0 0.06126168027761683 -0.24698976448291998 -0.126933333001436 -0.31860577830268755 -0.22972686565649628 -0.25331735916350373 -0.31002498053760974 -0.11654351243060738
 -0.34317812087714816 -0.014154227043071725
 -0.12713626261418617 -0.3182256987970301 0.03258161353987855 0.07156002396521804 0.019835587061719697 -0.022279743660771855 0.0022296058904535884 -0.016631359286307053
 -0.003741084515113109 -0.0158947687082765
 -0.22768594597050748 -0.2523854435784118 0.019791629512789066 -0.022069741658566663 0.0807360089497782 -0.013647153230466938 -0.003741084515113109 -0.0158947687082765
 -0.008025253397839131 -0.015190515880094234
 -0.3137885946302895 -0.11952315975528785 0.0023163033771724825 -0.01686206013270721 -0.003777137552672267 -0.016200883329536498 0.17396258416736737 -0.09838382651237967
 -0.02067782812150908 -0.019684968154572862
 -0.34214533487372134 -0.013825055817034804 -0.003777137552672267 -0.016200883329536498 -0.00806965615176826 -0.015211583006698075 -0.020454470984862142 -0.019280347185153732
 0.06949716951586513 -0.12977855439351646
2080000000.0 0.04091404067424566 -0.2420342061732379 -0.15586857984119387 -0.3066155654162929 -0.2526127262563767 -0.23188847415289457 -0.3198877983186337 -0.08870840884486894
 -0.34398247546456784 0.016416877424509306
 -0.156096544925272 -0.3062794071089879 0.03930744481627979 0.06641257474177391 0.016923762043111707 -0.02453352652539575 -0.0007314126133914508 -0.01661552740851195
 -0.006444927484448027 -0.0148944184900622
 -0.2505261843356969 -0.2310867155915937 0.016898961719781412 -0.024344667612805702 0.08145498780987219 -0.02101760163691686 -0.006444927484448027 -0.0148944184900622
 -0.01048611236015642 -0.013518054336827293
 -0.3239747002241011 -0.09136091488804694 -0.0006479955695792937 -0.016877899767969804 -0.006554556739372322 -0.015177463123828444 0.16824105780932597 -0.10947075194285188
 -0.02282646299760599 -0.017190195075354176
 -0.342840932499094 0.016690765276963945 -0.006554556739372322 -0.015177463123828444 -0.010585192342480704 -0.013489552786750425 -0.022585585690071526 -0.01681405964758591
 0.061366008953281766 -0.13534997045247665
2090000000.0 0.02136317224604727 -0.23513557937582533 -0.18362061473134955 -0.2919521709239832 -0.27348001162823626 -0.20834710326174566 -0.327282503741584 -0.060089367941715245
 -0.341975612966838 0.04705967760432951
 -0.18384628784760634 -0.29158381344596096 0.045499682611547604 0.060646400491262846 0.013753064027571864 -0.026448554874751923 -0.003608054933882641 -0.016142092171490523
 -0.00897144381260616 -0.013486755540658105
 -0.2713219493628431 -0.20770584414946958 0.013741055186152906 -0.02624394744480739 0.08160471907088666 -0.028470874119468675 -0.00897144381260616 -0.013486755540658105
 -0.01264915526321504 -0.0113895224509979
 -0.3315658548115023 -0.06232510772446371 -0.003561296479527679 -0.01641000315043253 -0.009153192211784187 -0.013780820269513513 0.1618946032511883 -0.1201533164632784
 -0.024837372012109955 -0.014424009540069732
 -0.3408938823535689 0.047226952015556295 -0.009153192211784187 -0.013780820269513513 -0.012757427841533388 -0.011400048025904998 -0.02446970454090242 -0.014053416340552552
 0.05288977816828937 -0.14027247508707283
2100000000.0 0.0025785968216188748 -0.22622408442260047 -0.2099775463114427 -0.27483760780328365 -0.2921426901231011 -0.1829047721774422 -0.33203885219111956 -0.030794129975048063
 -0.33729353796831596 0.07750156033135182
 -0.21019794030243868 -0.2744754795704737 0.05112548237002701 0.05436724933950997 0.010331042883033817 -0.027957741142381698 -0.0063818931500628584 -0.015205661210657199
 -0.011244346455090634 -0.011614508076401681
 -0.2898823325017427 -0.18244359633693463 0.01037922719524907 -0.027756357166432388 0.08104483337349334 -0.03585434845983913 -0.011244346455090634 -0.011614508076401681
 -0.014449818359368795 -0.008898430655606096
 -0.336621317276321 -0.032655603114418515 -0.006400801331615867 -0.015452245367820996 -0.011462187616329104 -0.011883841646222491 0.15499810991971283 -0.1301679060306981
 -0.026468056711935688 -0.011391378556664295
 -0.3362632575694727 0.07758544861467544 -0.011462187616329104 -0.011883841646222491 -0.014531980226985748 -0.008889011708100887 -0.026076018039576068 -0.011094527238775237
 0.04420010844030331 -0.1445470551427815
2110000000.0 -0.014906989231515191 -0.2150376816115921 -0.23478513198082768 -0.25527540132387583 -0.30844062352045 -0.1556865448960057 -0.3342769342245995 -0.001118134946714712
 -0.3298617649072279 0.1075399131802614
 -0.2349673317467889 -0.25497155367387525 0.05611051261548789 0.04770625359336472 0.0067478161679736404 -0.02903252900570478 -0.008910452141470055 -0.013774932690573038
 -0.0131799289273728 -0.009393702315008684
 -0.3061047555868367 -0.15540289981274014 0.006787345197953539 -0.028807905592310827 0.07987258513863191 -0.04315102867021301 -0.0131799289273728 -0.009393702315008684
 -0.015784124429723777 -0.006149806378798912
 -0.3389797360189275 -0.0024859015818224023 -0.008966762587428382 -0.014018698693305616 -0.013413722694056492 -0.009584293431209452 0.14769136258258492 -0.13958600058054269
 -0.027712718207058513 -0.008138550917704471
 -0.32894290290985545 0.10754860241044432 -0.013413722694056492 -0.009584293431209452 -0.015856334394791664 -0.006128735005951923 -0.02732844621695262 -0.007870736863556346
 0.035358087206398194 -0.14808309525046118
2120000000.0 -0.030469053295544394 -0.20192533268606166 -0.25783954521829217 -0.2333955032706532 -0.32218514759881683 -0.12692548609276166 -0.33374927990214315 0.028796371760810728
 -0.3196902139789981 0.13697501991762503
 -0.2580040193915067 -0.2331727841037042 0.06042485069800197 0.04066420273562612 0.0030343615528256353 -0.02964068630966321 -0.011166183208312001 -0.01195229367985551
 -0.014616069209610385 -0.006808269427663357
 -0.3198399395707988 -0.12690784913724923 0.003081519113324276 -0.02943882855095891 0.07813685517673266 -0.050295476998393616 -0.014616069209610385 -0.006808269427663357
 -0.016540763850502453 -0.0032346680111811845
 -0.3386432335638083 0.027855168289053524 -0.011271927435166093 -0.012156204651437102 -0.014919307799925669 -0.0069699163205839 0.13994588718753428 -0.14832404937620502
 -0.02859671748607857 -0.004749710032893885
 -0.31876805721993356 0.136908422900328 -0.014919307799925669 -0.0069699163205839 -0.016611834426122477 -0.0031575351361301535 -0.028154088676896435 -0.004540368455364107
 0.026367988999352075 -0.15095664535568024
2130000000.0 -0.04398739246820706 -0.18749380767519908 -0.2788792604425238 -0.20947403465642522 -0.3330878075423085 -0.09699510744079878 -0.3305454860823803 0.05861446295695657
 -0.30690156543972624 0.1654555631255029
 -0.2790316894918419 -0.20922090444803762 0.06416627065498197 0.03338690867146562 -0.0007154676612500564 -0.02975604424160154 -0.013041626355209432 -0.00976967738403398
 -0.015538747819858683 -0.004033046383708797
 -0.33079107632267873 -0.09714710763463649 -0.0006079793104929716 -0.029577541270521448 0.0758316652658107 -0.057140614904525315 -0.015538747819858683 -0.004033046383708797
 -0.01676712034557546 -0.00022563140141253256
 -0.33543482474147507 0.05812488637751828 -0.013178577025831284 -0.009954573575190103 -0.01587163651067504 -0.004136520568158849 0.13177853359114175 -0.15641583819552185
 -0.02905482193511396 -0.0012506773709260574
 -0.3059590413848781 0.16527233035591435 -0.01587163651067504 -0.004136520568158849 -0.016848749353779655 -0.00017009658078525285 -0.02859099555888321 -0.0011201796981703618
 0.01742234057891026 -0.15326391898272013
2140000000.0 -0.05556803554130535 -0.1720726507295445 -0.29758375111711655 -0.18348868101472068 -0.3411568394856558 -0.06604615388958689 -0.3245614698277632 0.08801414396561445
 -0.29151179548140715 0.1927129590269375
 -0.2977550993001056 -0.18322515019195482 0.06727694019255916 0.025877112976536526 -0.004443324284529024 -0.0294319362604347 -0.014537493094119346 -0.007296220221708699
 -0.016012666251634142 -0.0012024161023507728
 -0.3387601511905434 -0.06640573533626064 -0.004323754965402237 -0.029273177959566864 0.07295232382259709 -0.0637204767878423 -0.016012666251634142 -0.0012024161023507728
 -0.016507430411676995 0.00274364896191279
 -0.3295733766383599 0.08805354839507555 -0.014702558598187301 -0.007478991133237782 -0.01632619080468282 -0.0012304237299372383 0.12316561302228378 -0.1638552520405815
 -0.02912537313253106 0.0022207658479976174
 -0.2905583240293938 0.19241154545424352 -0.01632619080468282 -0.0012304237299372383 -0.01654501101449724 0.0028294606448076905 -0.028639899413865414 0.002344745008889937
 0.008493884489729145 -0.15483137698008514
2150000000.0 -0.06540644420194922 -0.15585522053118617 -0.31382831113229975 -0.15577848995189827 -0.34625564715221363 -0.03452636269692307 -0.3160199889180574 0.11689188192260035
 -0.27361569732877167 0.2185456802305071
 -0.31399144266514323 -0.15554641257627388 0.0697461849865677 0.018126100051799075 -0.008070949937670447 -0.02868185931852097 -0.015580062632012684 -0.004633360333818597
 -0.015960133519989293 0.0016798546567187375
 -0.344024908371275 -0.03504687505733691 -0.0079388669180927 -0.028526262633557082 0.06955258290974692 -0.07003574219734157 -0.015960133519989293 0.0016798546567187375
 -0.01575564599312809 0.005610955992490175
 -0.32106601763614817 0.11732995029893638 -0.015790934697300908 -0.004749844959072833 -0.016281218104847194 0.00169861352305212 0.11415037196079668 -0.17065258701732225
 -0.02877609775872124 0.0058344556234131185
 -0.27279141628905873 0.21811074059917757 -0.016281218104847194 0.00169861352305212 -0.015811190862097896 0.00567428677081264 -0.028324510716680223 0.0058382090474254165
 -0.0003284399673516141 -0.1558145949980529
2160000000.0 -0.07332520179483827 -0.13863988773837874 -0.32741731341797353 -0.12665874510799605 -0.34852011497830643 -0.0025812933566311154 -0.30486839769144825 0.1449204468501803
 -0.2534219710200836 0.24261469622435067
 -0.32753665585232566 -0.1264669298372971 0.07154317737438053 0.010322178345372007 -0.011637626869890592 -0.02751990036069106 -0.016186231578777126 -0.0018242448256405824
 -0.01539952287067334 0.0045435606715558486
 -0.3462258940555428 -0.003342668608615959 -0.011518661066332822 -0.027353154717669928 0.06562694847002354 -0.07595277390203375 -0.01539952287067334 0.0045435606715558486
 -0.014498693568180098 0.008313268671131023
 -0.30993845348712473 0.14581663040160764 -0.016400883904614232 -0.0018734321691097411 -0.015723863521274976 0.004623419305201577 0.10479771927812816 -0.17661224575511725
 -0.02804443733938429 0.009365003467853291
 -0.25270172786411926 0.24216077287968546 -0.015723863521274976 0.004623419305201577 -0.014559676220389164 0.00837004825464634 -0.027517874457147047 0.009334375642053576
 -0.008942476299735812 -0.1561321100102854
2170000000.0 -0.07919889740211526 -0.12087144121628562 -0.33817443808966907 -0.09635487832687539 -0.34766321058197486 0.02946939868380271 -0.2912675624230264 0.17191088373918037
 -0.23112135446216356 0.2648866488936623
 -0.33835455685941906 -0.09614613402231627 0.0726609998171556 0.0024638305325714463 -0.015027320928185262 -0.02584326531162168 -0.016234398525656602 0.0011096253658242387
 -0.014346520293238746 0.007205348318460095
 -0.3454722641746154 0.028537089421405884 -0.014833601610363716 -0.025684237953014583 0.06124060326408575 -0.08151452254603736 -0.014346520293238746 0.007205348318460095
 -0.012799614968330415 0.010753848864827633
 -0.29622525519904 0.1733018774476448 -0.016485939541872816 0.0010622695268511918 -0.014673813548750914 0.007368482686252212 0.09512434456286482 -0.18201120522980097
 -0.02681214798866881 0.01280187239946409
 -0.23046760254979423 0.2644545661776684 -0.014673813548750914 0.007368482686252212 -0.012851240613455803 0.010861751373177346 -0.026331884939229225 0.012712025135736257
 -0.017292490581709084 -0.15594374025056185
2180000000.0 -0.08287855442429534 -0.10265183168841158 -0.3460482456449327 -0.06511305181585389 -0.34378581798329644 0.061284383007288445 -0.27520874093052616 0.1976729931056866
 -0.20675667437484518 0.2850501269140429
