! Created with skrf 1.8.0 (http://scikit-rf.org).
# Hz S RI R 50.0 
!freq ReS11 ImS11 ReS12 ImS12 ReS13 ImS13
! ReS14 ImS14 ReS15 ImS15
! ReS21 ImS21 ReS22 ImS22 ReS23 ImS23
! ReS24 ImS24 ReS25 ImS25
! ReS31 ImS31 ReS32 ImS32 ReS33 ImS33
! ReS34 ImS34 ReS35 ImS35
! ReS41 ImS41 ReS42 ImS42 ReS43 ImS43
! ReS44 ImS44 ReS45 ImS45
! ReS51 ImS51 ReS52 ImS52 ReS53 ImS53
! ReS54 ImS54 ReS55 ImS55
!
2000000000.0 0.11720326220066336 -0.14844853241289457 0.08375960827936808 -0.3301157832534815 -0.1869510033207952 -0.2749247690833463 -0.3413877414316789 -0.058456094724483154
 -0.2864953197797293 0.2049662318320022
 0.08341057957396748 -0.32992863892270996 -0.02337189522635696 0.08890071975636651 0.026427203607612502 -0.013727378555561845 0.010388034141382176 -0.01566931022708933
 -0.004867901815955843 -0.01739002354381314
 -0.1849741942635442 -0.27373016205529205 0.026323065489697324 -0.013537020842639554 0.19382900807703232 -0.019201943979113935 -0.004867901815955843 -0.01739002354381314
 -0.01551855606783596 -0.010219270544098815
 -0.34569322052402435 -0.06059733109579369 0.010626603029541352 -0.015802654957300565 -0.004960923054007936 -0.01773257236877347 0.17631893730247433 0.012164266225633574
 -0.027209171040478358 0.015165560698596207
 -0.28551584551243714 0.2044962623856099 -0.004960923054007936 -0.01773257236877347 -0.015592147689784046 -0.010203604215374858 -0.02672389408753239 0.015045520989683718
 0.08070894309937207 -0.20469149952862356
2010000000.0 0.105614443446869 -0.14858164209753952 0.053230906095692164 -0.3372637834161576 -0.21125435158249656 -0.25732248525117146 -0.3458055439598996 -0.02829398373893123
 -0.26855810389624124 0.22931954853402622
 0.052904378488699146 -0.3369191015016314 -0.014801165049902467 0.08863917309732117 0.024502931293540125 -0.016669153810131964 0.007383579294941029 -0.01710291741456291
 -0.007796876051505326 -0.01604889074439387
 -0.2092491059937055 -0.25642601366538537 0.024436144231487596 -0.016487792138402024 0.19289229333465838 -0.03152176952544481 -0.007796876051505326 -0.01604889074439387
 -0.016895050869037656 -0.007323310308668563
 -0.3504024931928478 -0.030112787126095802 0.007567749000956352 -0.017292079990182757 -0.007919978008049786 -0.016397245374346538 0.17473950433686858 0.00240266862676794
 -0.025319602285047586 0.018008879837950714
 -0.2675683647048696 0.22866303422996548 -0.007919978008049786 -0.016397245374346538 -0.01698574384204066 -0.0072538232037277295 -0.024888844717791327 0.017825391685530934
 0.07173393376598981 -0.20673645142106784
2020000000.0 0.09421435927758094 -0.14718247786806551 0.02211817411083765 -0.3413476551078213 -0.23370968911604115 -0.23749755265111958 -0.347602251805638 0.002256276013151658
 -0.248332130452813 0.25192654938569203
 0.021871214580251177 -0.3409998388865775 -0.0063346018820703625 0.08758285994050645 0.02232705234647113 -0.019342109056498573 0.004207362699972274 -0.017979221927017338
 -0.010395523062434483 -0.014322592908641553
 -0.23167692476594232 -0.23683672354793736 0.022287877539720023 -0.01916252298942827 0.19095750775990686 -0.04369891358585794 -0.010395523062434483 -0.014322592908641553
 -0.017766893538188826 -0.004297653387936737
 -0.3524436040716953 0.0007718050101832278 0.004372900506152072 -0.01822913388657323 -0.010547287491996045 -0.014621382986282775 0.17269951344271525 -0.00712154077915896
 -0.023217819046098875 0.020626501725374995
 -0.2473760367485321 0.2512712471744096 -0.010547287491996045 -0.014621382986282775 -0.01783613142702174 -0.004230205460044788 -0.022747024771431354 0.020425638329431582
 0.06288080581062495 -0.20829269265354322
2030000000.0 0.08336316238952915 -0.14439465116799335 -0.009186249964223528 -0.3424969616036315 -0.25433723247352985 -0.21576365015757776 -0.3466544087868379 0.03293715957687737
 -0.22608832501667173 0.27271874570456806
 -0.009458376286051043 -0.3422235589166846 0.0020658880628000678 0.08579261869271726 0.019839086252348027 -0.021849015100452684 0.0009325309244674923 -0.01831541263369766
 -0.012664323964033001 -0.012168076087515108
 -0.2522534458771637 -0.21522468859385135 0.019800314035118855 -0.021609579875567296 0.18823925142988368 -0.05576645057580898 -0.012664323964033001 -0.012168076087515108
 -0.018127267270661412 -0.0011344837337370682
 -0.35164304899813964 0.03186044444810367 0.0010376243498687637 -0.018596611508428548 -0.012888033500454654 -0.012423990753787108 0.17011774545888064 -0.016332612892719915
 -0.02079182416403835 0.02308927741509491
 -0.22521329049183123 0.27205526675710284 -0.012888033500454654 -0.012423990753787108 -0.018179885040079977 -0.0010660361898378382 -0.020348996782166555 0.02281040570241596
 0.05422702927489461 -0.20931938684932438
2040000000.0 0.07345259695409075 -0.14054306812262027 -0.0405925145412859 -0.34080025390701046 -0.2728734493050387 -0.1922668853920052 -0.3430266156061192 0.06348228820697074
 -0.20215142230608343 0.29169119303425145
 -0.04088703480960724 -0.3406343961252204 0.010243233141336554 0.08315374804990101 0.017040326510650915 -0.024054353293811132 -0.002369842014197644 -0.01810960668794981
 -0.014539905811852816 -0.009679414412124986
 -0.27072611637455246 -0.1918572070271369 0.01701828953859544 -0.02386374193532182 0.18466887210750416 -0.06751876075244115 -0.014539905811852816 -0.009679414412124986
 -0.017929752487884847 0.0020464447469026024
 -0.3481222176567099 0.06285337540929163 -0.0023298278476437673 -0.01837525094173631 -0.014798692954274365 -0.009880565791291799 0.16715549944776983 -0.025207894215528215
 -0.01808664718957688 0.02532168710503818
 -0.20134727756463155 0.29092134798109176 -0.014798692954274365 -0.009880565791291799 -0.0179743866619701 0.0021207352616306615 -0.017662924392447613 0.02497672403947055
 0.04591305257808213 -0.2101407285666593
2050000000.0 0.06461490258586759 -0.13582166217441044 -0.07176931632970361 -0.33624682300947073 -0.2892589873358882 -0.16716029506057595 -0.3366870688743133 0.0936553443841131
 -0.17648801597539424 0.3085265721202385
 -0.072020129581793 -0.3360145633018546 0.0180339071154228 0.07982287802882157 0.013892364083091996 -0.025892965676092613 -0.005602856393361786 -0.017229411123391145
 -0.01592125573466756 -0.006843501183983469
 -0.2869917557724477 -0.16688408980168745 0.013895056880945644 -0.025696418039524587 0.18032768154624165 -0.07893492342786411 -0.01592125573466756 -0.006843501183983469
 -0.01717395899978982 0.005174107061816215
 -0.34175005972406214 0.09353948798222915 -0.005576883011975451 -0.017488129516402138 -0.01623983555168825 -0.007018947509757058 0.1639353817269637 -0.03377327331313534
 -0.015049221245407394 0.027197519565311128
 -0.17579230752857883 0.3077466444982439 -0.01623983555168825 -0.007018947509757058 -0.017208541518179025 0.005254309358024808 -0.014657544969882643 0.02683428497739738
 0.03782739178381911 -0.2107569023423583
2060000000.0 0.056923610461352206 -0.13048752209788017 -0.10242941141085443 -0.3288251783917459 -0.30319236282101253 -0.14061952286082177 -0.3275526763210282 0.1233036363328162
 -0.14942822205760445 0.32323316445833644
 -0.10268015393428542 -0.32844207898057415 0.025523165762217703 0.07590320941306977 0.010560945481564138 -0.027312001844401544 -0.008521809667839884 -0.015794858496335874
 -0.016762777202418384 -0.0038634380611097113
 -0.30093876871900277 -0.1405821391741169 0.010593492163447737 -0.027110517752467422 0.17536273605917135 -0.0899931028910545 -0.016762777202418384 -0.0038634380611097113
 -0.015817265815797905 0.008014926807577007
 -0.33269206267488366 0.12362958584348015 -0.00856403925228414 -0.016064748781470788 -0.017057050875248836 -0.003975442082374751 0.16058354953057805 -0.04210202017073473
 -0.011801585787124367 0.0287282981656191
 -0.14869096666340303 0.32228158504718735 -0.017057050875248836 -0.003975442082374751 -0.015886208197342856 0.00807133808745343 -0.011472238994751052 0.028313416509062522
 0.02986091212606959 -0.21113814174309634
2070000000.0 0.05028304582544279 -0.12479695386052465 -0.13225473762247514 -0.3183701207862706 -0.3145997262382653 -0.11300200069221467 -0.31577802590295206 0.15214275489266563
 -0.12099033128038349 0.33543594918380937
 -0.1324785123870639 -0.31805404200989057 0.032569459171154766 0.07135550560610764 0.007131968159449758 -0.028229950867452915 -0.011052531535812512 -0.013843874549668967
 -0.01693468387641062 -0.0008764072417883887
 -0.3124596571102963 -0.11307754573083545 0.007156189465305615 -0.02801805071393299 0.16983977806704992 -0.10062005479694551 -0.01693468387641062 -0.0008764072417883887
 -0.014085710639529611 0.0104977502184603
 -0.32086203023123866 0.1528660227150191 -0.011151157928963804 -0.014082670579828996 -0.01729781315719718 -0.0008886494148311149 0.15700280396632604 -0.050182633175202836
 -0.008427926083729347 0.029819651656741348
 -0.12031872484121126 0.33443966394215885 -0.01729781315719718 -0.0008886494148311149 -0.014093461138790474 0.010597471875115089 -0.008156660614228643 0.029387189631864687
 0.022020654449498224 -0.21146665722321958
2080000000.0 0.04457258934309024 -0.11893831966978033 -0.16091687577867603 -0.3052884074442278 -0.32351758888634347 -0.08445841005446814 -0.3013670417952512 0.17979078303519927
 -0.09152052809180149 0.345080432852834
 -0.16112739905984588 -0.3049448631097546 0.03923370121954521 0.06626541009356324 0.0036597858353816276 -0.028818966134166242 -0.013250603793927986 -0.01158952817408026
 -0.016759129330009594 0.002095159616517822
 -0.32144593947456984 -0.08474658747590298 0.0037175964519996006 -0.028623214817315373 0.16370457193815377 -0.11095888582174748 -0.016759129330009594 0.002095159616517822
 -0.012034493816966156 0.012671647654368495
 -0.3064078508262218 0.18098114797808812 -0.01336773250838295 -0.011828463631560404 -0.0170872020857231 0.0020763062993049914 0.1531145991513717 -0.05804446403747716
 -0.0049819344623780685 0.030616050512520702
 -0.0909127950107003 0.34409306375210297 -0.0170872020857231 0.0020763062993049914 -0.01199259000750965 0.012754465427983277 -0.0047401739272669415 0.03014195477112473
 0.0142818850688016 -0.21144713223675785
2090000000.0 0.03964880569004129 -0.11284564468410127 -0.18816424590719752 -0.2896261138180227 -0.3298418396641288 -0.055337926638809695 -0.2845084829171478 0.2060355479434263
 -0.06123619177787766 0.3521697813517828
 -0.18839840304332697 -0.28926625023846814 0.0454050678721532 0.060564730879886695 0.00011550840392290012 -0.028960362630053627 -0.014966527479890652 -0.009014750482239561
 -0.016075995229227046 0.0049163608603869265
 -0.3277391989547252 -0.05572481386304408 0.00023353994239584433 -0.028773725463150143 0.15707131460430512 -0.12079795683958053 -0.016075995229227046 0.0049163608603869265
 -0.009633363284198788 0.014499410298829825
 -0.2893963663975015 0.2077693144407674 -0.015110892513075368 -0.00920538467970286 -0.01643271309716584 0.005009329955086969 0.14912987325532906 -0.06554403636581715
 -0.0014318281219599545 0.031053896379912273
 -0.06075307460800069 0.35113806424328503 -0.01643271309716584 0.005009329955086969 -0.009609626729872844 0.01456219157587388 -0.0012649432585463349 0.030547031508081492
 0.006744013538253471 -0.21137377964133744
2100000000.0 0.035508210704303274 -0.10635907753361966 -0.2138176570446071 -0.27153322476495323 -0.3335635835912996 -0.02581969958723171 -0.26525841364200375 0.2307618140327438
 -0.030330439585205544 0.356489176184443
 -0.21402923016049225 -0.27122624407788065 0.05098139721736628 0.05432849091354294 -0.0033980127232065356 -0.02874209050582943 -0.01620813948467524 -0.006169781478507065
 -0.01493744582111988 0.00761385617039827
 -0.3313617437814495 -0.026419707852764582 -0.0032913144079733 -0.02854220065015079 0.14981355385232437 -0.1299750428674191 -0.01493744582111988 0.00761385617039827
 -0.006910632692902934 0.015919977231563853
 -0.2700488791601957 0.23296385045190962 -0.01640269468459404 -0.006354141260657413 -0.015265166741948414 0.007793881410159005 0.14509850691694876 -0.07264869135347816
 0.002235839117708787 0.031104750112970647
 -0.02990380833078324 0.35551577128252615 -0.015265166741948414 0.007793881410159005 -0.006902050058674803 0.015979391872606646 0.0023649641485661236 0.030558879405310952
 -0.0006701169007894105 -0.21123518755193377
2110000000.0 0.0325042003183118 -0.09940262630531625 -0.23778753200649258 -0.2513519252355676 -0.3345810115834979 0.003943916170565642 -0.24390594852153533 0.25369645801733764
 0.0009746261470429724 0.3581394990950231
 -0.2379211095731983 -0.25105057884482906 0.05598637780210977 0.04776187636778626 -0.006867143581268304 -0.028040995397159412 -0.01696313820696584 -0.003236137144212327
 -0.013341363601942689 0.010138953660935531
 -0.3324799157295857 0.003174440008001954 -0.006758176204366987 -0.027883544629399896 0.1421125036141119 -0.1386384898107243 -0.013341363601942689 0.010138953660935531
 -0.004023805531835043 0.01680110746638854
 -0.2483492569215358 0.25622840543410796 -0.01721758215046396 -0.0033051416033625155 -0.01362919973965266 0.010314830487715814 0.1410237600943914 -0.07944534992385216
 0.005932791370205866 0.030641926890750126
 0.00127059456263025 0.35721701554193974 -0.01362919973965266 0.010314830487715814 -0.003987940373970738 0.01687166123691272 0.00597388794631057 0.03013107239116832
 -0.007975113388064382 -0.21104671335486683
2120000000.0 0.03094778113772334 -0.09242298001189873 -0.259760361590884 -0.22899030767456344 -0.33297683544274803 0.033647768068772246 -0.22039314864775894 0.27455665678533936
 0.03234766129385964 0.3568943000473649
 -0.25995536978928874 -0.228742715095765 0.060355113164638104 0.04076649912146781 -0.010240938047185514 -0.026967796370215544 -0.017177802846743133 -0.00014669721831534504
 -0.011265274168145007 0.012297250025946954
 -0.330957868430282 0.0326570456616614 -0.01008446387209088 -0.02683211095970584 0.13406950933369027 -0.14667868343240725 -0.011265274168145007 0.012297250025946954
 -0.0010142934819347737 0.017175521337655365
 -0.2246718122338649 0.2775336290218449 -0.01740850248419864 -0.0001990453544825785 -0.011540036491848064 0.012515285649041646 0.1368498620214404 -0.08590245243395107
 0.009534447963639928 0.029730362938294216
 0.032614490058555885 0.35591197727313617 -0.011540036491848064 0.012515285649041646 -0.0009521984168052916 0.017230280242630035 0.009525621357955406 0.029210364231487707
 -0.015291317000191706 -0.2107317806457973
2130000000.0 0.03060130876696515 -0.08589542898394963 -0.27971081255689917 -0.20475335538254172 -0.32872718528254796 0.06302403935483802 -0.19510867564561163 0.2931711374909416
 0.0635565621125866 0.3528134407339381
 -0.2798786222392885 -0.20456958505790843 0.06412516015044077 0.03356767701665701 -0.013436350493090726 -0.025451661335963462 -0.016810824181688045 0.002888274487832606
 -0.008929716043197576 0.014032271578985383
 -0.32681351468375064 0.0618353559875964 -0.013254890861213996 -0.025352597256873593 0.12556347230857712 -0.1540588626248776 -0.008929716043197576 0.014032271578985383
 0.001997095241220798 0.016949260013956965
 -0.19906431873679561 0.2965023637711816 -0.01705935144842041 0.002845966508795741 -0.009116656774895928 0.01429658105952145 0.13248550116508495 -0.09210210031660955
 0.012997265614900933 0.028426446217823354
 0.0636361750680945 0.3518361373375223 -0.009116656774895928 0.01429658105952145 0.0020500015815163404 0.017033761333607813 0.01295017958318693 0.027894764249619543
 -0.022565923248426406 -0.21038446949847198
2140000000.0 0.031124369232842872 -0.08002731740664146 -0.29737525366009987 -0.1787917194900381 -0.321795861570696 0.09185896540199057 -0.16817934156764727 0.30929786968842743
 0.09427943685679939 0.34595801254598574
 -0.29750217306770915 -0.17855690812977837 0.06731408436417861 0.02605168333425453 -0.016399264740224687 -0.023671935999766636 -0.015967873492496516 0.005750173418951727
 -0.006297803574587808 0.01532533090639895
 -0.31997390140518533 0.09054191929485757 -0.016244078878105802 -0.02356094262800121 0.1166928657523526 -0.16073281028698158 -0.006297803574587808 0.01532533090639895
 0.004868736559346409 0.016299053295047564
 -0.17186386397716333 0.31315135594833887 -0.016221248902331085 0.005758211075342696 -0.006501917627298077 0.015650734123860668 0.12798050151619744 -0.09800041517039836
 0.016316435100252318 0.026748619758716407
 0.09424917724297953 0.34494800420210964 -0.006501917627298077 0.015650734123860668 0.004951004700841808 0.016349469868325726 0.016132632569755 0.02623154089843198
 -0.029748556200328402 -0.20986018500333392
2150000000.0 0.03221735802686653 -0.07474607004415772 -0.3125125406265347 -0.15135159520787822 -0.3124677693385158 0.11991097576655309 -0.13998081143423963 0.3230348487298732
 0.12426975192223015 0.336269329902011
 -0.31261057508580575 -0.15112246240708999 0.06982068287252867 0.01830172669518617 -0.01921668137335995 -0.02153402793665941 -0.014673914209919547 0.008440482164716538
 -0.003543775402038739 0.016175835721241587
 -0.3107507152004868 0.11843831706552824 -0.018987322359643264 -0.021414653568723616 0.10748704029653813 -0.16687704897463576 -0.003543775402038739 0.016175835721241587
 0.007599540950524336 0.015154927201496119
 -0.14325829106455198 0.3271184460921006 -0.014934486351853746 0.008488117160075264 -0.0036348738406302154 0.016502098056325173 0.12325477194338026 -0.10358265066849795
 0.01945017515453324 0.024692397055110726
 0.12408712137934119 0.335398184882971 -0.0036348738406302154 0.016502098056325173 0.00766427328949587 0.015181595163587086 0.019239234992111796 0.02420126192415589
 -0.036812705223469015 -0.20923756903405846
2160000000.0 0.03388368839630035 -0.06979604763665169 -0.32511828747117905 -0.12269512599056451 -0.30076576011784595 0.14698084637387857 -0.11066404401151164 0.33410283605977215
 0.15320709620650066 0.3240601341805151
 -0.3252354565572055 -0.12249434175353409 0.07166102805207028 0.010485165496229807 -0.021715628957753717 -0.01904942660325924 -0.012934395157257379 0.01087911542100113
 -0.0006432446202927404 0.01656679443531068
 -0.2991704569171812 0.14536481526788922 -0.021514940988053868 -0.018966490478903458 0.09802425213764795 -0.1722419682024991 -0.0006432446202927404 0.01656679443531068
 0.010093500380672846 0.013576228554683706
 -0.1136180694679533 0.3385485797127976 -0.01317378160855658 0.010978692465130328 -0.0006796027428964091 0.016908929173672003 0.11840632990030225 -0.10886886325232761
 0.022377176411053707 0.0222377444487694
 0.15297660228012994 0.3231594636174824 -0.0006796027428964091 0.016908929173672003 0.010165770825524263 0.013592556623439061 0.022104139837485562 0.02180333451608912
 -0.0438822932715278 -0.20851180269298558
2170000000.0 0.036060945449395185 -0.06556890760361501 -0.33503621459970223 -0.09305578302212143 -0.2867527096191123 0.17287607726630175 -0.08048594915621896 0.3424958484171545
 0.18087233214564855 0.30923724140850417
 -0.33524542320527256 -0.09287374576707372 0.0728374094049065 0.0025725516934828273 -0.0238913663566728 -0.016307302183798826 -0.010804667786519518 0.012957382435615455
 0.002265751303306743 0.016375328217843963
 -0.2852612822383884 0.17116173576446375 -0.02367691734291789 -0.016251019043226445 0.08833308864975409 -0.17694021691951362 0.002265751303306743 0.016375328217843963
 0.012285287963455321 0.011589079149556526
 -0.08300295987083814 0.3472797358667697 -0.01098973998964218 0.013123991852922337 0.0023134910997189236 0.016739584651172937 0.11332389475355727 -0.1139132570282676
 0.024950007313390338 0.019469420995433886
 0.18068457321944129 0.30844096522024356 0.0023134910997189236 0.016739584651172937 0.012391105000321045 0.01162355737816517 0.02464681916217758 0.019049832659073833
 -0.05099990739122478 -0.2077375716669352
2180000000.0 0.03867158561614305 -0.06185579004554891 -0.34229032313637325 -0.06270779328358418 -0.2705170518702934 0.19742748383861078 -0.04968092634179487 0.3481173698111407
 0.20708798038767448 0.29205019736505267
 -0.342454275630046 -0.0624720457647802 0.0733776537071782 -0.00528117537898263 -0.02572516663476547 -0.013273473024187228 -0.008256528834808036 0.01465572319387827
