! Created with skrf 1.8.0 (http://scikit-rf.org).
# Hz S RI R 50.0 
!freq ReS11 ImS11 ReS12 ImS12 ReS13 ImS13
! ReS14 ImS14 ReS15 ImS15
! ReS21 ImS21 ReS22 ImS22 ReS23 ImS23
! ReS24 ImS24 ReS25 ImS25
! ReS31 ImS31 ReS32 ImS32 ReS33 ImS33
! ReS34 ImS34 ReS35 ImS35
! ReS41 ImS41 ReS42 ImS42 ReS43 ImS43
! ReS44 ImS44 ReS45 ImS45
! ReS51 ImS51 ReS52 ImS52 ReS53 ImS53
! ReS54 ImS54 ReS55 ImS55
!
2000000000.0 0.14771955175674115 -0.17267951993866887 0.08357658893680421 -0.3284046136675239 -0.27365587912287437 -0.19713931486763106 -0.2752825211699932 0.20680714570423758
 -0.07140781641538309 0.30872814155680744
 0.08314803162273929 -0.3282089955466972 -0.02338046738360221 0.08880662070813217 0.020406555794088253 -0.022417764449000403 -0.0042815287596878505 -0.018169882040295814
 -0.018310596884887922 -0.0023392622828530573
 -0.2713138560344107 -0.19664488783323084 0.020384558633281976 -0.02219677815645073 0.12203007938811293 -0.07147505124220839 -0.018310596884887922 -0.0023392622828530573
 -0.015001593223244911 0.008082937072776148
 -0.2798196012678165 0.20844425823777385 -0.004256958725736353 -0.01846389171041009 -0.018709579569273875 -0.0024219115854221067 0.09294181700922029 -0.19914590265425455
 0.013003902270462614 0.0249322048996484
 -0.07096112953278044 0.3077710070034502 -0.018709579569273875 -0.0024219115854221067 -0.01504560409182888 0.008147702306356754 0.012897367310435582 0.02448724493302507
 -0.11372839998776467 0.05398355879246096
2010000000.0 0.13315328331208168 -0.17499352217368472 0.05332818041849413 -0.3356389079155439 -0.2908925879118982 -0.17208575595832593 -0.25692336706445235 0.23010869045170737
 -0.040134403570145055 0.31610619695600567
 0.053048047629522636 -0.3352595397015424 -0.01482645215824829 0.08850967508042523 0.017541922152174837 -0.024563611488533713 -0.007323917273565298 -0.016981717739312736
 -0.01828098099124802 0.0008615847521405712
 -0.2886693532463178 -0.17191346198087268 0.017533441175165795 -0.024369763010452315 0.11711075958430892 -0.08012683384840681 -0.01828098099124802 0.0008615847521405712
 -0.013127589747454906 0.010678793860389165
 -0.2613959176673933 0.23220121375111047 -0.007347096082115378 -0.017259313641396767 -0.018655719690726824 0.0008925640838213688 0.08394404235474505 -0.2009635929952217
 0.01595948954906859 0.02319167285141027
 -0.03978748920849256 0.31492795180333494 -0.018655719690726824 0.0008925640838213688 -0.013135920048037483 0.010751036394362232 0.01581690359734909 0.022732917437646178
 -0.101498670688278 0.055551677813714166
2020000000.0 0.11878520155238445 -0.17539370383354916 0.022547233962936813 -0.33983829674755006 -0.30564986180377823 -0.14547377326699895 -0.23652969866907037 0.25181442086887795
 -0.008136419107981503 0.32006230596208335
 0.022293658592971045 -0.33956666216079917 -0.006326287111078283 0.08750871902744997 0.014495443234485159 -0.026349982565937662 -0.01008996204360608 -0.01530349180049901
 -0.01769729400337234 0.003991863503252696
 -0.303448795118127 -0.14547915446606913 0.014508588529060982 -0.026142344740696613 0.11160433366699041 -0.08820926704286276 -0.01769729400337234 0.003991863503252696
 -0.010875376744002609 0.0128562843445161
 -0.24097021912639813 0.254320842829075 -0.010165797259963937 -0.015584465596983597 -0.018037281145403553 0.004055053303077597 0.07511284773149911 -0.20251594077368965
 0.018734082536131246 0.021123390869243027
 -0.007970119295443343 0.3189113022572076 -0.018037281145403553 0.004055053303077597 -0.01084658242600109 0.012938491933580586 0.018527004255665135 0.02067072703068976
 -0.08936619715862702 0.05597809774935529
2030000000.0 0.10506794401928106 -0.17419421656608622 -0.008585539002795501 -0.3411970802286929 -0.31793738404670896 -0.11756192993176039 -0.21434446748550756 0.2717262571955686
 0.02419488024122145 0.32067967988543133
 -0.008820945101250659 -0.34098608635209193 0.00203885250468622 0.08573144056451518 0.01126300519962619 -0.027858789883809566 -0.012569569847397934 -0.013219149157423336
 -0.016609535693168618 0.00697147803747388
 -0.31567170611819845 -0.11777268859671146 0.011279492318556423 -0.02765616609709518 0.10547242402689291 -0.09584367977321068 -0.016609535693168618 0.00697147803747388
 -0.008247104964666074 0.01462064093804832
 -0.21850841290818407 0.2745944971233849 -0.01265974235024384 -0.013489958766466992 -0.016942924777950355 0.007086652794085761 0.06646036671940092 -0.20374083705686702
 0.021281465330511454 0.01872372805222517
 0.024268839748970802 0.31963561132483753 -0.016942924777950355 0.007086652794085761 -0.008223962123043577 0.014700626866617276 0.021017093403734918 0.01832849196857066
 -0.07747585611551948 0.055173781135573176
2040000000.0 0.09229745430416875 -0.17170306190413573 -0.03977275506306259 -0.3397351749084067 -0.3276483750167787 -0.08865979734930532 -0.1904021297744209 0.2897644186838893
 0.05651469470729728 0.3180716522393744
 -0.040030965927950996 -0.33956053146539444 0.01019088467508245 0.08313940537623384 0.007787484691961525 -0.02899611148108489 -0.014646651823757743 -0.010722033179850843
 -0.01504511493289245 0.009720967952766078
 -0.3254533759915358 -0.08907963822535675 0.007861985329816674 -0.02879724466232434 0.0989249185911276 -0.10286612190944187 -0.01504511493289245 0.009720967952766078
 -0.005334844496807736 0.01584712820518916
 -0.19438511668836442 0.29298808082530725 -0.014795343798796472 -0.010947395071572684 -0.015342856359381396 0.009918063791261398 0.058041239794083536 -0.20484887109741529
 0.02355843224979484 0.015954983453586563
 0.0565237418938332 0.31712246005681244 -0.015342856359381396 0.009918063791261398 -0.00528658640347569 0.015923310279966088 0.023243102388596865 0.015593798390073894
 -0.06600033670582255 0.0531295402565971
2050000000.0 0.080664900890297 -0.1683973588022372 -0.07079205654832615 -0.33543329504794483 -0.3347056374642945 -0.05896342590888892 -0.16493652995561944 0.30573375442782263
 0.08857015005112671 0.31223564027316714
 -0.07108355412738637 -0.3352391153914824 0.01802746044143548 0.07980303903116874 0.004142375491934268 -0.0296508991106895 -0.016212757862310835 -0.007848158063485098
 -0.012979434116630661 0.012151252053864164
 -0.33255282652996176 -0.05952002897295644 0.0041976308906076535 -0.02945936650599244 0.09201429212273823 -0.10936132873954468 -0.012979434116630661 0.012151252053864164
 -0.002164430703187711 0.016494111863976087
 -0.1685412043426384 0.3092945459835727 -0.016397967184235432 -0.008016264359009333 -0.013233834650982929 0.012406099526037526 0.04988686849015727 -0.2058098429342155
 0.025494158845531384 0.012836728607759284
 0.08848569289085174 0.31117893256001034 -0.013233834650982929 0.012406099526037526 -0.0021259865652684265 0.016549245694029133 0.025102379651666087 0.012515510963944732
 -0.05513862446058969 0.049956386484879545
2060000000.0 0.06996648567633246 -0.16428127846910384 -0.10135935840453851 -0.3283032957986078 -0.33899502142405324 -0.028678631780493617 -0.13796995543466972 0.3193817023968722
 0.1199721763540242 0.30305688293011895
 -0.10159094442566056 -0.3279042668057817 0.025511779468444035 0.07588011868559 0.0004600026447011721 -0.029839562500083548 -0.0171838054716023 -0.004770216550323546
 -0.010515159205539894 0.01413203594245293
 -0.3368896989133809 -0.029394401292914773 0.0005543329162866888 -0.029673121214422983 0.08482825463107088 -0.11529989324886097 -0.010515159205539894 0.01413203594245293
 0.0009827240797080897 0.01650974391659911
 -0.14126783214655797 0.3233240655015903 -0.017405731935320738 -0.004914375088345209 -0.010753264899809083 0.014405407352800366 0.041910164609448866 -0.20663832281074135
 0.026942388430109775 0.009526262811437296
 0.11979207314520139 0.3019479633827529 -0.010753264899809083 0.014405407352800366 0.0010428221652081869 0.016557388194707468 0.02653207035763813 0.009207755753259269
 -0.04491488019597743 0.04586455670611536
2070000000.0 0.060180122814544594 -0.15958154129819696 -0.1311333590200776 -0.31818915720861063 -0.34045060958103085 0.0018502926392300503 -0.10975848502068349 0.33070084254314197
 0.150350014098369 0.29061860367016257
 -0.13135917407460326 -0.3177797712267099 0.03257700392073212 0.07135658825294953 -0.003176552123125286 -0.029528819496039273 -0.017563874693520175 -0.0016072626311219031
 -0.007831588382303932 0.015563069687360431
 -0.3384424765631419 0.0009973298841989353 -0.003043690281470197 -0.02936902848963415 0.07746123756785968 -0.1206953016660332 -0.007831588382303932 0.015563069687360431
 0.004008954641693068 0.015886256548649953
 -0.11277953999867346 0.33482183177175073 -0.017805187052052442 -0.001738764235386505 -0.007997556289653032 0.01587037544673769 0.03403654964628089 -0.20728311049444884
 0.02793082399279148 0.006024784512580375
 0.15009781498897837 0.2895660355433127 -0.007997556289653032 0.01587037544673769 0.004050315326200265 0.01594857359646927 0.027535393753953533 0.005797470530347806
 -0.0354021342777895 0.04081300063131792
2080000000.0 0.05130204564560279 -0.1544864122191051 -0.15983593729084108 -0.30531782847170646 -0.33920491324600843 0.032366989310906306 -0.0806525870828449 0.33938217699593204
 0.1793471340857196 0.2751130780623072
 -0.16002508227408388 -0.30491987900639583 0.03924277478982484 0.0662370295648686 -0.006679388263370021 -0.02885951101583259 -0.01745049548769576 0.0014338118723245456
 -0.005007815877004103 0.016563896484496035
 -0.33724847147644826 0.031389312754296704 -0.006541308104609687 -0.02870673702036807 0.06990149995648132 -0.1255942382705214 -0.005007815877004103 0.016563896484496035
 0.006823640435302693 0.014848569288952942
 -0.08322719693612181 0.3437713799100383 -0.017685287497254207 0.0013632088529562311 -0.005159862149362951 0.016877959872061074 0.02638186088118183 -0.20769603709504164
 0.028582872136578168 0.0024925987008427805
 0.17901227484531904 0.27410458128353044 -0.005159862149362951 0.016877959872061074 0.0069159569066199605 0.014880662026867194 0.028125909539541943 0.0022827209119463438
 -0.02670569787390383 0.03490312044611315
2090000000.0 0.043171650574502646 -0.1489098772085562 -0.18712644637965758 -0.2898290997946192 -0.33518652876200883 0.06261771453148814 -0.050830164503903756 0.34550432335750897
 0.20667320419580643 0.25673893571782636
 -0.18731189104318696 -0.28944726544453714 0.04541126378935728 0.06052424075694265 -0.010129168327047453 -0.027782489039701996 -0.016792635239675564 0.0044566494955391705
 -0.0021131348944622495 0.01707963980013523
 -0.33323704533906146 0.06145291190940023 -0.009960588269540363 -0.027665128690856352 0.062115716758612154 -0.1299294206405631 -0.0021131348944622495 0.01707963980013523
 0.009450606338012233 0.013294248475066436
 -0.05298306304221501 0.35009902345701127 -0.01706456782356091 0.004439952751674495 -0.0021809914597878625 0.017435540239854646 0.01902606552989828 -0.20793003112775757
 0.028785342042285205 -0.0011908991046510422
 0.20625952420497143 0.2557092113402731 -0.0021809914597878625 0.017435540239854646 0.009499990059641939 0.013308410912130355 0.028308974565319212 -0.0012950413798985788
 -0.018863627748272598 0.0281468329529095
2100000000.0 0.035795539065048704 -0.14281416297247806 -0.21290977780953685 -0.272045244251534 -0.3285123540504328 0.09237264392653363 -0.020488214850638745 0.3488937908433691
 0.2319664931743133 0.23554953390808211
 -0.21308633577778618 -0.27169539861197645 0.0510030043939702 0.05432479851599541 -0.013463971087716601 -0.026332594215316127 -0.015650241997909802 0.007305667223798964
 0.0008745113082293234 0.01712477213618994
 -0.3266338673087588 0.09102927277224601 -0.013293948912979081 -0.026190174479805258 0.054171616713613084 -0.13348004293332535 0.0008745113082293234 0.01712477213618994
 0.011713251671136881 0.011271067403906909
 -0.022250661666386232 0.3538176675743854 -0.01592280466146882 0.007331585750906534 0.000871884592851505 0.017476564560110423 0.011952033864227508 -0.20799325320673273
 0.028555679667129703 -0.004903681880537573
 0.23153559758416936 0.2346340200577133 0.000871884592851505 0.017476564560110423 0.011791066447821335 0.011286514090681174 0.028028742866214186 -0.004976976315513326
 -0.0120345913637951 0.020708829016330137
2110000000.0 0.029487002173690373 -0.1360154698325458 -0.23697655007777868 -0.2519751689204331 -0.31910736764326997 0.12141461540716987 0.010022011492206053 0.3495808361476816
 0.2550482107281308 0.21190723265788447
 -0.23709792756549122 -0.25167788438461963 0.05600147546712623 0.047683911920548154 -0.01659860262011396 -0.024450428862437548 -0.014036144033580278 0.00992831619480581
 0.0038071205103866663 0.016683950250132373
 -0.3173797264528874 0.11992470308958572 -0.016390897777622513 -0.02433078576969388 0.046280468457028295 -0.13648963065920278 0.0038071205103866663 0.016683950250132373
 0.013605344576268365 0.00887875795394128
 0.008771444452728015 0.35463929705522124 -0.014241766381258396 0.009980521848495504 0.0038709717381164377 0.017020517040480247 0.005063483552442555 -0.20798838811006662
 0.027732995682082515 -0.00859941340361143
 0.25448181699747613 0.21107850058900093 0.0038709717381164377 0.017020517040480247 0.013674198253361672 0.00886345970208015 0.027253657163450466 -0.00863209964769936
 -0.0061257728716700615 0.0127787083212264
2120000000.0 0.024459044837258397 -0.1290413105263274 -0.25917254500238174 -0.22979153661327179 -0.30720028161762586 0.14951777983818812 0.040593065213003106 0.3475717311575066
 0.2756137821369958 0.1860019211963887
 -0.2592908357563678 -0.22952784760110428 0.06033269571868837 0.040704830424228636 -0.019422011053135266 -0.022178507326176437 -0.011981979148642699 0.012137684577968929
 0.006632797436573297 0.0156860259499216
 -0.3056323281402227 0.1478498647931004 -0.019225236501226664 -0.022058120127462964 0.03835619027851979 -0.13889670590811753 0.006632797436573297 0.0156860259499216
 0.01497337842036971 0.006153246476352631
 0.039741948264179996 0.35276754836170116 -0.012171933272170542 0.012260596589983868 0.006760844997926307 0.016008705039949875 -0.0017562664914386077 -0.20774684235955548
 0.02647094630380425 -0.012173456409121132
 0.27493984321866566 0.18521972373428122 0.006760844997926307 0.016008705039949875 0.01508280949531533 0.006137838729048847 0.025994496660749995 -0.012096389567034243
 -0.0013055089401274756 0.004373209027137563
2130000000.0 0.020530540447909394 -0.12225022951086804 -0.2793142923481443 -0.20572861723175612 -0.29282891575683484 0.1764406129535972 0.07085463256073378 0.34280822304387815
 0.29340459295746624 0.15812288836207256
 -0.2794297961678803 -0.2054779934172024 0.06411630257539515 0.03348071637744247 -0.021955357757583577 -0.019617072264808535 -0.009608949969976882 0.013944789469703168
 0.009198003138643761 0.01423281564164959
 -0.29133857469354973 0.1746168526267778 -0.021768887781658548 -0.019547535229824445 0.03044101353709344 -0.14068854225914557 0.009198003138643761 0.01423281564164959
 0.015814921716973233 0.003250486529567178
 0.07053422871501433 0.3480213765100488 -0.009790590559246191 0.01409757405774789 0.009387065905993034 0.014553423859581437 -0.008608537085390321 -0.20730801042632077
 0.024738710325873846 -0.015544825594043658
 0.2926910697785002 0.15751342359316967 0.009387065905993034 0.014553423859581437 0.01589158953735 0.0032092402095081586 0.024277959239555186 -0.015386258772749623
 0.0025582429687405427 -0.004274161573645582
2140000000.0 0.01737911983898904 -0.11570006597935456 -0.29713280364890415 -0.1798567567148907 -0.2760233918474855 0.20189247425433418 0.10052018856492224 0.3353369641825632
 0.308283993440135 0.12858505116723076
 -0.29723688799331355 -0.17958442654195098 0.06724029940789042 0.02601190410588773 -0.024191172618317616 -0.01678206361922889 -0.006992857129406947 0.01533345896600937
 0.011510287017528882 0.01238768472339969
 -0.2746850617622221 0.19990187110456026 -0.023979657859904607 -0.016754038818908766 0.02253332540608982 -0.14186387684833762 0.011510287017528882 0.01238768472339969
 0.016131546221181705 0.0002486925434970008
 0.10068262482144484 0.3405590257800972 -0.007159926844245955 0.015507477025671585 0.011711288195789538 0.012662710699659558 -0.01530390012551698 -0.20666232503074347
 0.02263789767675498 -0.018645004395013515
 0.3075327599500598 0.12805520508830964 0.011711288195789538 0.012662710699659558 0.01617724488899154 0.00022308550556270196 0.022222710613016127 -0.01846253855089998
 0.005435239331353727 -0.013154738503096241
2150000000.0 0.014726772135411117 -0.10944928970023686 -0.31256903700872446 -0.15240634787475815 -0.2571215143294768 0.2257029245920154 0.1294894508328474 0.32529886308063305
 0.32013229870733667 0.09773435429537693
 -0.31265280494754105 -0.15218157268677365 0.06977742881214133 0.018230384238991718 -0.02607980827565052 -0.013718920475604598 -0.004217173103944254 0.016263323931651835
 0.013425492551543952 0.010200622855724912
 -0.25591249114853304 0.2236335765005791 -0.02590400965899917 -0.013689724403804497 0.014695155011066916 -0.1424773754088438 0.013425492551543952 0.010200622855724912
 0.015854385598170095 -0.0027107581069202146
 0.13005563422197106 0.33052137837420803 -0.004338728899529578 0.016472150086347035 0.01368386451107534 0.010449653669739739 -0.022103528986304837 -0.2058305780003796
 0.020170924310340996 -0.02151346244254675
 0.3193242861852282 0.09732196937218118 0.01368386451107534 0.010449653669739739 0.015912500260203466 -0.0027808202948116307 0.01972335983587297 -0.021275943396421613
 0.00733475406438204 -0.02220286594352828
2160000000.0 0.012579176793464552 -0.10314856755489893 -0.3254530214123248 -0.12371959714698802 -0.23621109780293068 0.24773681498758468 0.1574130305559535 0.31273780549616687
 0.32881300938299524 0.06590108368500784
 -0.3255217062817404 -0.12356256752316337 0.07157851038012122 0.0104003978769003 -0.027640347057913333 -0.010415797773604274 -0.001297283071412004 0.016717436905589942
 0.014978880889832328 0.007702548266340427
 -0.2351857739809788 0.24556052215817536 -0.02738307282464065 -0.010449323443901867 0.006995979551909032 -0.14263471217128773 0.014978880889832328 0.007702548266340427
 0.015068343855222396 -0.005620558349399794
 0.15842430755415782 0.3179771488335863 -0.0013736520015782262 0.016954361205519155 0.015286892442455851 0.00789020287584737 -0.028883347987388088 -0.20476937885090093
 0.017307477224856076 -0.02408187628000318
 0.3279701641125184 0.06556038359863939 0.015286892442455851 0.00789020287584737 0.015159222466744029 -0.005654413371409579 0.016892093684224157 -0.02377171577672064
 0.008248141102158166 -0.031133103474176832
2170000000.0 0.011024131793392847 -0.09708569871215222 -0.33561015863408106 -0.09403934378517657 -0.21344418979297947 0.26782578256986794 0.18406574153820124 0.2977554034334813
 0.33420010210800843 0.0333675842383688
 -0.3358066393456817 -0.09386517286690835 0.07274810174323099 0.0025067873572649567 -0.028735488754929157 -0.00696026672100554 0.0016670799860125343 0.016649122972730364
 0.01607397743415326 0.004996450352470501
 -0.2126021546438628 0.26555024117980186 -0.02851739976835304 -0.0069954580147667126 -0.0005805217510732142 -0.14220169762184348 0.01607397743415326 0.004996450352470501
 0.013771907542428985 -0.008293436522007931
 0.18563988839256823 0.30290869908248397 0.0016220846009215052 0.016893052297399035 0.016417830079441927 0.005117214895315408 -0.03576296003435142 -0.20346960336391504
 0.014102128477843763 -0.02624954569456988
 0.33342202193099696 0.03308911500181164 0.016417830079441927 0.005117214895315408 0.013821928916845113 -0.008371812591722242 0.013749015976642635 -0.02588136347531967
 0.008219309574839786 -0.03997819597509637
2180000000.0 0.00993796201511469 -0.09107231682819744 -0.34313001915365177 -0.06354180940974873 -0.18898042660810238 0.2858088698174272 0.20934548684911577 0.280518709985301
 0.33629524558762514 0.0004908102456536332
 -0.3432397191635455 -0.06335166556511633 0.0732648458368542 -0.005304957947670511 -0.029408477168844142 -0.0034009344256610103 0.0045521034389157085 0.016065059655732822
 0.016638154166440624 0.002098693721953565
