! Created with skrf 1.8.0 (http://scikit-rf.org).
# Hz S RI R 50.0 
!freq ReS11 ImS11 ReS12 ImS12 ReS13 ImS13
! ReS14 ImS14 ReS15 ImS15
! ReS21 ImS21 ReS22 ImS22 ReS23 ImS23
! ReS24 ImS24 ReS25 ImS25
! ReS31 ImS31 ReS32 ImS32 ReS33 ImS33
! ReS34 ImS34 ReS35 ImS35
! ReS41 ImS41 ReS42 ImS42 ReS43 ImS43
! ReS44 ImS44 ReS45 ImS45
! ReS51 ImS51 ReS52 ImS52 ReS53 ImS53
! ReS54 ImS54 ReS55 ImS55
!
2000000000.0 0.1137380645221211 -0.14712723937025518 0.08095351045438975 -0.33186327369004376 -0.341479243002867 -0.05998219838197837 -0.15642654259190675 0.26287038279041225
 0.2785250622556823 0.16956381218903588
 0.08061274563651423 -0.33166958608782265 -0.022981095777139915 0.0885211280052145 0.008882119507132979 -0.029950060349478898 -0.00975527440283061 -0.013538697886248447
 -0.012832488382217441 0.010879499849499565
 -0.3390923279970037 -0.060625416963345946 0.008922692290536273 -0.029711677127426266 0.17068186528678048 0.014940854086137321 -0.012832488382217441 0.010879499849499565
 0.010468532853355394 0.01446006002292832
 -0.15961467331712123 0.26579597909124436 -0.009805189825266656 -0.013784719734921524 -0.013082873029187715 0.01109494186496914 -0.1686107431260211 0.06527889458785444
 0.02180109540164462 -0.013306114232250338
 0.2777752020286202 0.16881011723008474 -0.013082873029187715 0.01109494186496914 0.01052306642194964 0.014477380517212266 0.02141057812480165 -0.013184817720250794
 -0.014044071773622241 0.11425187460623655
2010000000.0 0.10244682691009495 -0.1467343089638382 0.05038168890226551 -0.33866883241246803 -0.346145889779114 -0.029668902469759405 -0.12978192727762305 0.27845970692671357
 0.2956549607744338 0.14188793940961733
 0.050113309531676586 -0.3383098070472171 -0.014524138222642745 0.08822355976536313 0.005304547319215596 -0.0306261768320413 -0.012039717872697956 -0.011366343875236442
 -0.01049995724465723 0.012992334359125427
 -0.3440030575688235 -0.030519243547687223 0.005378481217075187 -0.030413262916170705 0.16921345054560225 0.0058746392317797795 -0.01049995724465723 0.012992334359125427
 0.012861700159542156 0.012199427349234097
 -0.13274229439119536 0.2816891367468647 -0.01216633374762701 -0.011577982320009518 -0.010705636700460736 0.013215431252952516 -0.15727951002048327 0.07285722959640188
 0.01991155008245808 -0.016185820236610596
 0.2946924994783112 0.14125689175691036 -0.010705636700460736 0.013215431252952516 0.012945333230920727 0.01219296201289819 0.01951751623748484 -0.01599365899720938
 -0.00175787577325301 0.10648864108647521
2020000000.0 0.09144487623946124 -0.14486385530044646 0.01927748296866448 -0.3425380738608595 -0.3479181606896804 0.0009936767263219587 -0.10169463104080974 0.29129902604659735
 0.30980485796239704 0.11249481020025259
 0.019005779485261123 -0.3421555830815326 -0.006062679922018703 0.0871905339397021 0.0017213021793471151 -0.030918228553450687 -0.013843020928562743 -0.008864161373058762
 -0.007868788325811454 0.01460700532434065
 -0.34592417568716616 -1.2437282611075795e-05 0.0017983378512900897 -0.030732982514900496 0.16725639657139918 -0.0029450458367656198 -0.007868788325811454 0.01460700532434065
 0.014797414243492806 0.009611743920387716
 -0.10436803567715577 0.29494446143937497 -0.01403642507991091 -0.009055826884967647 -0.008055897176408141 0.014908434968778791 -0.14566226666081705 0.07942437398770859
 0.01770516781009836 -0.018785972970623156
 0.3087920777772512 0.11195533209078236 -0.008055897176408141 0.014908434968778791 0.014859207407437286 0.009566962045537693 0.017314574058260087 -0.018575734028696597
 0.009538108719561835 0.09821340386047384
2030000000.0 0.08123991485694373 -0.14175610017350493 -0.012127571876013992 -0.3434048808377319 -0.34707820016669433 0.03175871695801167 -0.07236569422976083 0.3013837931904795
 0.3208350033972009 0.08167009842760384
 -0.0123393981947689 -0.3431089517887091 0.0022814250850330376 0.08532779478858199 -0.0019101742407761095 -0.03087702375405823 -0.015238773612228099 -0.006038765051275756
 -0.0050208731911179656 0.01575527613514149
 -0.3451197911302862 0.030612429100550557 -0.0018101326758448051 -0.030696231316544236 0.1648970631680929 -0.011495856468951189 -0.0050208731911179656 0.01575527613514149
 0.0162273992789952 0.006696589399714683
 -0.07471111927860037 0.3052136981342808 -0.015435185893490464 -0.006223475660925498 -0.00514392828769474 0.016077851541802073 -0.1336680092090073 0.08478078873239824
 0.015131533864117993 -0.021125476589406066
 0.31988968442558485 0.08127436643711831 -0.00514392828769474 0.016077851541802073 0.016322043368206758 0.0066728583252210535 0.014775299732211476 -0.020873267742508122
 0.019693804050925048 0.089333048519122
2040000000.0 0.07198802331460284 -0.13777074122627075 -0.043525921204438836 -0.3414672002195816 -0.34341754096645377 0.062405396034563305 -0.04209089909273254 0.30841681488848505
 0.32873056146369073 0.049818508912533754
 -0.04379252424253588 -0.34125296147487993 0.010377969445211068 0.08272535039336627 -0.005609590530650494 -0.03038091333391211 -0.016078960538095387 -0.0029912185818235155
 -0.0019517468511763745 0.016390609944860093
 -0.3416058180127595 0.061097131816979136 -0.00545194482315 -0.030203836455402304 0.1622660451974313 -0.01966391733341463 -0.0019517468511763745 0.016390609944860093
 0.017131912116748877 0.0035200127092882157
 -0.04401277183841686 0.31248989313334957 -0.016301889584931135 -0.0031222621304045606 -0.002011480093051345 0.01669578362908833 -0.12141131167779366 0.08893672801799676
 0.01219661018596606 -0.023183845949350256
 0.32781873747733664 0.049474391968335814 -0.002011480093051345 0.01669578362908833 0.017210629579057366 0.0034849638497889265 0.01186841061122298 -0.022863817657236798
 0.02874701222009191 0.08007919841510748
2050000000.0 0.06375054585955757 -0.1331797924396599 -0.07470466077975456 -0.3366725584246596 -0.33705648090366597 0.09269027124133326 -0.011137808087395073 0.31237028111384163
 0.3334287792170687 0.017239329146513653
 -0.07495134260613932 -0.33636822350105705 0.018127370908964924 0.07938823046207003 -0.009224623616892195 -0.029378676697178672 -0.016291400173689987 0.0001523473611532947
 0.0011917967820968443 0.01635600620303539
 -0.33531285784844783 0.09124257939595261 -0.00909508157760286 -0.02923987298712512 0.15944018180622055 -0.027585283788068207 0.0011917967820968443 0.01635600620303539
 0.01740784319832382 0.0002335534107916902
 -0.012640480779135163 0.31670032440251594 -0.016503191200999006 7.652281312075394e-05 0.0011773265757544942 0.01667695164650632 -0.10907057640480941 0.09179296680485068
 0.008903449962343138 -0.024767671076405835
 0.33241640850499715 0.016945113878427506 0.0011773265757544942 0.01667695164650632 0.017455137759308396 0.00017497558144490157 0.008629587128289234 -0.02440351319001739
 0.0368007715471944 0.07060366572143986
2060000000.0 0.05641286569221361 -0.12813383779673515 -0.10536676687541789 -0.3289576520922488 -0.3278970966835208 0.12231125358746577 0.02009345370478665 0.3131693507548947
 0.3347843421607381 -0.01570974201642213
 -0.10557758381645298 -0.32848679421901433 0.02552142504684161 0.07548006251162273 -0.012702717797137743 -0.027945519238419612 -0.015825664961349493 0.003226185752027831
 0.004175597436955509 0.015735445657167575
 -0.3262117784897029 0.12070415967556945 -0.01252230452845673 -0.0278305303138119 0.15637183458414444 -0.035259671778606755 0.004175597436955509 0.015735445657167575
 0.016999455711627753 -0.002953113771394321
 0.019055395459888772 0.3175480559207604 -0.016062400723987066 0.0031872470743198006 0.0042561379855450485 0.016087128721708727 -0.09669035970029213 0.09347531972516133
 0.005415893694327827 -0.025871917608985898
 0.3337068901903814 -0.015934834465961376 0.0042561379855450485 0.016087128721708727 0.017073048575870765 -0.003027298675559651 0.005205032310072747 -0.02546752542557325
 0.043918639564499755 0.060912945183338105
2070000000.0 0.04997711832895888 -0.12263803290358923 -0.13522089155374417 -0.31832378334094846 -0.3161349097743103 0.15106606102344436 0.05135351433999344 0.31080289484357737
 0.33274986035359266 -0.048738010922513675
 -0.13538109406147333 -0.31788823265102 0.032540193698812364 0.07096432179473679 -0.01588728028307145 -0.02608996327127765 -0.01480569919015828 0.006111358568667674
 0.006966454555072264 0.01458959364176746
 -0.3145467670323771 0.14931876752707712 -0.015694573430389578 -0.025972690161001302 0.15315771832699848 -0.04277316875534405 0.006966454555072264 0.01458959364176746
 0.016032633903055333 -0.005964640556971964
 0.05069208166891397 0.31528032642314696 -0.015043570220895267 0.006129732675291641 0.007078012994207655 0.014890991603978465 -0.08437528950044174 0.09406471121848926
 0.0018682638236586701 -0.026422782215768468
 0.33169717841623964 -0.048867242426301936 0.007078012994207655 0.014890991603978465 0.016090137057006057 -0.0060573094792690995 0.0016963739960576105 -0.02601323520420195
 0.050190537119726195 0.05092931075532289
2080000000.0 0.04444964520069199 -0.11691412748438204 -0.16391022823086737 -0.30500899614299254 -0.3017392129206899 0.17862497194089133 0.08222572315156697 0.30526537896475153
 0.3274299618578539 -0.0814203749637736
 -0.16406168828744205 -0.3045524762896169 0.03913615232445892 0.0658551387247767 -0.01883538300349375 -0.023912495627323817 -0.013316997799106991 0.008730145624637007
 0.009442241856845498 0.012987518730898472
 -0.30035897662844113 0.17680959803514426 -0.01867326657555345 -0.023852506496042866 0.14963397020483413 -0.05000626502337289 0.009442241856845498 0.012987518730898472
 0.014654892915911948 -0.0087617295424989
 0.08204211187133999 0.30985103688479826 -0.013567062458758541 0.008780695490268577 0.009609737553748398 0.013254374182809104 -0.07215132345435807 0.09356224360198986
 -0.0017598307518822056 -0.026600918436930552
 0.32628480806011345 -0.08145196896272192 0.009609737553748398 0.013254374182809104 0.01465192510660956 -0.008824349014345676 -0.001821348262113024 -0.026146908083843193
 0.05538393853290468 0.040834054639199355
2090000000.0 0.03975878380365286 -0.11089303500675704 -0.19115116343589614 -0.2889920570897654 -0.2849941681119068 0.20478938629600377 0.11243616852759424 0.29668374564157335
 0.3187607344927777 -0.11335854624616991
 -0.19133978950305033 -0.28856162472468666 0.045249113400384115 0.060159086464928464 -0.021556927868826722 -0.02145657047877675 -0.011406922675458595 0.011009901998830432
 0.011622014661002142 0.01103233362242124
 -0.28365703864870545 0.20289643407304783 -0.02135335380519479 -0.021401514426906278 0.145984413764921 -0.056956629357557326 0.011622014661002142 0.01103233362242124
 0.012761055718788774 -0.011223711082060541
 0.11274720640268457 0.3012393498121914 -0.011644495996788965 0.011127811507866332 0.011840049163855114 0.011266868918126055 -0.060074998544937364 0.09198866961694428
 -0.005360134054227727 -0.026260751594803667
 0.31761939791683846 -0.11331204630513866 0.011840049163855114 0.011266868918126055 0.012773424199273511 -0.011303967361300567 -0.005404074746450395 -0.0258147683589032
 0.05968321816773069 0.03071716538295472
2100000000.0 0.03590280779422395 -0.10452390489037443 -0.2168499937226679 -0.2706530945936056 -0.2659055270930374 0.22938625502645446 0.14169317328908135 0.2850428440572693
 0.3069054444250578 -0.14425507745901972
 -0.21699983633478673 -0.2702595417107193 0.05076955275669888 0.053982492173556544 -0.023996610212588188 -0.01865881214410417 -0.009101327503947034 0.012946550280505871
 0.013440930628619245 0.008724794407896164
 -0.2647430850848187 0.2273174155377883 -0.02379012955855706 -0.018596182510242983 0.14216507308355505 -0.06351156278468097 0.013440930628619245 0.008724794407896164
 0.010480446876182886 -0.013355175528938655
 0.14251349911464167 0.28966460912980085 -0.00928390239372593 0.013080349322766022 0.013685336148755462 0.00889527837758908 -0.04828320421576469 0.08935143631106925
 -0.008959159544377348 -0.025447773603180804
 0.30583931998418973 -0.14411398289460303 0.013685336148755462 0.00889527837758908 0.01046278503598575 -0.013408984484457041 -0.008958785051181079 -0.025006173180655105
 0.06312251990557358 0.020643149687121526
2110000000.0 0.03316893333310965 -0.09788172111571676 -0.2407828603165885 -0.2500447511204963 -0.2446720554751346 0.2521577010051635 0.16971687299661337 0.27058194356738835
 0.2920805060317224 -0.1738788709234552
 -0.2409019284349229 -0.24969426458165442 0.05571056832847722 0.04741531134093944 -0.026053222672132816 -0.01553990490956754 -0.006481613620070223 0.014379024056693755
 0.014810498965307234 0.006052577749343027
 -0.2437101575594595 0.25004796582450434 -0.025864514300560977 -0.01552496734944366 0.13833122525244435 -0.06985318238672182 0.014810498965307234 0.006052577749343027
 0.007836166965818405 -0.015001330564788858
 0.17100658581836475 0.2750341530229906 -0.006608494669864347 0.014559611043959048 0.015085686763169263 0.006221351427843751 -0.03690886762051199 0.08574014939240403
 -0.012503411634624461 -0.024129833725410027
 0.2911340198482055 -0.17364527803445903 0.015085686763169263 0.006221351427843751 0.00780741892202034 -0.015090115400490517 -0.012399871418552437 -0.023697325623633494
 0.06596345547234296 0.010655620891205388
2120000000.0 0.03172339313540875 -0.09124347718630166 -0.26275425798267865 -0.2273070036471643 -0.2214171597570329 0.2729952773709552 0.19614225011031347 0.2532195502560968
 0.27437399745032054 -0.2019045778290215
 -0.2628284634220614 -0.22697177008605265 0.060009519660168396 0.040484983230088846 -0.02771177737985942 -0.012212188932244189 -0.0036225234607822707 0.015272373151151188
 0.015573744473936092 0.0032378267073207693
 -0.22070964133225507 0.270806519872696 -0.0274894222588851 -0.012238849378040975 0.13435098632587195 -0.07595940546069538 0.015573744473936092 0.0032378267073207693
 0.004916477255565746 -0.016140581599164372
 0.19792407763098763 0.25770225195782864 -0.003747244350280045 0.01546893191642163 0.015921392026805526 0.0033271636507212357 -0.02613382678962816 0.08138801824450403
 -0.015807931977654587 -0.022309256597762474
 0.2734388904502721 -0.20150649550507063 0.015921392026805526 0.0033271636507212357 0.004921578924150342 -0.016229141272281804 -0.015626596951367252 -0.02186004746320304
 0.06802425398340281 0.0006398629913952407
2130000000.0 0.03138160446056763 -0.08499301170926246 -0.2825411592065925 -0.20268041046779303 -0.1964267147989763 0.29165874408824666 0.22071550934340625 0.2334237231384145
 0.2539916293289779 -0.2279640086460723
 -0.282615875080588 -0.20244323554608187 0.06370529055339415 0.03331087625146268 -0.02893917454649356 -0.008742179208518362 -0.0006824904142026482 0.015607421884912967
 0.015849219520142406 0.00031538824987299176
 -0.19586013492388132 0.2893558933786005 -0.028754835450422185 -0.008784941354470452 0.13022218127010832 -0.08185141179158043 0.015849219520142406 0.00031538824987299176
 0.0018840088668678123 -0.016720454760877284
 0.22290897689948203 0.23762044895716372 -0.0007605266714754144 0.015818859219130146 0.01617905438004034 0.0003248341228455733 -0.01598060525512027 0.07631676201700545
 -0.018799616156408107 -0.02005036364112404
 0.2531544965174184 -0.22750978452396906 0.01617905438004034 0.0003248341228455733 0.0018353165193393914 -0.016788376736212755 -0.018577033562032816 -0.01962380207275807
 0.06945630186177304 -0.009250228036514476
2140000000.0 0.031793554278197196 -0.07930884814445008 -0.2999211661106123 -0.1762236426510601 -0.1698032929099675 0.30795882110738504 0.24318342705425586 0.21119200077564912
 0.23110322057482782 -0.25181502870339806
 -0.30006380778009145 -0.17600028293314607 0.06684329013584552 0.025902989946492105 -0.02976570819930326 -0.005141377060685118 0.0021993345806866093 0.015413268153781214
 0.015618293627070427 -0.00257444842788093
 -0.1694295139853696 0.30551040498670207 -0.02958013379118069 -0.005212219841095884 0.1258963085169154 -0.08739022840520125 0.015618293627070427 -0.00257444842788093
 -0.0011849890884962255 -0.016752339015503596
 0.24584431695212 0.21518149141520668 0.002176287895062896 0.01566323534116816 0.015940781809570474 -0.002625939365159354 -0.006423509433123791 0.0704742963129021
 -0.021519547210947135 -0.017405207349279344
 0.23036277246371406 -0.2513113506728606 0.015940781809570474 -0.002625939365159354 -0.0012568770418203278 -0.016828574663912813 -0.02121637420011625 -0.017003589263623862
 0.0701948297162195 -0.01902256556355291
2150000000.0 0.03278801560272189 -0.07419674340563609 -0.3149087869220142 -0.14840407247033316 -0.14191597877366116 0.321790478047044 0.263360130058616 0.1868311620082988
 0.2060834577940804 -0.273277811318303
 -0.31494918798119825 -0.14809454759898594 0.06934615870664539 0.018217752366201843 -0.030196653698549174 -0.0014992578523545348 0.005019973857934198 0.014711794537950289
 0.014866538990958562 -0.005396135131571053
 -0.14170159538259805 0.31933497674895617 -0.029990417064994487 -0.0015701460576446166 0.12144668019261265 -0.09273986831886304 0.014866538990958562 -0.005396135131571053
 -0.004205876932328695 -0.016207931237980724
 0.2664013875807668 0.19058708481172618 0.005035743332463403 0.014973606365973717 0.015196853885079808 -0.005492559915259142 0.002284499702795324 0.06401587468882856
 -0.023870443558654447 -0.014390947902048227
 0.20537996979364395 -0.2726947352915601 0.015196853885079808 -0.005492559915259142 -0.0042750322802278745 -0.01631024000446406 -0.023553325685501458 -0.014042104425475451
 0.07041737168126921 -0.028677137229593898
2160000000.0 0.03436043392447342 -0.06934663773802162 -0.3272573457841609 -0.11929987378051074 -0.1129376066953668 0.33302691243717286 0.28103649340018155 0.16062256335961703
 0.17918426368397775 -0.2922400011287876
 -0.3272402931907691 -0.11906588462384228 0.07116237549313274 0.010465432299913584 -0.03018592281536927 0.0022498394694064686 0.007695845544492304 0.013506179889990118
 0.013657967862262256 -0.008005630111823066
 -0.11291584807481117 0.3305873851435823 -0.02997962713977356 0.0021185960220449834 0.11690841724369831 -0.09784183871263076 0.013657967862262256 -0.008005630111823066
 -0.007108277579037596 -0.015189686604763263
 0.2844779085483216 0.16407429039297144 0.007742602255064141 0.013744105019961797 0.013949874635801437 -0.008159352511792973 0.010158473992107548 0.057065222822169775
 -0.025816046990796263 -0.011051094199095007
 0.17856660231209343 -0.291598898774652 0.013949874635801437 -0.008159352511792973 -0.007146572182016035 -0.015263925873046938 -0.02542500029756588 -0.010784223909076284
 0.07008858975525828 -0.03805849502700898
2170000000.0 0.036448228419285474 -0.0651719123580264 -0.33670505775663195 -0.089283087450733 -0.08309098542194428 0.34165747625313947 0.29598316482841663 0.13279721519266752
 0.1505209401651201 -0.30833933789114876
 -0.33684670724395116 -0.08908006696558299 0.07234957279074876 0.0026525111474588556 -0.02965796582945306 0.005886395735351364 0.010084314532506852 0.011841960072315074
 0.011940558100637665 -0.010389137946130726
 -0.08328341333302006 0.33923749845560036 -0.029509058155932893 0.005770772150925468 0.11218028620392247 -0.10278456503617166 0.011940558100637665 -0.010389137946130726
 -0.009768591131395781 -0.013652596365370362
 0.2998574204583953 0.13590680329084862 0.010164681297169142 0.012050272656880025 0.012204865716114082 -0.01060437737874532 0.017121365721617626 0.04964473777451414
 -0.027248088257125422 -0.007436626847171191
 0.14999709195567648 -0.3077447930745133 0.012204865716114082 -0.01060437737874532 -0.009839096840302685 -0.013683206615851878 -0.026875283925837972 -0.007202291524739533
 0.06925452775949334 -0.04737916575449424
2180000000.0 0.03902830015246704 -0.061493842509509324 -0.3434829626705958 -0.058542399832965136 -0.052606393522386795 0.3475537903958339 0.308179180900577 0.10366406753421471
 0.12052068466706328 -0.3216441886827461
 -0.34354905880258685 -0.05828584944062925 0.07288257648309472 -0.005095536482199089 -0.02877335318294743 0.00946188332936806 0.01211389154092892 0.009754233531149896
 0.009789012569704963 -0.012420447699086495
