! Created with skrf 1.8.0 (http://scikit-rf.org).
# Hz S RI R 50.0 
!freq ReS11 ImS11 ReS12 ImS12 ReS13 ImS13
! ReS14 ImS14 ReS15 ImS15
! ReS21 ImS21 ReS22 ImS22 ReS23 ImS23
! ReS24 ImS24 ReS25 ImS25
! ReS31 ImS31 ReS32 ImS32 ReS33 ImS33
! ReS34 ImS34 ReS35 ImS35
! ReS41 ImS41 ReS42 ImS42 ReS43 ImS43
! ReS44 ImS44 ReS45 ImS45
! ReS51 ImS51 ReS52 ImS52 ReS53 ImS53
! ReS54 ImS54 ReS55 ImS55
!
2000000000.0 0.12226293202513695 -0.19584514621441504 0.08394838677199533 -0.33061879172985914 -0.3360428198007384 0.06657849801852965 0.07897509564922404 0.2970776348087847
 0.2652145618513409 -0.21123656895011333
 0.08358068828140258 -0.3303676723278763 -0.023216378384708494 0.08877667777296153 -0.002549523518381688 -0.030739294202243122 -0.01652904830828297 -0.0025256035163199538
 0.004893593923495924 0.016011325692494704
 -0.33414365878741625 0.06517103497323062 -0.002412160683216875 -0.030591234887779345 0.130183386992345 -0.14829486495569735 0.004893593923495924 0.016011325692494704
 0.014634335979934054 -0.011182289404043495
 0.07880934260897207 0.3013925879079329 -0.016746459390329635 -0.002652597315816277 0.004977320949211898 0.016365060721566 0.02977644341213357 0.10458094945216495
 -0.022448089146637762 -0.014338432467275416
 0.2642392311258369 -0.21073599631470338 0.004977320949211898 0.016365060721566 0.014634739002779935 -0.011256238553350414 -0.02215100707290174 -0.014005671805618613
 -0.0983228833073266 -0.13592950201996912
2010000000.0 0.10424424655528129 -0.19484384457745804 0.053497360261212046 -0.33802654414652306 -0.3298969813191273 0.09600847861662867 0.10910460230825536 0.2891621951411635
 0.24460918125079353 -0.23624290870288944
 0.05318533283160737 -0.33760761446415205 -0.014645365223415056 0.08847021375041457 -0.006034384216511058 -0.030125172391269366 -0.016574904316085135 0.0006413935489432927
 0.007734339586821707 0.014736193276382288
 -0.3281856801132603 0.0944965687385759 -0.005939259572231485 -0.030000124372257703 0.12164878358209971 -0.15323622847298252 0.007734339586821707 0.014736193276382288
 0.012259419533580413 -0.0135360074548703
 0.1093302232105636 0.29350615251931333 -0.016800455607412057 0.0005642973900728012 0.007869247769722313 0.015016960827535238 0.04377508060513651 0.09507723796044378
 -0.02415183588215891 -0.011294086514522536
 0.2436436467976747 -0.2355449290625717 0.007869247769722313 0.015016960827535238 0.01223604187543171 -0.013622905766315847 -0.023815864013992404 -0.011010149248653013
 -0.10103117456025024 -0.13362423836287554
2020000000.0 0.08697455429047812 -0.19143577201065007 0.02238030841127594 -0.34247284753778173 -0.32091919195770213 0.12484920443880705 0.13831670118423622 0.2780380130978183
 0.22157868598469416 -0.25897961033553024
 0.022092355368634832 -0.3420602843773196 -0.006149151755762097 0.08744666640976426 -0.009454775615045988 -0.02914541187486226 -0.016061237897549 0.003736834301335719
 0.010236511817981185 0.012954863244792253
 -0.31939975530921466 0.12321133263718564 -0.009299504910702399 -0.02904499298832299 0.11293542419352301 -0.1574622176928154 0.010236511817981185 0.012954863244792253
 0.009575607712696185 -0.015360656263595531
 0.13903464289837136 0.28252591646013353 -0.01632185863742667 0.0037176401132177276 0.01041800404674995 0.013228223979791157 0.05658265483418005 0.08450945477303963
 -0.025469614719514783 -0.008090745962004436
 0.22066678770112957 -0.2582350402762975 0.01041800404674995 0.013228223979791157 0.009535369903720592 -0.015423600907005149 -0.025135763185713242 -0.007854254422194626
 -0.10348329590870674 -0.13110821320398103
2030000000.0 0.07085004541861148 -0.18609387194004534 -0.009132530251264016 -0.3439941591500178 -0.3093585860774315 0.15289252090738728 0.16633875996734687 0.2639354177415625
 0.19646940702276067 -0.2794090419019622
 -0.009358503150662742 -0.3436268276519067 0.0022218187921516277 0.08563834918507121 -0.012795589718279375 -0.02782020842464231 -0.015036434381036351 0.006685968459106541
 0.012430530066826645 0.010796561683608857
 -0.30798295636845524 0.15113125951784967 -0.012601350486358081 -0.027692102557350634 0.1042462277234385 -0.1612444310348796 0.012430530066826645 0.010796561683608857
 0.006606686999495082 -0.01673251585146068
 0.16750621845775185 0.26837955489525644 -0.015265695303789194 0.006697377816730651 0.012652186564636991 0.011041343270439511 0.0680098938010108 0.07277527271050176
 -0.02640728140572832 -0.004695104224321949
 0.19564876720576221 -0.2786472258370982 0.012652186564636991 0.011041343270439511 0.00658488251381377 -0.01680064931910611 -0.025986159129836775 -0.004496856761643115
 -0.1057381778909648 -0.1285045500346442
2040000000.0 0.05617883490703795 -0.17920639661166507 -0.040758853777890514 -0.3425680538710412 -0.29532087310358457 0.17991079752516467 0.19284358612390126 0.24702380622039719
 0.16954605611899626 -0.29745162476575215
 -0.04101275292970057 -0.3423166347298399 0.010396858455907064 0.082996180939505 -0.01601215547236206 -0.026076484665188474 -0.013428685599470863 0.009393027378441665
 0.01417561743521624 0.008253954770752253
 -0.29407437057435165 0.1780074274832358 -0.015816426308454767 -0.02599003479261597 0.09570436517713202 -0.16452954416546572 0.01417561743521624 0.008253954770752253
 0.0034405469248470336 -0.017564953466034674
 0.19446873340075718 0.25134208501530103 -0.013660618647581084 0.009489222819262675 0.014439693407248015 0.008438637589701438 0.07803872301381923 0.060195359602049366
 -0.026926701616107326 -0.0011863290779568695
 0.16883538543889878 -0.29663710215594075 0.014439693407248015 0.008438637589701438 0.00335665603343906 -0.017607869217325225 -0.026437372370622172 -0.0010196324539290588
 -0.10768544162504655 -0.125960536221787
2050000000.0 0.043023363429082306 -0.171023426664795 -0.0722874572529458 -0.33829661599600563 -0.2788462583439149 0.20563668360235907 0.2175018232348623 0.2274170012933069
 0.14095805456019517 -0.312853203811279
 -0.07253722843573376 -0.3379087621838159 0.01821333932762761 0.07964938679819164 -0.018996719205268475 -0.02384591513038621 -0.011250546180673402 0.011756564476824116
 0.01538896386672633 0.005394700188518599
 -0.2777786624017257 0.20364562681628715 -0.01883315538330111 -0.02380886916622158 0.0872970525551054 -0.16741746073955419 0.01538896386672633 0.005394700188518599
 0.0001340432341525621 -0.017761088660110516
 0.21954416434003554 0.23148896494831483 -0.011507826760106529 0.011882934742207259 0.015702695821074492 0.005497869040750069 0.08666106625563026 0.046920170355036324
 -0.026855761642113164 0.0024277098594078224
 0.14031971332245405 -0.3120242988379887 0.015702695821074492 0.005497869040750069 7.200375038802955e-05 -0.017800846168922423 -0.026409962273570432 0.002562767812949861
 -0.10941983893641044 -0.1235081699450865
2060000000.0 0.031426803027793083 -0.16174185769723354 -0.10330941508012721 -0.3309813861043351 -0.2599856287650347 0.2298889627944681 0.24005790588832712 0.20528970326046367
 0.11097965859528088 -0.32562201963178344
 -0.10355125151087154 -0.3304866169777395 0.025658753994891738 0.07569622187250083 -0.021661298885631324 -0.0213135072454639 -0.008762400381244094 0.013596443181844203
 0.015986801930167976 0.0023944539209445497
 -0.2590468722146692 0.22785210705882586 -0.021469515096366146 -0.02129808780506443 0.07902232011860766 -0.16998236322176724 0.015986801930167976 0.0023944539209445497
 -0.003072294316221287 -0.01732827760323996
 0.2425086952684104 0.209167670646756 -0.008986157126719418 0.013783922084807046 0.016298655722429847 0.0024494259594095165 0.09394139365925404 0.0330894951709748
 -0.026343809342718905 0.006024460416066259
 0.11033323537292422 -0.3245986325791608 0.016298655722429847 0.0024494259594095165 -0.003123331044086488 -0.01739459059144461 -0.02588200670547353 0.006073667699898063
 -0.11111941090198618 -0.1211988662614336
2070000000.0 0.02157410591893757 -0.15165650421010196 -0.1337071230747165 -0.3206378477404958 -0.23889551785423369 0.2522783437773204 0.26021984603777876 0.18089982041737795
 0.07977713892588593 -0.3352485272244847
 -0.13380150655493667 -0.32013851560763285 0.032684327645577015 0.07114948269667166 -0.023951144951713486 -0.018508837607722723 -0.005978526020460279 0.01488056023082827
 0.01598504121213451 -0.0006130368943740854
 -0.23813387875148156 0.25020385391391076 -0.02379366983458725 -0.018469482106398823 0.07087378199470412 -0.17225897351637967 0.01598504121213451 -0.0006130368943740854
 -0.006017933737834463 -0.01633564790838294
 0.26303868119864404 0.1845456462706908 -0.006163338152316706 0.015102090862358223 0.016296734141306578 -0.0005941277183079867 0.09988918926481184 0.018952809432987078
 -0.02530989960225923 0.009443719871260758
 0.07926499059156936 -0.3342910897027232 0.016296734141306578 -0.0005941277183079867 -0.006121450545879924 -0.016373835135095764 -0.024840582286659394 0.009431512898663346
 -0.11269082867099574 -0.11893256291495355
2080000000.0 0.013398915983197592 -0.14101752362753725 -0.16285744893361837 -0.3074535166404185 -0.21591472916709553 0.27272447080835066 0.277793264280786 0.15452228273717156
 0.04785073854391726 -0.34197100540304043
 -0.16297840756974236 -0.30692191643600897 0.039291074655033655 0.06598763568746184 -0.02593441351004666 -0.015452314951510513 -0.0030871919188769316 0.015681634294076836
 0.015522836675774684 -0.003475459020684283
 -0.21526982441071582 0.27059926785857774 -0.025767076580590416 -0.015476735874353968 0.06284655693316375 -0.17416580372821341 0.015522836675774684 -0.003475459020684283
 -0.008805262301813414 -0.014928646966711166
 0.28100147671278414 0.15790200731182624 -0.003200334677097685 0.01588126124999298 0.01580606320390243 -0.0035220851009945503 0.1045257536002965 0.00443737324461938
 -0.023888208912080048 0.012736642035332492
 0.04740437927852397 -0.3409319370324212 0.01580606320390243 -0.0035220851009945503 -0.008863043514030482 -0.014939596425062986 -0.023464568266536128 0.01264767319352931
 -0.11417721756399692 -0.11675826957539207
2090000000.0 0.006881052203147258 -0.12998711263876558 -0.19061110378221605 -0.2915924338181728 -0.19116901472892311 0.2910277859930669 0.2925628253029673 0.12652255758992018
 0.015311955696037065 -0.34552893701462084
 -0.19074049862565895 -0.2910751637244487 0.04542757520391399 0.0602544666015044 -0.027598050707833027 -0.01220880255526544 -8.280694524313651e-05 0.01591460343389809
 0.014511895560704447 -0.006229916945001286
 -0.19065539177955756 0.28884396539862683 -0.02739887480123747 -0.012239389723101037 0.05497452826127312 -0.17576340956966538 0.014511895560704447 -0.006229916945001286
 -0.011242327850567307 -0.01306781437499078
 0.29614706506698163 0.12954343035932303 -0.00014073570829409255 0.016181021088384227 0.014847875757896574 -0.006326387168392538 0.10791980201271648 -0.010215885997560372
 -0.022101600463198128 0.015854135786750292
 0.014949787272378336 -0.3444811543561452 0.014847875757896574 -0.006326387168392538 -0.011331143078132634 -0.013103601432374726 -0.021680033321799623 0.015717226448116368
 -0.11557113235816577 -0.11474478447380455
2100000000.0 0.0018722651049181045 -0.11863792059760347 -0.2167959736126085 -0.27321376228927774 -0.16480473250845495 0.3071212431781278 0.30437401528683794 0.09714032247558521
 -0.017389587050228257 -0.34593089293499774
 -0.21691463631863642 -0.27269741122112834 0.050948443699480456 0.05399286338684227 -0.028852752179607647 -0.00877629146035217 0.0029587344467281855 0.015623198432368984
 0.013097381896401599 -0.008778966410829704
 -0.1644470392239374 0.30478643817885653 -0.028643029078471507 -0.008809201776864267 0.04730658384317953 -0.17696731754016118 0.013097381896401599 -0.008778966410829704
 -0.013389107561892535 -0.01078397297784369
 0.30830122164319057 0.09977945484428917 0.0028995271612944525 0.015844379765647957 0.013361399959574395 -0.008915242132638442 0.10996707558451012 -0.024806197778467102
 -0.019831230546175395 0.018738657056473606
 -0.017675036339515865 -0.3449646076476051 0.013361399959574395 -0.008915242132638442 -0.01346245882340423 -0.010785856794211658 -0.019428929669735816 0.01854441606589988
 -0.11690651724825182 -0.11293238328574169
2110000000.0 -0.0013110369972773915 -0.10702620309094794 -0.24121317448149357 -0.2524873272877229 -0.13707762270476995 0.3207706503605319 0.3131671844732052 0.06667742079917569
 -0.050068707868191065 -0.34328712009790935
 -0.24124975277448385 -0.25210164120289663 0.05584930483172889 0.04741637346511919 -0.02969978911663375 -0.005166666984597757 0.005838839810165944 0.01472240946411682
 0.011171535741039533 -0.011013260559022483
 -0.13695461843131268 0.3184394559865079 -0.029476492711413213 -0.005211988963513679 0.03983030262347044 -0.17791667105764844 0.011171535741039533 -0.011013260559022483
 -0.015054948096237678 -0.008170676158964094
 0.3173311709708073 0.06890817234197283 0.005850667739847943 0.014956854353204693 0.011441968563924603 -0.011202638716497874 0.11079181547747735 -0.039193148096083597
 -0.01721953986594956 0.02133820726517727
 -0.05028471721976588 -0.3423050873693512 0.011441968563924603 -0.011202638716497874 -0.015130587387685822 -0.008154842205804693 -0.01681564868399327 0.021081754483708137
 -0.11820390689288787 -0.11136075098790991
2120000000.0 -0.0025946685422439143 -0.09559652168604531 -0.2636054753746172 -0.22958544343033996 -0.10812271173070487 0.331866580614466 0.3187502208863288 0.03551891902090627
 -0.08233175317787726 -0.3373599385097725
 -0.26357661706319263 -0.2291925592840392 0.060167898265228684 0.040484908445964814 -0.030019821695195792 -0.0015007152074596 0.008462787643322164 0.013300905055081214
 0.008910191975951947 -0.012809890878767625
 -0.10825925393884935 0.3294970133495937 -0.029836383232577812 -0.0015795226567998295 0.032491804847594695 -0.17871734087507404 0.008910191975951947 -0.012809890878767625
 -0.0162259660582417 -0.0052908935629719656
 0.3231982729956335 0.03737059003550727 0.008546567107642103 0.013545256985011396 0.009107869902568629 -0.013078701303144214 0.11042488200653248 -0.05317082204937083
 -0.014230249414169878 0.02351550197727043
 -0.08241756586926227 -0.33636598684691393 0.009107869902568629 -0.013078701303144214 -0.016297417891103443 -0.005265741351749126 -0.013896200882461051 0.023187613411398453
 -0.11963013111925176 -0.10997799579740222
2130000000.0 -0.0021168941042042804 -0.08479311705608338 -0.2837496056063343 -0.20467377328933267 -0.07832933528347492 0.34022535941503257 0.3211673016749583 0.004066353665164133
 -0.1138792531035735 -0.328441837105416
 -0.28376919368945464 -0.2043376800569629 0.06386627551193233 0.03326076378855733 -0.0299430123110395 0.002157126278708264 0.010803244396761315 0.011409078107049744
 0.006365176612152582 -0.014154354693661648
 -0.07862472214170473 0.3378805667933995 -0.02975952402280421 0.0020463449590541255 0.025222923307619518 -0.17914916055403932 0.006365176612152582 -0.014154354693661648
 -0.016844070173412506 -0.0023372329735819935
 0.3257581157882836 0.005408570687954879 0.010870639563845529 0.011610455560327533 0.006527052646556369 -0.014436023864957315 0.10888694584707585 -0.06677618104450929
 -0.01098271849968991 0.025280589133407545
 -0.11377117842728932 -0.3274766668981403 0.006527052646556369 -0.014436023864957315 -0.01691130299940198 -0.0022604061359303923 -0.010704740091156467 0.024931564749095927
 -0.12109474220208631 -0.10870315333514632
2140000000.0 -0.00036513769721339387 -0.07479044620916386 -0.30148044438281596 -0.17797459548821615 -0.04787921529907868 0.3458302002520059 0.32035627416767753 -0.027418381825349305
 -0.1443104759489083 -0.3165165218218239
 -0.3014764304232545 -0.17765272379865155 0.06693468798528647 0.02583431133470192 -0.029421213386645433 0.005781966556815801 0.012656163657350818 0.0091513336167981
 0.0036493461141515453 -0.015000141793622534
 -0.04837255979020523 0.3435406912919237 -0.029250530856358876 0.005655094471616878 0.017977305011643324 -0.17924505309256655 0.0036493461141515453 -0.015000141793622534
 -0.016928610841910625 0.0007009062076604931
 0.3250938977793024 -0.026540836407257018 0.012799444129109683 0.009341405135607413 0.0037488926127576196 -0.015299157499992567 0.10624974756176632 -0.07993854156104119
 -0.007547719911927318 0.026637671268186263
 -0.14408994681856188 -0.3155625937655054 0.0037488926127576196 -0.015299157499992567 -0.016988910590023637 0.0007878311881519043 -0.007297676292356075 0.026217969727303166
 -0.12260354234295506 -0.10753075591590269
2150000000.0 0.002574302991401376 -0.06569118311906756 -0.3166520127395039 -0.1497484089628335 -0.01711525166458192 0.34875086824559065 0.3164955521760531 -0.058608944739612
 -0.17341362470580388 -0.30180392173779075
 -0.31662598217639654 -0.1494538121242439 0.06941099936563117 0.01814432835936308 -0.028534584165999563 0.009297113170690041 0.014094767274098072 0.006616025957117416
 0.000873474268518497 -0.015361263179449218
 -0.017781126549700876 0.346448409958592 -0.02838534558853572 0.009163845672470689 0.010939928457948866 -0.17919360267931483 0.000873474268518497 -0.015361263179449218
 -0.01651197330826148 0.0037231144193301422
 0.3212842208549741 -0.058216017715650346 0.014296997340641751 0.006789677031622771 0.0009523635603842786 -0.015685487367776103 0.10243529054698093 -0.0925724472998485
 -0.003943561598760417 0.02752713461482995
 -0.17313927429548884 -0.3009682259600759 0.0009523635603842786 -0.015685487367776103 -0.016547502181894234 0.003816611232563119 -0.003750196261292086 0.027110043366083667
 -0.12416440010073909 -0.10655531746184946
2160000000.0 0.006470606232300065 -0.05730967602381804 -0.3291460171150431 -0.12028985795371783 0.013744997329303447 0.34879399357160634 0.30953135310383034 -0.08915647012225707
 -0.2009530309482858 -0.2844190508387613
 -0.32904148881026174 -0.12000199899764089 0.07119620284751003 0.010403358128856972 -0.027190584734535193 0.012740993864397795 0.015064211296619398 0.0038530855538519934
 -0.001955387002732041 -0.01524739075343535
 0.012872560809983283 0.3465316228640358 -0.02706211191279543 0.012569347016230891 0.003956413714750574 -0.17884020207082021 -0.001955387002732041 -0.01524739075343535
 -0.015565146846484931 0.006612159265631277
 0.31442255163604094 -0.08921939906089123 0.01527943343148763 0.003991037079519968 -0.0019615779620022916 -0.015561255123688902 0.09767524909567689 -0.1044545836038213
 -0.00018385839166222575 0.02794665937721644
 -0.2006298743431145 -0.2836459976889212 -0.0019615779620022916 -0.015561255123688902 -0.01563918657328397 0.006722943783479858 -7.384707440098379e-05 0.02750889433541286
 -0.12589065272500585 -0.10563543679149207
2170000000.0 0.011302665618446365 -0.05010026553637657 -0.3387369007809139 -0.0898588204695812 0.04444693619677908 0.3461819439570196 0.2995933706358962 -0.11874592130052496
 -0.22672967243663422 -0.26460546492666903
 -0.3388091146199669 -0.08961415258418452 0.07234778139562559 0.00258167813933857 -0.025414604641127832 0.015948467412351803 0.0155237103465103 0.0009905974863408048
 -0.0047065206709939736 -0.01462135068886073
 0.04342215818040476 0.3439996966648509 -0.025282492715873968 0.015773717047748485 -0.0029913625224995103 -0.17837399465997786 -0.0047065206709939736 -0.01462135068886073
 -0.014121295259259656 0.009310299129049373
 0.3045656175349242 -0.11934264883520539 0.015742045563698733 0.0010565589562356332 -0.004781009249495203 -0.01493479135305093 0.09189804294441804 -0.11568538938251398
 0.003574294237966729 0.027843353458081466
 -0.22639898018495344 -0.26387296754597406 -0.004781009249495203 -0.01493479135305093 -0.01417039597945516 0.009373522839044026 0.0036315110230662985 0.027396943464083563
 -0.1277938794843719 -0.10483215886367425
2180000000.0 0.016870131262966635 -0.04393976581310411 -0.34549811562591853 -0.05872378911947929 0.07480624894503968 0.3407808968492698 0.28693622366730265 -0.14711590595225668
 -0.2504771328056389 -0.24245633161451147
 -0.3454993904746169 -0.05849081186418225 0.07286921309415983 -0.005158445711923493 -0.023304579175152242 0.018947480334455803 0.015373159379982316 -0.0019214950590575222
