! Created with skrf 1.8.0 (http://scikit-rf.org).
# Hz S RI R 50.0 
!freq ReS11 ImS11 ReS12 ImS12 ReS13 ImS13
! ReS14 ImS14 ReS15 ImS15
! ReS21 ImS21 ReS22 ImS22 ReS23 ImS23
! ReS24 ImS24 ReS25 ImS25
! ReS31 ImS31 ReS32 ImS32 ReS33 ImS33
! ReS34 ImS34 ReS35 ImS35
! ReS41 ImS41 ReS42 ImS42 ReS43 ImS43
! ReS44 ImS44 ReS45 ImS45
! ReS51 ImS51 ReS52 ImS52 ReS53 ImS53
! ReS54 ImS54 ReS55 ImS55
!
2000000000.0 0.2094894483986535 -0.22657525602595627 -0.2730329477701537 -0.19982573862702996 -0.18139810579112087 -0.27234330880386676 -0.032285613094476424 -0.3312822465052623
 0.09421515948352122 -0.3195476288259636
 -0.27282430138805913 -0.1993227750054809 0.11121456089825897 -0.08766722649149644 -0.0031693686837775473 -0.029626295850868404 0.011731082042175744 -0.013997644818326431
 0.014866529668289353 -0.008707122212610772
 -0.1794065399619726 -0.2710793100916584 -0.003037694765755263 -0.029492210403751527 0.1938414385527527 -0.018881137666134157 0.014866529668289353 -0.008707122212610772
 0.0174730487830989 -0.0015061655239881526
 -0.031386230774350196 -0.335869544156705 0.011961384290048657 -0.014147084548938567 0.01517010153357522 -0.008880587388911194 0.04911598607501005 0.03267645903919291
 0.029030041608774055 0.0032238696678224023
 0.09362301718424762 -0.3185723881016236 0.01517010153357522 -0.008880587388911194 0.017532398159099197 -0.0015647336404761975 0.028558729879673086 0.0029973454919309046
 -0.03200933364104557 0.09053169652069759
2010000000.0 0.18837396122184305 -0.2364424328002917 -0.2907158256037197 -0.17546083628250905 -0.20536433092097756 -0.2559774824861845 -0.062460229884701554 -0.32802359717268786
 0.06539282519399928 -0.32795580189932877
 -0.29032342019688984 -0.17497965212368494 0.10607422853393494 -0.09701733372835414 -0.006502715276515983 -0.028909988671723837 0.00895939894616838 -0.015756284672793563
 0.01292820705121471 -0.011121627114593627
 -0.2033913916508155 -0.2550125840311537 -0.006384156375226364 -0.028780000302046558 0.19300512459553404 -0.031255973055262676 0.01292820705121471 -0.011121627114593627
 0.016770319526901296 -0.00454839156944283
 -0.0619108044963465 -0.3327529314699966 0.009156132273249946 -0.01593232535191884 0.013194653583949308 -0.011326031272486015 0.054317398225456975 0.0282980473489942
 0.029168492380325487 -0.00018692299632976512
 0.06497810075280312 -0.32671927387367933 0.013194653583949308 -0.011326031272486015 0.016798505502381503 -0.004632185950193284 0.028704646872904093 -0.00029824927812355955
 -0.02357295088222571 0.09131056459788962
2020000000.0 0.16670828937542234 -0.2439091116841981 -0.3059273271437136 -0.1493379167467717 -0.22767054703350784 -0.23738644201621764 -0.09233411846114105 -0.32199206704975303
 0.0358455592258398 -0.33357324716787434
 -0.3055783052827557 -0.1489093370792199 0.10023196605723834 -0.10581070326695001 -0.009718465894360834 -0.02785618222715477 0.005962525836124744 -0.016940759695383948
 0.010656468987768527 -0.013098224616224551
 -0.22572173531250087 -0.2366357171893023 -0.009579710293141745 -0.027780319774587725 0.19117271834215582 -0.04349521972803638 0.010656468987768527 -0.013098224616224551
 0.015593095983445078 -0.00735478933527154
 -0.0921927411009013 -0.3268475671621064 0.0061250992244732926 -0.01718164203915238 0.010891517192046516 -0.013345932035881077 0.05908441083365387 0.023402095069122466
 0.02901720328807621 -0.0035393176970526974
 0.03556388624879734 -0.3323805680188031 0.010891517192046516 -0.013345932035881077 0.01562610630867555 -0.007462375950327404 0.028486171408218776 -0.0036138549092440747
 -0.015080732600484932 0.09144842004837503
2030000000.0 0.14470617526792998 -0.24931416788352065 -0.31883782031218183 -0.12187788856613825 -0.24840403630479702 -0.21690776645172144 -0.12160131687051463 -0.31322879331515385
 0.005816407510417078 -0.33646458485981195
 -0.31852081397698145 -0.12147377015762843 0.093718555224637 -0.1140649596295851 -0.012856722808651607 -0.0264726954522607 0.0027859403372489655 -0.01764740297938989
 0.008082732036297823 -0.014710869983171724
 -0.2463435209527016 -0.21625715784637803 -0.012682595022432517 -0.02639594128953831 0.18848172092893853 -0.05558602639216229 0.008082732036297823 -0.014710869983171724
 0.013947122780407396 -0.009933560728835958
 -0.12188303902556921 -0.31811461315014516 0.0029040753709797273 -0.01791371340799381 0.00825727607590274 -0.014983251726751655 0.06334512658817726 0.01777869788459795
 0.028461598674978727 -0.006923500312062161
 0.005638744770537177 -0.33539752813133 0.00825727607590274 -0.014983251726751655 0.013991827122780003 -0.010046006769549932 0.0279867720221928 -0.0069542295929316735
 -0.006554756796766629 0.0907505264686549
2040000000.0 0.12223702518435453 -0.2525272110273691 -0.3292973890427181 -0.09325849835804732 -0.2673692678611285 -0.19464226983830585 -0.15004247294712514 -0.30185542877915283
 -0.02448033342322227 -0.33676986325972774
 -0.32898004972125544 -0.09290768772725247 0.08671136069213337 -0.12168634091125129 -0.015884138988350283 -0.024778992882933053 -0.000476019465565174 -0.017726701115085813
 0.005253654696423503 -0.01587599336564222
 -0.26525310443624517 -0.19415305944759897 -0.015684291424533356 -0.024721068632730197 0.18494072840961395 -0.06742110837700507 0.005253654696423503 -0.01587599336564222
 0.011887749896304355 -0.01224194960883904
 -0.15083717909865968 -0.3067710873869799 -0.0003739844630606833 -0.018021085667815486 0.00540155567256219 -0.01619231588544941 0.06697499084588286 0.011659760755276688
 0.02754857883885214 -0.010334731079437708
 -0.024658395182509524 -0.33575127857039183 0.00540155567256219 -0.01619231588544941 0.011886869519142387 -0.012340139528167699 0.027032656499331217 -0.010287397663899927
 0.0018843298745097247 0.08919428037117778
2050000000.0 0.0998076533877958 -0.25343596198096346 -0.3371734689140307 -0.06377767078503906 -0.2843543483899307 -0.1705801011498446 -0.177504932023999 -0.2879336896815402
 -0.054891551457604264 -0.33437784447405294
 -0.33684997805812367 -0.06344870419713033 0.07926981157834961 -0.12853575370673784 -0.018663606982792215 -0.02263179092718767 -0.0036624522642243994 -0.017228546257087494
 0.002223251774605411 -0.016437464076029498
 -0.2821823475728747 -0.17030389157748368 -0.01847964181365098 -0.022557340685579057 0.18068397340943007 -0.07896098130523327 0.002223251774605411 -0.016437464076029498
 0.009369140612857384 -0.014091409717626536
 -0.17877095953955105 -0.29268382070697757 -0.0036541910528301662 -0.01748700609528 0.002308905315650089 -0.016770752605152324 0.07002491856323734 0.0050710948854273625
 0.026091824178799072 -0.013653803764436616
 -0.054976013471746285 -0.33331091832984666 0.002308905315650089 -0.016770752605152324 0.009388486956593844 -0.01415349524414385 0.025602157951952333 -0.013541440326520078
 0.010088923831139386 0.08684577914385787
2060000000.0 0.07760380886312673 -0.25184460666002356 -0.34248200564326775 -0.03357968867249398 -0.299185848129561 -0.14502100299762608 -0.20367816301090322 -0.2713720795829967
 -0.08515568521051062 -0.3293615299614299
 -0.3419898911132419 -0.033200990229507094 0.07153797845249829 -0.13477854659119382 -0.021174586453030428 -0.020159776518011988 -0.006669100071437619 -0.01609539547376472
 -0.0007966538695929178 -0.016457627602174882
 -0.29698112849939196 -0.14492110525894963 -0.020992538019874236 -0.0201216133685952 0.17566422528237743 -0.09013371950937943 -0.0007966538695929178 -0.016457627602174882
 0.006686769927579325 -0.015421700228115884
 -0.20535374401496023 -0.2759446809388828 -0.006725342793295161 -0.016376647857588286 -0.0007998879814630848 -0.01678315909519694 0.07253928500904858 -0.0018145165210393026
 0.024286951972876072 -0.016749956263988886
 -0.08511306078910923 -0.3280746113153629 -0.0007998879814630848 -0.01678315909519694 0.00664057283792689 -0.015485930427330707 0.023775772737436838 -0.016593621467501367
 0.017911904117476504 0.08382279604391087
2070000000.0 0.05595283501471544 -0.24798365650875046 -0.3449735985620386 -0.0028967953715611566 -0.31171182722257135 -0.11808839947294911 -0.22837841332079076 -0.25235684153110255
 -0.11494562981611905 -0.32124302987578707
 -0.3445222550654542 -0.002547654484035823 0.06360875802696472 -0.14047732679931757 -0.023339483291852606 -0.017458321896713827 -0.009345424507941348 -0.01448682981968748
 -0.003672647357107644 -0.015889926810600002
 -0.30950941026219064 -0.11816149361823132 -0.023129697815884417 -0.01743849196251393 0.17011141984527994 -0.10083202226584657 -0.003672647357107644 -0.015889926810600002
 0.003792107153778844 -0.01620487590387499
 -0.23047610814930602 -0.25680462050741837 -0.009416508885556235 -0.014758364845189133 -0.0037512852989188953 -0.01620574086492463 0.07449009129890556 -0.008896554993135094
 0.022051454299019724 -0.019521377934516335
 -0.11484619653462598 -0.3200934124533565 -0.0037512852989188953 -0.01620574086492463 0.003761373826718823 -0.016278622848919653 0.021612222623729263 -0.019349432956914513
 0.025432474359929045 0.08009191115107228
2080000000.0 0.03514272522844979 -0.24174835274726908 -0.3446616452811996 0.027928079649667054 -0.32174494920079677 -0.09003162510355306 -0.2512566521718556 -0.23103149061845502
 -0.14400698529558256 -0.31054483814751627
 -0.3441427012506933 0.028234783222960653 0.05529586968378948 -0.1455908575071718 -0.02522992058407039 -0.014534250796694613 -0.011665983556963631 -0.012528842026985737
 -0.006433461874568162 -0.014921410340963101
 -0.31955281848916894 -0.09026177144772672 -0.0250169526876638 -0.01456111434858324 0.16391015247175347 -0.11115872664393582 -0.006433461874568162 -0.014921410340963101
 0.0009284528547099997 -0.016514834048403444
 -0.2536958630864911 -0.235278851781669 -0.011747840003210027 -0.012756058971855472 -0.006507626881503904 -0.015236641663923038 0.07595038339390349 -0.016341993266233687
 0.01960166855365162 -0.022146173172671462
 -0.14379533179423235 -0.30939724870060464 -0.006507626881503904 -0.015236641663923038 0.0008468885093437562 -0.016595318089843616 0.019166893070064726 -0.02187803016068526
 0.0326080454169075 0.07570059559659585
2090000000.0 0.015585925526510516 -0.23338590212522084 -0.34169945381621947 0.05871384511524883 -0.3292529424470842 -0.0611372594978197 -0.27213700658045337 -0.2075470555176604
 -0.17201947378829469 -0.2971373765695284
 -0.34120503035955485 0.05897473464386337 0.04673098368763092 -0.15009015513483714 -0.026762929231782837 -0.011395315996448285 -0.013582323641156066 -0.010202042002248692
 -0.008949528148661082 -0.013509578609571098
 -0.3270785011102695 -0.0614976868907166 -0.026586169364265687 -0.01140803673228722 0.1572092572175082 -0.12106728643424572 -0.008949528148661082 -0.013509578609571098
 -0.0020219927716927572 -0.01638682654707716
 -0.27503981682065165 -0.21159421368279135 -0.013736034323918414 -0.010390448539035937 -0.009103529552621021 -0.013779051961452635 0.07683885605977904 -0.023888540923690513
 0.016803180909550127 -0.024456387187780756
 -0.17175815062230534 -0.29605179165484685 -0.009103529552621021 -0.013779051961452635 -0.002065161524917516 -0.01640058764299946 0.016424067095963512 -0.024154029074231368
 0.0393015561431217 0.07058987223658364
2100000000.0 -0.0024603885970702543 -0.22300539490680765 -0.335982050882717 0.08928703071650591 -0.33414008898099934 -0.03157553522559108 -0.2907332486366129 -0.18215156117161668
 -0.19882745487254042 -0.2811938496812333
 -0.33557102837144837 0.08949390608082258 0.03794513895997298 -0.15391279577812947 -0.027942880219208002 -0.008095135689399803 -0.015133306039832078 -0.007576913408354446
 -0.011222309477849208 -0.011644433557856588
 -0.3319951207366495 -0.032145344960069745 -0.027787676267401994 -0.00811192542592021 0.14986314176088744 -0.1302905098299545 -0.011222309477849208 -0.011644433557856588
 -0.004880509157111669 -0.015723515446939985
 -0.2941297542970212 -0.18596360223088643 -0.015324363851465343 -0.0077488981206082636 -0.01145004002960224 -0.011915355918972175 0.07712041409146432 -0.03148539483108357
 0.01373076118744513 -0.026451120233610247
 -0.19848509102870868 -0.28010668241191655 -0.01145004002960224 -0.011915355918972175 -0.00492279447504644 -0.015759970504669273 0.013390058073851529 -0.026078607718143576
 0.045449004125610155 0.06488365725625297
2110000000.0 -0.01878950975752853 -0.21100648231262845 -0.3274344023627354 0.11935276524374573 -0.336303780979276 -0.0016040587104806697 -0.3069855808585647 -0.15506661622146242
 -0.22418432515120937 -0.26279041411487863
 -0.3270893457665007 0.11959155185619835 0.029080743106542132 -0.15704440209932863 -0.02871872157758847 -0.0045909205670778865 -0.016155176025781603 -0.004716012633896808
 -0.01312352643833271 -0.00942357474773491
 -0.3342270521893037 -0.0023811605283935366 -0.028551225981981822 -0.004648885405160468 0.14206896618138823 -0.13889190023753958 -0.01312352643833271 -0.00942357474773491
 -0.007557372439848068 -0.014579095131616766
 -0.31073545499219857 -0.15847882987479892 -0.016378139285106872 -0.004866114874181457 -0.01337545493963286 -0.009632746181547738 0.07684673073913713 -0.03901955058352558
 0.010333437536121799 -0.028070965769467354
 -0.22374679210749512 -0.2618274107283619 -0.01337545493963286 -0.009632746181547738 -0.007660650143923634 -0.014592186594304711 0.010054538254519758 -0.027661834885028148
 0.050983769706403996 0.058672316222174586
2120000000.0 -0.033442599294401305 -0.19759588868533623 -0.3161172834882335 0.14873887894771892 -0.33588722767390056 0.02855913608167012 -0.3206094419546589 -0.12639944275562712
 -0.24786779904863626 -0.24204930991414483
 -0.3157431436456934 0.14889520495618352 0.020127311176083566 -0.15952399961773364 -0.02904866456238625 -0.001040600462490381 -0.016643042596341823 -0.0017586938499472423
 -0.014579066256714754 -0.0068525791324431
 -0.33377763403668737 0.027568026462246747 -0.02887328997418955 -0.0011456040972665077 0.1339099479202331 -0.14697207746096796 -0.014579066256714754 -0.0068525791324431
 -0.010016885878349853 -0.012949911264266254
 -0.32470624819723753 -0.12954406612499972 -0.01687198747720841 -0.0018513890751267617 -0.014868301377280568 -0.007022712642664962 0.07599901430854675 -0.046350348250979334
 0.006808321994032998 -0.029237376226330526
 -0.24732997302584891 -0.24114406541577835 -0.014868301377280568 -0.007022712642664962 -0.010040583561261194 -0.012992801366294016 0.006507271871651549 -0.028795710724112297
 0.05589358269065828 0.051972328809185356
2130000000.0 -0.046361821197323204 -0.18295089886865215 -0.3020988775561315 0.1770003166930911 -0.33258594871986674 0.05859581623067345 -0.33154081985439454 -0.09657739254290512
 -0.26959002396484505 -0.21910158891107046
 -0.30167507580883574 0.17706717097611166 0.011173519325862158 -0.16140308129931313 -0.0289151092031023 0.002487831651299114 -0.01659399835660409 0.0012255669076752088
 -0.015563632097106808 -0.004058515961539652
 -0.3306263982055354 0.05744307159909869 -0.02875951305091602 0.00238930670350777 0.1253576039222715 -0.15428557685473596 -0.015563632097106808 -0.004058515961539652
 -0.012077958268354155 -0.01094786771410606
 -0.33590996529511097 -0.0993102901111364 -0.016838057656557475 0.0011765664168579628 -0.01585307776935388 -0.004188321098739628 0.07456521842106878 -0.05347310618994278
 0.003093580941082917 -0.029949726176279688
 -0.26898968771251813 -0.21831044081316123 -0.01585307776935388 -0.004188321098739628 -0.012214117463195444 -0.010957319348341647 0.0029008496636038906 -0.02946669762977712
 0.060176340182450265 0.04492617622125311
2140000000.0 -0.05749210356885976 -0.16710978515982075 -0.2854054809893171 0.20383279032960544 -0.3265572863161658 0.08832161623177126 -0.33954683266508606 -0.06583843911433238
 -0.28918087412681553 -0.19418275587102918
 -0.2850119437010312 0.2038675362698834 0.0022578273470087624 -0.1625714465703784 -0.0284187479516668 0.005947950399622447 -0.01605063865255772 0.004090949204396812
 -0.015980935463047075 -0.0012239228300635595
 -0.32466447654675373 0.0869878146944066 -0.028246035759893286 0.005853112924634678 0.11641950068854603 -0.16095073381860098 -0.015980935463047075 -0.0012239228300635595
 -0.0138135316304883 -0.008605178888928488
 -0.3441755775975401 -0.06807906064806936 -0.016295770535796127 0.004092123139225181 -0.01631255074611684 -0.0012610421427100094 0.07257581478073423 -0.060382382726719655
 -0.0006672555943802239 -0.030218816615098263
 -0.28853975106142327 -0.19339800004637472 -0.01631255074611684 -0.0012610421427100094 -0.013932804942928673 -0.008622049458604815 -0.0007791653960112815 -0.029741359381784672
 0.06387022873975057 0.0375748448189515
2150000000.0 -0.06662558258883058 -0.1503116330794199 -0.2663770899750582 0.2290263874499119 -0.3179160816179834 0.11740560104852883 -0.3446988011229435 -0.03437082033209647
 -0.3063915788096819 -0.16742810569180389
 -0.26608086633239036 0.22907111679482955 -0.006448918332843903 -0.16315626852289167 -0.027476260715450954 0.009404076496145197 -0.015061376146801649 0.006838699071224651
 -0.015937801636527804 0.00164958684650287
 -0.3161021169607663 0.11592029854113538 -0.02733882922835302 0.009273811724531853 0.10717825353785025 -0.16697107448671272 -0.015937801636527804 0.00164958684650287
 -0.015125692660465944 -0.006035693174103083
 -0.3495914825298468 -0.0362245717798659 -0.015302012085419626 0.006854076611485019 -0.016290278391802675 0.0016759886108220138 0.0699052767499936 -0.06707558795991549
 -0.004473299275547335 -0.03005937351846762
 -0.3056495858907105 -0.16673727042815414 -0.016290278391802675 0.0016759886108220138 -0.0151906727906638 -0.006056389136798719 -0.00454305001280792 -0.029576678167756942
 0.06686683839967923 0.029933366167737806
2160000000.0 -0.073539120512162 -0.13272467725190143 -0.24517856153071502 0.2524912910760396 -0.30669870494973217 0.14561741131308503 -0.34688454903556576 -0.0025516212741250382
 -0.3211510975326428 -0.1391974814327664
 -0.24493118931692445 0.2525411523813736 -0.015004883834867646 -0.16314987339604736 -0.026176726817410366 0.01271777115959954 -0.013617771895584045 0.00942549675213878
 -0.015409162649831708 0.004506494583163863
 -0.30497424665377304 0.1440642979079076 -0.026026596740895542 0.01254875137659378 0.09772143917663595 -0.17223361165645673 -0.015409162649831708 0.004506494583163863
 -0.01598013118102296 -0.0032917411770128874
 -0.35200854893180183 -0.003980801087842967 -0.013857066965892024 0.009500851238802593 -0.015751849877102254 0.004562863193338236 0.0666706681210096 -0.07337777139042029
 -0.008290158508214024 -0.029432256923774835
 -0.3203027508046679 -0.13861587318882118 -0.015751849877102254 0.004562863193338236 -0.016037568488246855 -0.0032678446390876676 -0.008282908961610904 -0.02892430498038901
 0.06919273022550762 0.02215041583006307
2170000000.0 -0.0782069541958452 -0.11471603714988882 -0.22191230109812948 0.273969641571186 -0.292770716443037 0.172792626917975 -0.3460493100732051 0.029329981947010267
 -0.3332101403164827 -0.10962835616827812
 -0.22164145050509465 0.274110308148505 -0.023351261524830847 -0.16273513502173537 -0.024437348527999767 0.015828197634146408 -0.011691401492040614 0.011667058788614173
 -0.014368567708145385 0.007180719644815095
 -0.29126890862734955 0.17105446201180713 -0.024337973682409274 0.015665846724757126 0.08802522904473942 -0.17687793960825454 -0.014368567708145385 0.007180719644815095
 -0.01632162189337544 -0.00040466102963108004
 -0.35130135531686335 0.028485600593941965 -0.011938126048003901 0.011805201956208955 -0.014658722697697671 0.00734043272424175 0.0629195263435039 -0.07933309497442759
 -0.011988298921372988 -0.02829439668623088
 -0.3324297208471069 -0.10916175602077184 -0.014658722697697671 0.00734043272424175 -0.016415466270967752 -0.0003741472260369591 -0.011929016023815029 -0.027768169195413785
 0.0708815859926064 0.014276437594296991
2180000000.0 -0.08058312310029501 -0.09658089446642674 -0.19667191691647368 0.2933628174587695 -0.27654515644544125 0.1986584309222164 -0.342244540250981 0.06107798107686636
 -0.3424770435087 -0.07890998747458905
