! Created with skrf 1.8.0 (http://scikit-rf.org).
# Hz S RI R 50.0 
!freq ReS11 ImS11 ReS12 ImS12 ReS13 ImS13
! ReS14 ImS14 ReS15 ImS15
! ReS21 ImS21 ReS22 ImS22 ReS23 ImS23
! ReS24 ImS24 ReS25 ImS25
! ReS31 ImS31 ReS32 ImS32 ReS33 ImS33
! ReS34 ImS34 ReS35 ImS35
! ReS41 ImS41 ReS42 ImS42 ReS43 ImS43
! ReS44 ImS44 ReS45 ImS45
! ReS51 ImS51 ReS52 ImS52 ReS53 ImS53
! ReS54 ImS54 ReS55 ImS55
!
2000000000.0 0.11230299905494101 -0.14755565028986764 -0.28073096947559445 0.21473225180712235 -0.3428189437368538 -0.057088942303821215 -0.18691173412195652 -0.2734613015435319
 0.09434015108652843 -0.32607737073217957
 -0.2802053211531207 0.21461884800189016 0.07729471084793366 -0.20662027123915414 -0.026640646731204642 0.018554228962378762 -0.01634043464358049 -0.008699212858459853
 -0.00500788889383547 -0.017355569977056486
 -0.340420256619238 -0.057740658880760604 -0.02656452854071531 0.018343314431507822 0.17039819428237163 0.015352548262474392 -0.00500788889383547 -0.017355569977056486
 0.011624285640730744 -0.014573893819950973
 -0.18831440040781502 -0.27789675684052084 -0.01651130684800415 -0.00887445243042844 -0.005090085029351919 -0.01769395956733171 0.19377637836127956 -0.01353544148781192
 0.026894606403881336 -0.010687891643772655
 0.09380505236196952 -0.32506981922062017 -0.005090085029351919 -0.01769395956733171 0.011629290282498246 -0.014702404363152306 0.02637287675361701 -0.01061793370703388
 -0.031721919497645704 0.09079155102648634
2010000000.0 0.10111888596419448 -0.14663692128753872 -0.26181949924009834 0.23871748828595915 -0.3472438710923443 -0.02677187734855077 -0.21105159244443014 -0.2557071865623464
 0.0641868275719126 -0.33415172981405045
 -0.26131751052881863 0.23845221828888727 0.06868999891990565 -0.2088198003333952 -0.024266048424337043 0.021339692678318575 -0.017390938302617523 -0.005665108362538935
 -0.007904578943763663 -0.016005654280332977
 -0.3450854149584645 -0.02769168714355703 -0.024232530348889267 0.021132740904009194 0.16904652138887127 0.00627040202562299 -0.007904578943763663 -0.016005654280332977
 0.008770690736788158 -0.0163063725526174
 -0.21282528020631816 -0.26008761649854534 -0.017633756208725097 -0.005819347751934298 -0.00805179671169128 -0.016342907225541832 0.1933326992751498 -0.02606785552283717
 0.025421941394433694 -0.013676680941720617
 0.06379839340264049 -0.3329969137495508 -0.00805179671169128 -0.016342907225541832 0.008731341488991304 -0.01636620313940447 0.02491216609734041 -0.01358097797527053
 -0.02325912565662873 0.09151553947607785
2020000000.0 0.09028661557793886 -0.14460875597905384 -0.24070201491065882 0.26090986086663437 -0.34882664945311637 0.0038118354129962 -0.23337814790861486 -0.23577997688361074
 0.03342742211413387 -0.339186875789899
 -0.2401510781254108 0.260681428430211 0.06013690443223799 -0.21054962502962454 -0.021643257764955223 0.02380550411210118 -0.01793510484585645 -0.002525645541016597
 -0.010481812964812797 -0.014246795470519076
 -0.34680454419994355 0.002820825881217194 -0.021580738997334224 0.023596927486668872 0.1671511819745606 -0.0025529301499916755 -0.010481812964812797 -0.014246795470519076
 0.005725155858190083 -0.017421849347520182
 -0.23563307087431304 -0.24009994181043165 -0.018193539873460073 -0.002657743721080548 -0.010699367536593615 -0.014548690156268624 0.19212695044224157 -0.038527153517553384
 0.02363961769946906 -0.01649989979442587
 0.03315052930816422 -0.3380328018350353 -0.010699367536593615 -0.014548690156268624 0.0056545848745038945 -0.01752149540376332 0.023158469242913825 -0.016311955963189025
 -0.014757200756254571 0.09151171409137321
2030000000.0 0.07993786965777519 -0.14139039400899778 -0.2174755734715279 0.2811410032836724 -0.3477784388792084 0.034603357068060524 -0.25379148349227465 -0.21398366498877025
 0.0022922301084203228 -0.34132627947457855
 -0.21698416160787323 0.2809328335652241 0.051780620119585924 -0.21179364430794062 -0.01869865168100914 0.026021649413251996 -0.017975496477118685 0.0006467322089155872
 -0.012767779326408144 -0.012126325852278987
 -0.34581960664589706 0.033403602963724466 -0.018742415357048493 0.025813932801832445 0.16484088939535874 -0.01103698676216251 -0.012767779326408144 -0.012126325852278987
 0.0025199599058351218 -0.018055579399467246
 -0.25642497500017686 -0.21810707290740844 -0.018272665081903044 0.0005553085260620877 -0.013000332854912394 -0.012352608914616715 0.18995896851169433 -0.05097510499921613
 0.02156386864491341 -0.019146866018974223
 0.0021350130927439916 -0.3402906311830332 -0.013000332854912394 -0.012352608914616715 0.002450150916495948 -0.018146628235100416 0.021129513703034473 -0.01895341248886572
 -0.006221141065758972 0.09067381964291346
2040000000.0 0.07044242922569927 -0.1370460271913176 -0.19258507226650606 0.29935615448488556 -0.34398879260858556 0.0652377790785821 -0.2720982273448329 -0.19043260150680127
 -0.028862180165719526 -0.34067282467437526
 -0.19209375318027494 0.2990982560284657 0.043751941272448754 -0.21293528338088075 -0.015561881451970025 0.027938811124360658 -0.01745568178936714 0.003799606862292016
 -0.014632892617769837 -0.009570926888416507
 -0.3420810880414184 0.06393259659206159 -0.015583934583620708 0.027733134325908043 0.1622044989215383 -0.019270803411097714 -0.014632892617769837 -0.009570926888416507
 -0.0007461094635621177 -0.018132103392615614
 -0.2751079165287061 -0.19432972839082535 -0.01774897088329359 0.0037800623222619856 -0.014904148472846124 -0.009794437474630128 0.1869343510847386 -0.0632415881970155
 0.019186573018177958 -0.021612479969148182
 -0.02900654146132958 -0.3396447785374949 -0.014904148472846124 -0.009794437474630128 -0.0008020378518022374 -0.01820276402264205 0.01874719083789326 -0.021338755436365448
 0.0021418833436341518 0.08906185657833653
2050000000.0 0.06204392442889843 -0.13187946834198314 -0.16613009095953574 0.3153358419940424 -0.3374083126689216 0.09562584345938457 -0.2882298050543531 -0.1654004125835846
 -0.05986458407996081 -0.3371417947141457
 -0.1656840173257274 0.31503867241247835 0.03592897367044129 -0.21384182623446601 -0.012089344499249033 0.029445726795347623 -0.016335761117303584 0.006813442771877491
 -0.015978967228664025 -0.006753996984475241
 -0.3355931207490957 0.09408169683241295 -0.01216957818966983 0.029266310420731207 0.15942223984750653 -0.027144538799312154 -0.015978967228664025 -0.006753996984475241
 -0.003982951912923731 -0.017556130360465324
 -0.29155094211265875 -0.1689441060311772 -0.0166361468954161 0.006851687620953663 -0.01630478615908891 -0.006876344113826796 0.18308371245448057 -0.07519009067903687
 0.01646686398709718 -0.02374434239392231
 -0.05992775506237123 -0.3360981568947371 -0.01630478615908891 -0.006876344113826796 -0.004060734383148678 -0.017624166122962092 0.016062810409613954 -0.023444740123163808
 0.0102771989591996 0.08665268738746858
2060000000.0 0.05480329076357035 -0.12608480536320693 -0.1383113182901946 0.32893882054041856 -0.32803512289415715 0.12532944803239707 -0.302029926037488 -0.1389832018013983
 -0.09046432155179028 -0.3308229657751175
 -0.13781267972238592 0.3286385406127414 0.028236761092552357 -0.21456185028403119 -0.008540789293902116 0.03049426368848536 -0.014732234143300037 0.009518641381688701
 -0.016781923183659873 -0.003766522452895011
 -0.3263885337365354 0.12364354829272313 -0.00862527602653769 0.030310827663400333 0.15643711912152783 -0.03481673151516711 -0.016781923183659873 -0.003766522452895011
 -0.007017970692992396 -0.016432718946408995
 -0.3056403795032123 -0.14226262971044407 -0.014997853108681649 0.00960168028983153 -0.017115465021841407 -0.003811309461024139 0.17864031150419596 -0.08689828395805964
 0.013455960733767251 -0.025500686518358743
 -0.0904161012036962 -0.329648940396541 -0.017115465021841407 -0.003811309461024139 -0.007089830759999511 -0.016444860694431723 0.013081171806214665 -0.025179532334036966
 0.01806070410831861 0.08357303798711829
2070000000.0 0.04872312763123406 -0.11987496036292354 -0.10933439861424853 0.3401516440172284 -0.31594973772021256 0.1541835681934753 -0.3134035341855675 -0.11147681930122014
 -0.12037016887239833 -0.32160749902492247
 -0.10882703631642525 0.3397360009838296 0.020663099800712865 -0.21525845305288605 -0.0049159020790798275 0.031101521542888713 -0.012666793001203791 0.011835068218940127
 -0.017003137942983658 -0.0007010430093658002
 -0.3144318146403342 0.15238722200296748 -0.005026958395736123 0.030929476115111997 0.1532770221208787 -0.04236104667823971 -0.017003137942983658 -0.0007010430093658002
 -0.009696245724178616 -0.01476872795642971
 -0.31728385781787116 -0.11443618982289046 -0.01291920920682132 0.011935191303400396 -0.017327795232636306 -0.0007527330997344533 0.17362472177561245 -0.09819427765456308
 0.010302811292660143 -0.026891048095756098
 -0.12023978052772902 -0.32051698750714974 -0.017327795232636306 -0.0007527330997344533 -0.009792933527762547 -0.014789759286563437 0.009973155424624935 -0.026521571006511604
 0.02548028355236424 0.07989818046245213
2080000000.0 0.04388761935075044 -0.11340463930868387 -0.07941129348183314 0.34873048451680694 -0.30121783607985936 0.18178918661969876 -0.32212111752637523 -0.08306924274643337
 -0.14925182327991002 -0.30975096653883927
 -0.07890935667644536 0.3482793007718478 0.013119492001744214 -0.2156852537781484 -0.0013416487747949372 0.031348645318851974 -0.010337384873268445 0.013715931614132999
 -0.01674275706171499 0.002222249477546801
 -0.29990385467876635 0.17998526573529522 -0.0014326531109637459 0.031195650809160036 0.14978714940196022 -0.04963097658524876 -0.01674275706171499 0.002222249477546801
 -0.012049204343069931 -0.012785200735061081
 -0.3263243938276795 -0.08566037315442451 -0.010561536976866757 0.013896197311906172 -0.017069389122569046 0.002240639065693013 0.1679180301752075 -0.1092296147758592
 0.007064097145862369 -0.027917437588116684
 -0.14904000400958625 -0.30862882532227004 -0.017069389122569046 0.002240639065693013 -0.012140045333915227 -0.012790407770575468 0.006795544521196777 -0.02748297775174197
 0.0325910455929687 0.07550434740536621
2090000000.0 0.04019221621383807 -0.10702784362155492 -0.04869837887239816 0.3547341604657305 -0.2840985839833276 0.2080361152026929 -0.328329116809942 -0.05404548718993005
 -0.176889699442936 -0.29521820738172083
 -0.04829277947942354 0.35422061487101025 0.005660548473009159 -0.21605220030983274 0.0023138288615161414 0.03126413782769339 -0.007748255931839486 0.01522292996289569
 -0.016028611645844168 0.005053955621334043
 -0.28281980426687275 0.20610928099986545 0.002199492079482602 0.031096970045077933 0.14622185497813617 -0.056574015948897056 -0.016028611645844168 0.005053955621334043
 -0.014044855897213434 -0.010438631039841736
 -0.3327089329553135 -0.05619496211459536 -0.007918400740845856 0.015421554424502429 -0.016369917639107046 0.005141149590778413 0.161676847484955 -0.11985340267668664
 0.003672937674429018 -0.028632608280660637
 -0.17664771523402037 -0.2941196400493725 -0.016369917639107046 0.005141149590778413 -0.014131639159723918 -0.01041647029311954 0.003479264092462239 -0.028173801170520835
 0.03922298744506078 0.07045294644938964
2100000000.0 0.037430448433609605 -0.1007580948454822 -0.017485665422774292 0.3579733308012685 -0.2645771763674813 0.2325836311174742 -0.33175460809392615 -0.024646406530305916
 -0.20309058671761474 -0.2783526901003573
 -0.01712767641533141 0.35757371941804383 -0.0017625363039362476 -0.2163544535293168 0.006001419257730478 0.03075355051892082 -0.0048750803057282435 0.016253054806156946
 -0.014864342648171684 0.0077810479261809316
 -0.26347014078765774 0.23049573891495806 0.0058750967385034275 0.03063292813565691 0.14246085632477742 -0.06315678939879639 -0.014864342648171684 0.0077810479261809316
 -0.015637945623674522 -0.007745194300618123
 -0.3364731166757577 -0.02636507833633065 -0.005021555200935704 0.016494127856140493 -0.015167387802347903 0.007895935053247026 0.15490409848417463 -0.12986595402788045
 0.0002040157738956831 -0.028940955096157635
 -0.20272920293401683 -0.2772295916066187 -0.015167387802347903 0.007895935053247026 -0.01570726478714895 -0.007730594264381009 3.6470065922504524e-05 -0.02846140881338371
 0.045320532569675984 0.06481627839545491
2110000000.0 0.035459554421008385 -0.09458064363037877 0.014094097973892215 0.35834042832940355 -0.24299931024357677 0.2553448056273401 -0.33275064678610405 0.004886396496248567
 -0.22762786503319743 -0.25909287333964043
 0.014375906681886885 0.3580008146259528 -0.00916079693818347 -0.21648565061975894 0.00965211742663828 0.029788241688870194 -0.0019025955172981904 0.016771811996699467
 -0.013235024313168937 0.01025540090534458
 -0.24205201754471767 0.2531539631013341 0.009513833115620228 0.02965577540360403 0.138657176700425 -0.06959319262306737 -0.013235024313168937 0.01025540090534458
 -0.016685499152530207 -0.004815548649948866
 -0.3374561868411954 0.00360717954181027 -0.0019970440407848077 0.01701440517666965 -0.013506527013171893 0.010422524645514152 0.14764472073855084 -0.1392845670338547
 -0.003353841641568026 -0.02877820122058933
 -0.22713248179573506 -0.25813141072552426 -0.013506527013171893 0.010422524645514152 -0.016774138922664463 -0.0048078222248379805 -0.0034233559298638013 -0.02832190529769964
 0.050909730292282566 0.0586744623361753
2120000000.0 0.034454590086681426 -0.08838169971022987 0.04563299362325524 0.3557850542965341 -0.2193224292275041 0.27603131660432195 -0.3309646693213322 0.03437171107336306
 -0.25027641127999634 -0.23771456713982325
 0.0459113518992032 0.35537789815177 -0.0166959495673517 -0.21647669484928014 0.013120215382108877 0.028303038079639038 0.0011109385977238668 0.016693630181637466
 -0.011193848520188909 0.012370010850883805
 -0.21859708381314946 0.27373011432721905 0.012963587192079993 0.02817523777036425 0.1347671161889292 -0.07573880144396604 -0.011193848520188909 0.012370010850883805
 -0.01718084865296244 -0.0017821629610858607
 -0.3358766873920421 0.033534956078459494 0.0010685411729628247 0.016926616719980574 -0.011429366717214586 0.012585646442936587 0.1399898584533696 -0.14801932488376338
 -0.006807887504984183 -0.028228262608267784
 -0.24968093635768762 -0.23682136346770113 -0.011429366717214586 0.012585646442936587 -0.01726802217608482 -0.001744211509321048 -0.006864205869923431 -0.027716825178900055
 0.05575080567076217 0.05200220196376668
2130000000.0 0.03448414923998756 -0.08244464309399903 0.07675908734164513 0.35036606645433643 -0.19387306558326906 0.29446468578414364 -0.32665583534050185 0.0635534471874607
 -0.2709559614696599 -0.214409693252905
 0.07697991103247423 0.3499369338581918 -0.024160567635935395 -0.21621751915963358 0.01635446789601182 0.026481519241366613 0.003990799213086972 0.016087243971602883
 -0.008769894967503383 0.014058035238677878
 -0.1933927702496842 0.292151033855123 0.016195633507272145 0.0263251807636164 0.13068096470563761 -0.08167895169364406 -0.008769894967503383 0.014058035238677878
 -0.017183590334862116 0.0012797237247262018
 -0.33158662633371083 0.06312488667012174 0.0039799066105183235 0.01632522631055886 -0.008960621288209507 0.014364135670996953 0.13189110398992848 -0.1561788204210029
 -0.010200447701700267 -0.02724317841022509
 -0.27033441850067813 -0.2136689191238951 -0.008960621288209507 0.014364135670996953 -0.017225595652783244 0.0013142361438100406 -0.010173913074113585 -0.026766394038234623
 0.060082712716470414 0.0450294636237147
2140000000.0 0.035390790706178746 -0.0770151139722918 0.10723247548797275 0.34208902239000905 -0.1667977829614877 0.31051610199956936 -0.31972487949060047 0.09206039715623676
 -0.2893921043085056 -0.18938428449659336
 0.10730364781609736 0.3416446070944242 -0.03155667301015353 -0.21569232065396954 0.019379377181374446 0.024287024035044295 0.006654419755023078 0.014984105702907084
 -0.006158051587535803 0.015336831402048109
 -0.16648746868844042 0.30808137136533204 0.019159133893882786 0.02420629016980887 0.12638119701793862 -0.08731819652024624 -0.006158051587535803 0.015336831402048109
 -0.016628079672985796 0.004259343834209462
 -0.324702074209865 0.09214645619282945 0.00668260617899091 0.015280295078614399 -0.006329318057394559 0.015649865847230958 0.12339959888917136 -0.16370771931014702
 -0.01346434648341322 -0.025906539368670694
 -0.28879393328779224 -0.18868860008452143 -0.006329318057394559 0.015649865847230958 -0.016676090126352194 0.00432130154258692 -0.013367156162436864 -0.025424281362464437
 0.06378542029855327 0.03769727595061678
2150000000.0 0.03698991024749527 -0.0723013877842778 0.13669457175240463 0.3311516379508099 -0.1384782191821177 0.32394298813587574 -0.3104201942085357 0.11988751146535996
 -0.3054824775918642 -0.16277550066726357
 0.1367458411999152 0.3308123756671365 -0.03884966797463185 -0.21507985922531456 0.022096591515710636 0.021826671666317424 0.009099236775452376 0.013547846257914753
 -0.0034137166127954583 0.01614402240052463
 -0.13831099379503184 0.3215726595250863 0.021887682756298422 0.02173606513126689 0.12195865972795338 -0.09273370151386942 -0.0034137166127954583 0.01614402240052463
 -0.015586464114376386 0.007099251753696679
 -0.3153713795609317 0.12041846530522471 0.009167912880410776 0.01377864263427526 -0.003490152111747223 0.016475306809532984 0.1144037817826786 -0.17057271257827628
 -0.016610734939737144 -0.02420901909871811
 -0.3048382877443435 -0.16217207532795935 -0.003490152111747223 0.016475306809532984 -0.015648900329083077 0.007185003652493223 -0.016453224448895323 -0.02377155144021914
 0.06688465260483051 0.030073592771647728
2160000000.0 0.03909184255647878 -0.0681096239812304 0.16506246695363977 0.317742941212853 -0.10905932123264236 0.33481278622042754 -0.2987073491557964 0.1467405116481999
 -0.31922762018449435 -0.13489870162246792
 0.16510839765449675 0.3174457818456464 -0.046124806026693506 -0.21427355191280573 0.02454536475150122 0.01898684448041319 0.011275997663409334 0.011723154724145795
 -0.0005049381795546098 0.016470499036117296
 -0.10906525498439333 0.3323379785188827 0.024364221789659572 0.01892431472966603 0.1174297943366111 -0.0979404508062141 -0.0005049381795546098 0.016470499036117296
 -0.014079650549030348 0.009729476740652065
 -0.30368100969622125 0.14769269234439752 0.011346573305786112 0.011966859889825236 -0.0005600225042341761 0.01684253489148522 0.10504225338476521 -0.17666678459832938
 -0.019555922876442023 -0.022145107784661427
 -0.31848976780148625 -0.13436722399988185 -0.0005600225042341761 0.01684253489148522 -0.014126660243045942 0.009814354349915882 -0.019330433834100283 -0.02167680066982567
 0.06927160812483736 0.022262839504622486
2170000000.0 0.041656106961506754 -0.06472518201733485 0.1920251155779999 0.30181569381696266 -0.07885001047883779 0.34285912856276074 -0.2847768020157037 0.17244712591146208
 -0.33034884646795293 -0.10589330632479481
 0.1922321147856478 0.3016440315884777 -0.05341655650759932 -0.21337187152729642 0.02660516911050684 0.015872600950316913 0.013081981818831677 0.00956080316338002
 0.002382423069377399 0.01630695257910272
 -0.0790736361708355 0.3404405943033609 0.02640651785977289 0.015877929732391348 0.11274143662154522 -0.10294964405233376 0.002382423069377399 0.01630695257910272
 -0.012142034421565718 0.012046173171396947
 -0.2896593184457179 0.1738812259556042 0.013243810433489439 0.009755732936033544 0.0023984918566585757 0.016640683369796863 0.09535551104472315 -0.18206473777366566
 -0.022262796367037076 -0.01967721654538527
 -0.3296597284509716 -0.1054766413489481 0.0023984918566585757 0.016640683369796863 -0.012160387839738065 0.012152299986653549 -0.021967553825935703 -0.01924821271501127
 0.07100216125967757 0.014397812712457781
2180000000.0 0.04455938643270582 -0.06206400732418414 0.21759012440086356 0.28372820327814785 -0.04808160474815185 0.34817564104611115 -0.2687148232986491 0.1967916240328549
 -0.33892330307515545 -0.07603563600748736
 0.21772309090633266 0.2834636157856068 -0.06079022712676959 -0.21223192683326 0.0282751761835836 0.012563187479713314 0.01451639882945428 0.007100314486495539
