! Created with skrf 1.8.0 (http://scikit-rf.org).
# Hz S RI R 50.0 
!freq ReS11 ImS11 ReS12 ImS12 ReS13 ImS13
! ReS14 ImS14 ReS15 ImS15
! ReS21 ImS21 ReS22 ImS22 ReS23 ImS23
! ReS24 ImS24 ReS25 ImS25
! ReS31 ImS31 ReS32 ImS32 ReS33 ImS33
! ReS34 ImS34 ReS35 ImS35
! ReS41 ImS41 ReS42 ImS42 ReS43 ImS43
! ReS44 ImS44 ReS45 ImS45
! ReS51 ImS51 ReS52 ImS52 ReS53 ImS53
! ReS54 ImS54 ReS55 ImS55
!
2000000000.0 0.14717389683723367 -0.17196657668259094 -0.0603243649363268 0.3132991517925344 -0.27496839902639447 0.2073717670642472 -0.27299183907639296 -0.19597025476841115
 0.0939593677962097 -0.3242464041565773
 -0.05991629701938599 0.3129111620386165 -0.10277391085781928 0.0514184592663779 0.016071449424429562 0.024391807796952065 -0.014097197569635938 0.009506371012878457
 -0.018325235516926792 -0.0023188370061491864
 -0.2737978934583835 0.20530737388931328 0.015921370709755404 0.024310722142146562 0.09303749420558942 -0.1824095828888546 -0.018325235516926792 -0.0023188370061491864
 -0.002625059555051586 -0.018302502223744025
 -0.27583759100882593 -0.19972770796166867 -0.014363090810513965 0.009574779215067213 -0.01866616964072875 -0.0023905259061887795 0.12736461553824074 -0.07105917372255355
 0.021905960527119236 -0.019567374262304017
 0.09338079315792226 -0.32323490689772577 -0.01866616964072875 -0.0023905259061887795 -0.0027362256952819367 -0.018363122614192106 0.02149732408051589 -0.019367421622350976
 -0.03175587944899825 0.090680962937955
2010000000.0 0.13286251456242226 -0.17404942125243783 -0.028425394335925395 0.31946267384902544 -0.25673150566202724 0.2308273767268479 -0.289978744623984 -0.17088478144947608
 0.06410698023799632 -0.3324014607465418
 -0.02812799075172401 0.31889889843341496 -0.09061392735193018 0.05170426355479695 0.01898137586261831 0.022136283498501875 -0.011963959511796466 0.01192501299744455
 -0.018262560710429705 0.0008965686161615233
 -0.25583874888588237 0.22875315184240072 0.018830021354929914 0.022096187435014087 0.08498936020231977 -0.18450225428912922 -0.018262560710429705 0.0008965686161615233
 -0.005739670523515632 -0.01742629349832544
 -0.29318650038082184 -0.17443110230560283 -0.012181067317188998 0.012024112745497537 -0.01860788185310273 0.000916301786896411 0.12273360413119092 -0.08022245710759118
 0.0194479601705429 -0.02193286813437256
 0.0637600311380996 -0.3311500152395439 -0.01860788185310273 0.000916301786896411 -0.005842109347599944 -0.017449464991793506 0.019045484890644247 -0.02165685773624198
 -0.023307090397976366 0.09140003367539479
2020000000.0 0.11884185593791585 -0.17442234834142148 0.004044674759880679 0.3221684604606109 -0.23633669135904697 0.2525791054810204 -0.30455398527816796 -0.14426530408062452
 0.033738911741932984 -0.3375847300596384
 0.004234599314749378 0.3215639104684406 -0.07869524891312893 0.050899349252277036 0.021593005241599822 0.01957475813340664 -0.009473384544341903 0.013843022336484014
 -0.01766767163825697 0.004010147541549461
 -0.23566878718601092 0.2504234417299868 0.021421219349996152 0.019573435000274694 0.07703198251834302 -0.1861809358168265 -0.01766767163825697 0.004010147541549461
 -0.008619995269546172 -0.016032925614248007
 -0.3081388191043158 -0.14761052258287832 -0.009674370715053738 0.014047500109870024 -0.018008535031050626 0.004075259067601168 0.11751073422608392 -0.08901425600742656
 0.016844243507582766 -0.023999160997144862
 0.03347576927194902 -0.3363516778123025 -0.018008535031050626 0.004075259067601168 -0.00871367769882612 -0.016068468771447318 0.016434855240120085 -0.023706953257974693
 -0.014802656403740698 0.09143156933347428
2030000000.0 0.1054873940608042 -0.17334997949534092 0.03664983113982162 0.3215237578679249 -0.21408436791360735 0.2725461722731924 -0.3166691363393695 -0.11646411859236298
 0.002936162522323007 -0.33987359827829544
 0.03682019174398533 0.32096710779816223 -0.06712573297904895 0.04885352112655069 0.023896759431244665 0.01669255902845595 -0.006605274409327545 0.015331471110349146
 -0.01661079781378928 0.00698706042881071
 -0.21354543356063238 0.2702887137969172 0.023726813151410082 0.016711973102613357 0.06924324936509543 -0.1875452084908253 -0.01661079781378928 0.00698706042881071
 -0.011247869077659796 -0.014201699015968851
 -0.32054198571148335 -0.11946488596875758 -0.0068036410886677225 0.015539396282929649 -0.016929862164377783 0.007109910960748779 0.11155729798814694 -0.09742558819098389
 0.013951171674036145 -0.025818894914593393
 0.0027181583115543353 -0.3387921958496212 -0.016929862164377783 0.007109910960748779 -0.011316401466970345 -0.014221682973073567 0.013597385525909111 -0.025459374958993405
 -0.006278501560775345 0.09064076408903637
2040000000.0 0.09294263297638813 -0.1712363685196598 0.06917840245631189 0.31755985822678934 -0.19002951781746946 0.29053884306184014 -0.32622649081189786 -0.08771176621161648
 -0.028029226352109634 -0.3394528607737501
 0.06930149176015178 0.3171294005262665 -0.056088099217516556 0.04561097367388733 0.025856665880959064 0.013505713587744893 -0.003556300641836407 0.01629177307017042
 -0.015017501409508442 0.009743516114340866
 -0.18971130433510855 0.2882772091450744 0.025700903444595916 0.013529920997315481 0.06164341113041617 -0.18874311652047845 -0.015017501409508442 0.009743516114340866
 -0.013504334299273708 -0.011936801931334416
 -0.33044898286338115 -0.09038170518150221 -0.003707947805379307 0.016520063906873286 -0.015340223142116367 0.009928711276964618 0.10510084305359306 -0.1053284246520528
 0.010762343228124525 -0.027336016993728243
 -0.028154908131488545 -0.33842248784115947 -0.015340223142116367 0.009928711276964618 -0.013600937634319294 -0.011939490986733083 0.01048202714299647 -0.026947264477241654
 0.002087683871164856 0.08903981670119045
2050000000.0 0.08121493087726445 -0.16813726819988886 0.10120980544856163 0.31034352812655613 -0.16440233517686198 0.3064387476464598 -0.3331813733494859 -0.05816210207696229
 -0.05884338703728957 -0.33616456524713767
 0.10135919343377399 0.3098129476902036 -0.045692720166268706 0.04133796556090284 0.02738840368468942 0.010012745595188942 -0.00030437596961840283 0.016570606224108362
 -0.012934880384471341 0.012175118235229546
 -0.16426397869434953 0.30416292026583513 0.0272120389011443 0.010072772824538362 0.054299115023226464 -0.18987794771374597 -0.012934880384471341 0.012175118235229546
 -0.015316799673678914 -0.009254774715277608
 -0.3376321032051996 -0.060398037428181284 -0.00038899948589662036 0.01681877726734618 -0.013224975201814954 0.012417123855234188 0.09815557799261075 -0.11264351603262111
 0.00739356708916767 -0.02844536073830953
 -0.058924060806154956 -0.335107437297062 -0.013224975201814954 0.012417123855234188 -0.015400684420797436 -0.009229276918926629 0.007166643636461825 -0.028030615946363076
 0.01021958706204101 0.08663075641381525
2060000000.0 0.07042323624381046 -0.16419470223037744 0.13254377700815714 0.2998452656943108 -0.13736533444087884 0.3200473898224226 -0.33742616935562414 -0.028092626569503943
 -0.08930144844350645 -0.3301613352804851
 0.13257916976143497 0.29918628591051727 -0.036063783711729566 0.036186328036150066 0.02838837770387227 0.0063501131231371655 0.0028232427616929445 0.01620935234287185
 -0.010485213670138126 0.01416148931594808
 -0.13740147729457164 0.31780365892238743 0.028237086312608507 0.0064159574866456915 0.04698698104491766 -0.1907839055576883 -0.010485213670138126 0.01416148931594808
 -0.01657702070272277 -0.006347204199442511
 -0.3420680254696355 -0.02993242855127887 0.0027978336671901486 0.016484913828108648 -0.010708034388418268 0.014425890552634065 0.09099310770126735 -0.11948089295508754
 0.003956818084679904 -0.02912814025304401
 -0.0892782901150848 -0.32891155218026336 -0.010708034388418268 0.014425890552634065 -0.016646054349929565 -0.006318562402800952 0.0037404365549129344 -0.0286414872706189
 0.018014109683304243 0.08359056589535523
2070000000.0 0.06050632907270254 -0.159565635966696 0.16266341299941406 0.2860191038671362 -0.10910587809083398 0.33115788860819173 -0.33895867001603047 0.0023177849852873272
 -0.11916365124052711 -0.32122425665365945
 0.16264333345736784 0.28538838667910454 -0.027217783373926097 0.030181195422719593 0.028851711124425212 0.002620483160545677 0.005823022930699984 0.015278729637630955
 -0.007824449158041771 0.015584273444435161
 -0.10926184189492914 0.3289331048469838 0.028708004176404876 0.0027401741933376286 0.03982135374271709 -0.19164206507977072 -0.007824449158041771 0.015584273444435161
 -0.0172686869440591 -0.0033274504659652738
 -0.3436767003157712 0.0008773117985299311 0.005839150418647761 0.015513824238443993 -0.007979739496167875 0.015884319917815998 0.08352172450094723 -0.1257684354406554
 0.00043696541927551414 -0.029313657153344677
 -0.11900433637743536 -0.32002208014613204 -0.007979739496167875 0.015884319917815998 -0.0173427107190405 -0.003296809497964844 0.000287545069532273 -0.028848353251460783
 0.02545981268590528 0.07988561661218405
2080000000.0 0.051573069721807696 -0.15442001624778284 0.19123223548746668 0.26911872258649977 -0.0799506117024897 0.3397693508054263 -0.3376338568406469 0.032696429526141865
 -0.1480015466445223 -0.309605135038049
 0.1912193735897862 0.2685208565524778 -0.019213499696869956 0.023415758718589027 0.028943250465814727 -0.0010195784936765215 0.00853162069495538 0.013846883787908873
 -0.004974494152878909 0.016553441840517408
 -0.080232094594119 0.33756064360514415 0.02880496721122543 -0.000936414867155045 0.03280622245927653 -0.19224064145258024 -0.004974494152878909 0.016553441840517408
 -0.01749491726274004 -0.00028023196103851313
 -0.3424675575466576 0.03170657584719629 0.008576552978716475 0.01409696663021036 -0.005102729287878863 0.016874335026709677 0.07581622422045108 -0.131584560672059
 -0.003030263768355833 -0.029214698944480293
 -0.14775372897465477 -0.3083852691911502 -0.005102729287878863 0.016874335026709677 -0.017549797738297068 -0.00026252324434997983 -0.0031393817575226827 -0.028700487363561733
 0.032554704166643876 0.0754977248504523
2090000000.0 0.04350909845949552 -0.14882412795950195 0.21792670160315833 0.24933153153227888 -0.05013794323515267 0.34581807140563026 -0.333601227474625 0.06281072801322822
 -0.1756229691201245 -0.29533266792402785
 0.21784296255895702 0.248755078083586 -0.012120840768327042 0.015913631775558882 0.028609922103944845 -0.004731200734281711 0.010944849180325634 0.011963721217296042
 -0.0020294435085738034 0.01707398474159788
 -0.050611843076739035 0.34352066167363565 0.028466821855392836 -0.004607845453344142 0.025932753069956956 -0.19278083201859245 -0.0020294435085738034 0.01707398474159788
 -0.01718599420710767 0.0027100252931801455
 -0.33854767614729364 0.062313734896389354 0.011054684907853279 0.012216545147677995 -0.002131773248774396 0.01744661005360765 0.06790852630813725 -0.13674015472222453
 -0.00653469261202039 -0.028717916505146966
 -0.17537429024779735 -0.2942119053405311 -0.002131773248774396 0.01744661005360765 -0.0172720666822242 0.0028061581485702702 -0.006540828998704719 -0.028187755810221683
 0.03921601072999646 0.07047016468437443
2100000000.0 0.03622754478308419 -0.14269981943850754 0.24246372937940774 0.22688977468350008 -0.019786396360696852 0.34922913787209686 -0.3268269265752179 0.09242799130118826
 -0.20188762068474206 -0.27866563736704897
 0.2424037398166977 0.22639556069018948 -0.006090089633216994 0.007944637413525584 0.027791020656979637 -0.008388755159913011 0.012993340425580122 0.009676875179711608
 0.0009126899599207536 0.017112052337498358
 -0.0204768743967875 0.34691827064778025 0.027657533702784846 -0.008253594557010115 0.019171821592838926 -0.1930502561647721 0.0009126899599207536 0.017112052337498358
 -0.016386429271693363 0.005672381807253459
 -0.33189345997118336 0.09238008633508143 0.0131415840664698 0.009870430481961043 0.0008885197925936272 0.0174764408050483 0.059904492200379536 -0.1411650195157909
 -0.009989810015698134 -0.02776730279678592
 -0.20151574688865584 -0.27757417545418506 0.0008885197925936272 0.0174764408050483 -0.016449610435395588 0.005744087480295261 -0.009960583330445387 -0.02726552742065097
 0.04532343921134151 0.0648130570668063
2110000000.0 0.030002182733086167 -0.13616946231553675 0.26460326048652216 0.20205804389792062 0.010792863121930101 0.349833326764227 -0.3174722621550377 0.12128344024053629
 -0.22655207695993299 -0.2597210119033061
 0.26447056930264123 0.20158702354401078 -0.0010278009377507424 -0.0004425853000774824 0.026467230857376244 -0.01197135079195696 0.014545762583818674 0.006986845225708147
 0.0038820306966353387 0.016623614758175972
 0.009911401661362484 0.3476050345767442 0.026375508822831184 -0.011811877342535639 0.012533621618362308 -0.1932910013263567 0.0038820306966353387 0.016623614758175972
 -0.015102507801966664 0.00847628631792665
 -0.32249149667902277 0.1216957097003196 0.014753552160201522 0.007147741128165033 0.003911563117592155 0.01698286759978786 0.05189305922900644 -0.14498129274871455
 -0.013351419577231273 -0.02640323545822369
 -0.22605540218153775 -0.25876726904122843 0.003911563117592155 0.01698286759978786 -0.015144376578031695 0.008547077423971941 -0.013230076272704356 -0.025915864209275212
 0.05086780830746514 0.05863892884035191
2120000000.0 0.024865589086595127 -0.12940333695022577 0.28407106049705017 0.17502582053960308 0.04140115566123043 0.3476933806367587 -0.305506260314785 0.14918625518645395
 -0.24940724545227197 -0.2385525328577218
 0.2838512596727792 0.1746043753316692 0.002998877720802063 -0.009128525935525872 0.02469383565459706 -0.01530885783193283 0.015549751249590158 0.004032930352379738
 0.006693205928607516 0.015626419796539486
 0.04029957796755208 0.3456164008446814 0.024586932655857447 -0.015132651081153272 0.005948736551013158 -0.1933943323100846 0.006693205928607516 0.015626419796539486
 -0.013326074612736959 0.010933196555576183
 -0.3105138105169367 0.1500812973870667 0.015787320780224642 0.004193190862678675 0.006776548225832541 0.01596956619602256 0.04385301489906167 -0.14812765121814228
 -0.016491763811938967 -0.02464404323699289
 -0.2488533720400806 -0.23766855555595082 0.006776548225832541 0.01596956619602256 -0.013341891877310923 0.011010892160211746 -0.01633889425850585 -0.02414172064999666
 0.05577147568469445 0.0519336219725515
2130000000.0 0.020723056278861892 -0.12279872358259082 0.3007354339239851 0.14627978965098648 0.07168663566149239 0.34287146962063764 -0.2911973707369937 0.1759014124374634
 -0.27025114626299496 -0.21542506348298268
 0.3005203032131241 0.14588310444595537 0.00606542488146187 -0.01796695705578962 0.02250337178990349 -0.01835573523043007 0.015954988834046363 0.0010496730966007
 0.009220247397919547 0.014160795152749126
 0.07046528178304293 0.3408958645849738 0.022409431576949666 -0.01818003326301071 -0.0007313798652514156 -0.19330377770501259 0.009220247397919547 0.014160795152749126
 -0.011172899185633866 0.013020607649696671
 -0.2960576910507177 0.17720736603395087 0.016189652675529905 0.0011402888750206832 0.009396564840533136 0.014457260008938308 0.035785435836531224 -0.15062739278508436
 -0.01940217414366602 -0.022516195089967637
 -0.2696567189592303 -0.21470749736682257 0.009396564840533136 0.014457260008938308 -0.011169848328649963 0.013150100463103945 -0.019196051551004838 -0.02201032908643566
 0.060072160517454586 0.04498889016505088
2140000000.0 0.01726387220948833 -0.11622820688836494 0.31428123995579965 0.11592447953224874 0.10142843420412383 0.3353133208847126 -0.27451412801411695 0.20111689111043798
 -0.2889711778418816 -0.19053501676491014
 0.3140299467073635 0.11554483579547951 0.008202321537275419 -0.026915444693520807 0.01993406093430994 -0.02113923683651759 0.01578858359581119 -0.0019727568726080084
 0.011480785147270406 0.012309593778006486
 0.10003536852805175 0.33343837745469346 0.01992082714063071 -0.02092246949844631 -0.007342146185416151 -0.19292930044817977 0.011480785147270406 0.012309593778006486
 -0.008709716374446511 0.014742402559855794
 -0.27926604159813195 0.2029600253795996 0.016032420485675842 -0.0019335828520391206 0.011698912481800165 0.012589284654634424 0.027650866195056432 -0.1525074287335902
 -0.022089262854472175 -0.020049020505535774
 -0.288350631706756 -0.18982439499664328 0.011698912481800165 0.012589284654634424 -0.008692508833219413 0.014840771011576841 -0.021816488306060797 -0.01962047967620683
 0.06375039004124447 0.03764552555874658
2150000000.0 0.014394934643452952 -0.10978554432052456 0.3246324528135621 0.08441781687970917 0.13037906157936016 0.3251784575964437 -0.2557260975627547 0.224826354760903
 -0.30541751879865026 -0.16399610103037937
 0.32444553232294837 0.08410951905011667 0.00936940392105949 -0.03595374307501287 0.01708568202264316 -0.023554271876301547 0.015100908546405417 -0.004841073013624158
 0.013422131809024664 0.01013522728801675
 0.12884628854930597 0.3233974774677344 0.01705457420628112 -0.023396487452210346 -0.013935599355608026 -0.19249442278439097 0.013422131809024664 0.01013522728801675
 -0.0060082946664658105 0.01604530538746086
 -0.26030317867997066 0.22702069830233781 0.01533066632603851 -0.004857371712204817 0.013672442651695933 0.010359498517443099 0.019461555796871664 -0.15376975043884972
 -0.02452842863907209 -0.01726171068755293
 -0.30469563736644534 -0.16340498837718687 0.013672442651695933 0.010359498517443099 -0.005965986596511647 0.01608557298472563 -0.024176105496180617 -0.01689497849740873
 0.06684458375044303 0.030014427531291223
2160000000.0 0.012232178433100637 -0.10329305640552226 0.33186355012578894 0.05210544472038351 0.1582796993141977 0.31257449741203247 -0.23493365811449657 0.24671542232808488
 -0.31942480761414555 -0.136124736509261
 0.33161200481551445 0.05183382104393021 0.009589362859031543 -0.04484656853518898 0.013910265921906547 -0.02561090917458973 0.013893801323074962 -0.007556996171051935
 0.01493409330869995 0.007649555894345916
 0.1565426620297005 0.31077951101532025 0.013922525167498985 -0.025428881934212052 -0.02059334744493293 -0.1918705853738194 0.01493409330869995 0.007649555894345916
 -0.003098053329321511 0.01679392633529232
 -0.23931560164300988 0.2493295075446401 0.014158361253504307 -0.00760900871754164 0.01522496250761608 0.007817653787798137 0.011357544581698863 -0.15434389029572138
 -0.026599878659216713 -0.014194511830693972
 -0.31858007958401596 -0.13558765729046687 0.01522496250761608 0.007817653787798137 -0.0030571639136005627 0.016877469021473267 -0.026210274973888212 -0.013869989643202185
 0.06922697930392083 0.022240307926649033
2170000000.0 0.010657022828495377 -0.09709889135978403 0.3356877952097215 0.01931720888388471 0.184894466093502 0.2974169227229958 -0.21228220371650822 0.2666800675183925
 -0.3308028810778027 -0.10706572975483063
 0.3355286847183716 0.019093600060348253 0.008921306785027337 -0.05360528817375303 0.010520370111990947 -0.027250953255527822 0.01225954443415391 -0.010001395998440398
 0.01601411963667249 0.004910194024194417
 0.18302919041267704 0.29581931934786954 0.010518826632313145 -0.027052690439575023 -0.027344175555880798 -0.19107713869115153 0.01601411963667249 0.004910194024194417
 -0.0001106794160101838 0.017066938281294644
 -0.21651711449490837 0.2698093637681268 0.012456175238901883 -0.010096313329555814 0.016321595146650818 0.005070012104535163 0.0032699704773335157 -0.15434426754394084
 -0.02830024735029133 -0.010884449118999205
 -0.330063402072733 -0.10663569336760025 0.016321595146650818 0.005070012104535163 -6.185285328529006e-05 0.017146094942663406 -0.02788694076315001 -0.010572302217221866
 0.07094953840240543 0.014354390829928383
2180000000.0 0.009622181140224796 -0.09106726332223442 0.33628030539410747 -0.013611936851052605 0.21013023280836934 0.28007365326216455 -0.18806372125091553 0.28471432914690636
 -0.339598847567634 -0.07713177853421556
 0.33611831132948855 -0.013822461801198224 0.0074507378030259745 -0.06212787340591801 0.006906138000872622 -0.028399549869466714 0.010145541459587825 -0.012051105446115621
 0.01656029366813877 0.0020487935781120497
