! Created with skrf 1.8.0 (http://scikit-rf.org).
# Hz S RI R 50.0 
!freq ReS11 ImS11 ReS12 ImS12 ReS13 ImS13
! ReS14 ImS14 ReS15 ImS15
! ReS21 ImS21 ReS22 ImS22 ReS23 ImS23
! ReS24 ImS24 ReS25 ImS25
! ReS31 ImS31 ReS32 ImS32 ReS33 ImS33
! ReS34 ImS34 ReS35 ImS35
! ReS41 ImS41 ReS42 ImS42 ReS43 ImS43
! ReS44 ImS44 ReS45 ImS45
! ReS51 ImS51 ReS52 ImS52 ReS53 ImS53
! ReS54 ImS54 ReS55 ImS55
!
2000000000.0 0.11398415558047208 -0.14763289330104715 0.28693800342906295 0.1600666445384421 -0.15638679416028387 0.2641933117794689 -0.34022237523010845 -0.06091214507247273
 0.0916421412959598 -0.32768850620678386
 0.28653831167911686 0.1595418697131218 -0.008429663795112303 0.10345184430046432 0.02112414648098823 -0.016100423061852866 0.01190292378069068 0.013536249397248828
 -0.012871221691978367 0.01086453987092718
 -0.1561196079027654 0.2620011941674508 0.021064217796161515 -0.015929024700992445 -0.1526122264214132 0.07866187530145963 -0.012871221691978367 0.01086453987092718
 -0.008438638589724077 -0.014139082411639681
 -0.34448097570861236 -0.06313043680451096 0.01200623855257371 0.01378167204699818 -0.013131876843713338 0.011101359227068463 0.176521436023478 0.011844324579726173
 0.011624174313409705 -0.027775656602222795
 0.09109461902663622 -0.3266101615189316 -0.013131876843713338 0.011101359227068463 -0.008510629174332124 -0.01416020253707653 0.011296814595259694 -0.027395129981706526
 -0.03137606607197927 0.09056624021690336
2010000000.0 0.102528647424905 -0.1467965214001452 0.3031379532125637 0.1314188192887065 -0.12964060978987513 0.2800413972331657 -0.34489860183922966 -0.0306320024832721
 0.06152795084119357 -0.33547614241926643
 0.30260424831320154 0.13098224408852957 0.0029772368739508937 0.09551853208089203 0.018763549276689044 -0.018899326315990114 0.014124787708466856 0.011000728607057768
 -0.010541711049399197 0.012978152273031134
 -0.12964777021279056 0.2779456787338739 0.018752766446763405 -0.018750249697737257 -0.14083990019654002 0.08527444351433738 -0.010541711049399197 0.012978152273031134
 -0.01090093524267254 -0.012183710542878761
 -0.34944113635783525 -0.032556746293669565 0.01426793657325761 0.011238540000269704 -0.01076354176018928 0.013249022955891265 0.17486884390037802 0.0020472703852052695
 0.008362904867592977 -0.028851867654045727
 0.061166824576129486 -0.334244784279039 -0.01076354176018928 0.013249022955891265 -0.010988884525070294 -0.012192490674668334 0.00811089580062828 -0.028433938396407843
 -0.022997523359952442 0.09123799373469567
2020000000.0 0.09176013625591509 -0.14479123803731456 0.316136467430854 0.10115830700811425 -0.1012592478277764 0.29283358590216396 -0.3467462979828138 -3.28616247073775e-05
 0.03080433987893979 -0.34024118277133647
 0.315557590942809 0.1007467502130487 0.01345361478605633 0.08702797293674733 0.01605155113713483 -0.0213441162279856 0.01578540633072188 0.00815351573238342
 -0.007906820952493707 0.014633424194598298
 -0.10153789492469929 0.2908745347778464 0.016051552815299693 -0.021164959157325997 -0.12868589779382747 0.09075282451123008 -0.007906820952493707 0.014633424194598298
 -0.01291879244005293 -0.009931277878505448
 -0.3516056213252155 -0.0015334422612679015 0.015994509191645658 0.008351841871519737 -0.008082252509213284 0.014915001011447805 0.17281381425717166 -0.007458844651655519
 0.005039654745406414 -0.029635418204056414
 0.03054792373113957 -0.3390418147188079 -0.008082252509213284 0.014915001011447805 -0.013015223320898705 -0.009870927900213789 0.004817199162538649 -0.029129845384145953
 -0.014496966151625835 0.09122571865062873
2030000000.0 0.0815694839012937 -0.14185644743315623 0.325987482045727 0.06959816413265597 -0.07170560048744253 0.3028218186797335 -0.34597746275408436 0.03067809837190822
 -0.0002962136477081188 -0.3422352364298016
 0.32549761766690527 0.06926074817784202 0.02281932413478762 0.07806372823804247 0.013015184701356307 -0.02343453957078957 0.01697926462984367 0.005079824665184251
 -0.005053483307284516 0.015807913318369372
 -0.07218358064586318 0.3008334809907933 0.01303592223497179 -0.023305509527858304 -0.11621898449992758 0.09496578515245174 -0.005053483307284516 0.015807913318369372
 -0.014539694827451 -0.007290235851857279
 -0.35092679284719835 0.029591818495195956 0.01721179283415957 0.005244217676977983 -0.005164697795695825 0.016105782052006495 0.1701933183968282 -0.016666677958708336
 0.0016353165212652809 -0.0300240902821716
 -0.0004315925839843977 -0.3410722508727918 -0.005164697795695825 0.016105782052006495 -0.014593913697978524 -0.007252591837544431 0.0014487899951829452 -0.02957033650360403
 -0.006043178109124542 0.09038697229321845
2040000000.0 0.07199160931627227 -0.1379964008710628 0.33264736468140665 0.03710177627100915 -0.04126589024745153 0.30974797883601357 -0.342392437028086 0.06120667774428886
 -0.03142943685616009 -0.3413845476134143
 0.3321436354297959 0.03678266358692066 0.031243044900648394 0.06880163966658624 0.009645960980271956 -0.025113053990647543 0.017568236492614825 0.0018290328126048297
 -0.001994165164694674 0.016419928410900075
 -0.041870169354147856 0.3078193860341978 0.009715983275661016 -0.024964512480760474 -0.10368352742411553 0.09801429606956012 -0.001994165164694674 0.016419928410900075
 -0.015613311717854919 -0.0043252037813523575
 -0.3474134959748021 0.06054807695811164 0.017850887118606752 0.0019227097758517527 -0.002049511806550228 0.016753066214165457 0.1671845298626942 -0.025581024644167102
 -0.0019094210477200082 -0.030083907633478603
 -0.03150806577251226 -0.3402838890329217 -0.002049511806550228 0.016753066214165457 -0.015694148222859926 -0.004327666042375957 -0.0020182070309188605 -0.029554991297225844
 0.0023175118207243374 0.08874286767240915
2050000000.0 0.0633053079005087 -0.13335181817924188 0.33597023553664196 0.0040697750938081985 -0.01021259872427195 0.31367036219109484 -0.3361613425399799 0.0913327003274279
 -0.062449651269094006 -0.33767236863338274
 0.3354694151173501 0.003753548278976877 0.038758698452295536 0.059264532569817695 0.006013802966039754 -0.026267042458275325 0.017513186689376736 -0.001504177994154304
 0.0011306332824629409 0.016393720842840492
 -0.010944545055771374 0.3117409596892218 0.006071276261775256 -0.026132677405639754 -0.0910620407489132 0.09979034856015971 0.0011306332824629409 0.016393720842840492
 -0.01609520707171147 -0.0013027820326725168
 -0.3412463719301146 0.09115019521508115 0.017791403250792273 -0.001449882758786536 0.0011571589159523757 0.01674526100535624 0.1639768909780367 -0.034101211191545196
 -0.005491748516102645 -0.029632757291649388
 -0.062495392023786206 -0.33653800207716694 0.0011571589159523757 0.01674526100535624 -0.016144000906289584 -0.0012401526230070856 -0.00554370164435981 -0.029126524984122742
 0.010366281090758381 0.08631747078199054
2060000000.0 0.055610605919243945 -0.12785462165797137 0.33593885701133425 -0.02931756994336657 0.021219716777904275 0.31438588806504936 -0.3272245037629828 0.12088841526452564
 -0.09306323595330801 -0.33115222715580034
 0.3353296248155242 -0.029558053122929535 0.045442213903811625 0.04956577605961746 0.002289010706330012 -0.026884083157008274 0.01682091809348288 -0.0047067480870026145
 0.004161438505473489 0.015785588825502992
 0.02030276868348682 0.3124357960552818 0.0023878993735790568 -0.026762376497683472 -0.07858828281997685 0.10046211273085805 0.004161438505473489 0.015785588825502992
 -0.015960307995132646 0.0017810575808724876
 -0.33228938724788604 0.12117297723499507 0.017083759795805013 -0.004722504548515994 0.0042264149493465705 0.0161404758715357 0.16053927162356896 -0.04248848487708289
 -0.008977270848827044 -0.028733439996210707
 -0.09300646972838625 -0.32995152247677895 0.0042264149493465705 0.0161404758715357 -0.015992777749580606 0.0018246266226331286 -0.008964992310835291 -0.02822392161651513
 0.018112138452695912 0.08322936524037716
2070000000.0 0.04895903979193921 -0.12180929746046389 0.332413258470332 -0.062521241754203 0.05261365672049072 0.31184032379697657 -0.3155989356407872 0.1496064308793116
 -0.12301096476633859 -0.32176310037338696
 0.3317961431624879 -0.06271451824942367 0.05128901875622523 0.039539518616099646 -0.0014627535469715334 -0.026938635756174965 0.015508523217218843 -0.007676401879726198
 0.0069486546347160855 0.014645380783990497
 0.05152294014933689 0.31001518675800915 -0.0013689515369924043 -0.026826311694352047 -0.06632708210448632 0.10005714471836494 0.0069486546347160855 0.014645380783990497
 -0.015246405147135406 0.004701737081378212
 -0.3205965513851811 0.15030328331870382 0.015759993273734032 -0.007707608049838503 0.007069669076966177 0.014943255366764873 0.15687833707194065 -0.05057366940969767
 -0.01229182184929566 -0.0274407343405666
 -0.12285109823504582 -0.3206015526966349 0.007069669076966177 0.014943255366764873 -0.015271687384365813 0.0047254054564598745 -0.012227775087784113 -0.026931725273688076
 0.02550937588192691 0.07952201713035477
2080000000.0 0.043426743903547886 -0.11532209015658455 0.32555463410618346 -0.09519397693450042 0.08371929590013623 0.3062158098954342 -0.3014147857827108 0.17722482750440866
 -0.15196363117734288 -0.3096742856657138
 0.3249267616491195 -0.0953504402662961 0.056107785165475495 0.02939704027131497 -0.0051357000852594505 -0.02651604999008873 0.01379456641905314 -0.010300229062067774
 0.009489295015698333 0.013084878624130773
 0.08247202355568484 0.30454568706632706 -0.00501516644710972 -0.02642895817357367 -0.05431079679149881 0.09856681115593303 0.009489295015698333 0.013084878624130773
 -0.01408130216853568 0.007380673497091225
 -0.3063362893192915 0.17835661767263566 0.014052704757075466 -0.010372655363157537 0.00962107135513885 0.01337087679469764 0.15299071809463663 -0.05843089181006376
 -0.015440698428206948 -0.02583271802435378
 -0.1517427760596205 -0.30852978455852076 0.00962107135513885 0.01337087679469764 -0.014126347787929495 0.007450004410809556 -0.015343465639309847 -0.0253622478035278
 0.03259209793890891 0.07511928333803601
2090000000.0 0.03922037285993319 -0.10847670244194839 0.31536344908689706 -0.126951420502955 0.11410713007992401 0.2973936901784334 -0.28472511026354014 0.2034419704777604
 -0.1796791295845843 -0.2949448804631264
 0.31475411230350797 -0.1270821065963614 0.06009276561446768 0.019271979185847454 -0.008749504098517666 -0.025647329817286554 0.01165274532881032 -0.012629811339222348
 0.011699455470811304 0.011111559645637807
 0.11271800827173911 0.2958755983474388 -0.0086343838854467 -0.025564536348218765 -0.042567511567845225 0.09609472789456762 0.011699455470811304 0.011111559645637807
 -0.012435589640808136 0.009855796825826858
 -0.28959360814556084 0.20509098220906585 0.011906619792396161 -0.012718578931224092 0.011883719790658475 0.011336612623578525 0.14895253350714552 -0.06596176134702954
 -0.01844350152270832 -0.023875139918026225
 -0.17933546235889114 -0.29377282387842707 0.011883719790658475 0.011336612623578525 -0.012471929300329221 0.00993489082937446 -0.01827453917058391 -0.023430608876639166
 0.039168118212406386 0.0700701780558013
2100000000.0 0.03629579483329738 -0.10162984987356526 0.3020995365144664 -0.15752272385254903 0.14348394696851036 0.2854914076822949 -0.2656682501737514 0.22798133009034413
 -0.2058725990189284 -0.2777194484460362
 0.30149406917232624 -0.15759248697201142 0.06330886469310182 0.009222940260297822 -0.012250789045774714 -0.024258278631783686 0.009163961192277264 -0.014486005292872285
 0.013502662155392498 0.008739858506631188
 0.14192988848851368 0.28403197465671115 -0.012110724650922378 -0.024184010066676892 -0.031310698903908446 0.09262029973333485 0.013502662155392498 0.008739858506631188
 -0.01038725378839792 0.012000635157030154
 -0.27044192958908386 0.23012172235220987 0.009364888208430193 -0.014689659071841298 0.013752539693854484 0.00895053779738168 0.14483673705349365 -0.0730215105450625
 -0.02125916544641446 -0.021523800584667806
 -0.2054995321855006 -0.27666257976571873 0.013752539693854484 0.00895053779738168 -0.010390431801998055 0.012114660530841202 -0.02100330137180393 -0.021080195800318315
 0.04516947865889921 0.0644259898004927
2110000000.0 0.034522571306709965 -0.09515916518682353 0.2858763876632957 -0.18663570865886683 0.17154320715747065 0.2707168072991571 -0.24460831572030253 0.25078245449534065
 -0.23044916721879247 -0.25820972191765484
 0.2853513734999241 -0.18667306670409126 0.06582817832659764 -0.0007886243298296618 -0.015571977715940263 -0.022389585003260524 0.006322309630297105 -0.015940939566111475
 0.014892694563581381 0.006071683604862404
 0.1698759568653309 0.26940168564247796 -0.015417474035612753 -0.02231473799592458 -0.020517493995932785 0.08825792030952774 0.014892694563581381 0.006071683604862404
 -0.00797155953950884 0.013731432494968351
 -0.2490277857459236 0.2533183118947894 0.0064777984542272946 -0.016146480740749376 0.015152778152777107 0.006220863152683642 0.14072691594129957 -0.07984022641125152
 -0.02379862986722513 -0.01884299066577175
 -0.22999154396472088 -0.257259464581581 0.015152778152777107 0.006220863152683642 -0.007960503341485473 0.013813100271288984 -0.0234945782038574 -0.01841804374352612
 0.05065290326615708 0.058247964113876345
2120000000.0 0.033552048214773686 -0.08895040172462876 0.2667801575616268 -0.2139853921594258 0.1979664957499267 0.25313457944388096 -0.2215078529758732 0.27152656318617635
 -0.25323183486870643 -0.2365037762199495
 0.26628152353817025 -0.21390514762048046 0.06765071056694545 -0.01080095636973281 -0.01854271244859533 -0.02007376233180797 0.003265386834037153 -0.01680963027853903
 0.015673309261366727 0.0032142623213083188
 0.1961399478708613 0.252000191333131 -0.018382699270833823 -0.020011978370096873 -0.010434044210520365 0.08311865716883367 0.015673309261366727 0.0032142623213083188
 -0.005241202046954829 0.01498446293206541
 -0.22574948231462186 0.27451390624603816 0.003374083875410716 -0.017019699778973642 0.01599960989632498 0.0033052764205726433 0.1364694139173729 -0.08626242136280411
 -0.025934566023372355 -0.01580338255743492
 -0.2526506261222329 -0.2356441353819475 0.01599960989632498 0.0033052764205726433 -0.005216977151641513 0.015038536774787711 -0.025597029713926692 -0.015455115081312037
 0.05548212160196357 0.05163865991050972
2130000000.0 0.03334763519947254 -0.0830486444412962 0.24511645029070084 -0.23923072298972406 0.2225259807015504 0.2330529066321132 -0.19664489839444865 0.2901264428946469
 -0.27386400164459856 -0.21285567859755739
 0.24466509839619416 -0.23917963599614 0.06878162058882627 -0.020644293520306056 -0.02118870270853208 -0.017382547343123788 0.00011140158094303818 -0.017073480209824382
 0.015947041102650432 0.0002817786827313353
 0.22056925445524875 0.23203758927829451 -0.02100993333685954 -0.017342243013913815 -0.0010426051932784799 0.07728348241046469 0.015947041102650432 0.0002817786827313353
 -0.002371410057268749 0.015645163900867873
 -0.20066147176637292 0.2935356307714433 0.00016677516782399984 -0.017319213482425128 0.016261690092681844 0.00029658737873502464 0.1320547673787322 -0.09241890747451628
 -0.02770851001551182 -0.012610451260280268
 -0.27325016909410754 -0.21206961818645842 0.016261690092681844 0.00029658737873502464 -0.0023132386195139215 0.01574908360349486 -0.027327544180040884 -0.012261368399377586
 0.059771261862889065 0.04473117725233353
2140000000.0 0.0339608590552969 -0.07734874670177007 0.22103692607883446 -0.26221748535957506 0.24492395261319122 0.21058446836216346 -0.1702730092097137 0.30646059928170594
 -0.2921988894042033 -0.18734711377787996
 0.22063494740687503 -0.2621038728659678 0.06922976322345291 -0.030396617204428402 -0.023416839801159307 -0.014348193890801672 -0.003027082325370022 -0.016760582191909193
 0.015679715328611198 -0.0026255849507556338
 0.242805608626025 0.20973376319613235 -0.023242658115092147 -0.014334153358279304 0.007625578576245887 0.07082272230711696 0.015679715328611198 -0.0026255849507556338
 0.000546823862562931 0.01580555831688671
 -0.17393682354878467 0.31020811128631115 -0.002997636174412719 -0.017032374232348987 0.016003877472579465 -0.002663178739729574 0.1274729447293163 -0.09824710352833861
 -0.02913257855712361 -0.009159960054680361
 -0.29155847804529605 -0.18664604032720503 0.016003877472579465 -0.002663178739729574 0.0006373212697877258 0.015877803567334998 -0.028699852665852142 -0.008924932442099017
 0.0633815684398799 0.03746884036650209
2150000000.0 0.03547584381751073 -0.07211189675463053 0.19487372285299434 -0.28259708682924195 0.26502718994344804 0.18599040660977212 -0.14250028657205796 0.3203253590306369
 -0.3081958031246209 -0.16024335645585613
 0.194447080552981 -0.28243483344051507 0.06910148853585889 -0.04000378711913222 -0.025273450053146487 -0.011044083771943807 -0.006047574933839325 -0.01591806857550354
 0.014928856223544265 -0.00543175319136184
 0.26288319627062684 0.1853771269364587 -0.02509642285600187 -0.011081275352539293 0.015563544178260664 0.0637637189661928 0.014928856223544265 -0.00543175319136184
 0.0034801930335367913 0.015482379348662504
 -0.14580698164710493 0.3243990560688418 -0.006054823006865514 -0.0161741934758155 0.015229810723080217 -0.005525539397741371 0.12271482444712964 -0.10377345737081027
 -0.03017848476261958 -0.005559218876747251
 -0.3075385402063873 -0.15961752668048435 0.015229810723080217 -0.005525539397741371 0.0035274541469206837 0.015487211709828504 -0.029724123256506692 -0.005328276637869248
 0.06643497157516261 0.029886785749439836
2160000000.0 0.03768985717085454 -0.06753194910811018 0.16689132773829587 -0.30026701754526325 0.28260631459460533 0.15961233652970175 -0.11366854248383994 0.33164370041869756
 -0.3216672376873039 -0.131834981562772
 0.1665923494912469 -0.30008268420118667 0.06839301289734455 -0.04941643859528439 -0.026641201718628972 -0.007543712495256836 -0.008847454210429744 -0.014478325675423632
 0.013649848176740803 -0.00806156118386414
 0.28032939973327214 0.15914137361033945 -0.026479798563720323 -0.007550959259088708 0.022520719492836856 0.056253599010433794 0.013649848176740803 -0.00806156118386414
 0.006287350188900649 0.014555458444215876
 -0.11664278942926119 0.33601445865633367 -0.008907019775172024 -0.014765626750932462 0.013991044349282607 -0.008226479015188647 0.11782879466504324 -0.10894989287767248
 -0.030766695600337807 -0.0018200703349239792
 -0.32088033003608524 -0.1313209179682909 0.013991044349282607 -0.008226479015188647 0.006372973664748185 0.01461751561493483 -0.030287771016366146 -0.0016618263388794353
 0.06876515968955808 0.022229792870315106
2170000000.0 0.040450111291010345 -0.06381758443435963 0.13747277882436224 -0.3150561885023785 0.2973419128717966 0.13152278801205006 -0.08402057868925744 0.3403547219268712
 -0.33242804173182744 -0.10236304832781883
 0.1372045653326313 -0.31497673939338705 0.0671459915665319 -0.058678648628010775 -0.02751521428758827 -0.0038304017755441087 -0.011371332810570433 -0.012609312173349848
 0.011940019151050581 -0.010429772827403105
 0.2951624255235278 0.13129897639347224 -0.02735521032536554 -0.003877349355943049 0.028664183697844875 0.048293628989496365 0.011940019151050581 -0.010429772827403105
 0.008896495746389807 0.013154738590938029
 -0.08654247422164196 0.34510488748921475 -0.01147949097152461 -0.012861000704891034 0.01220716860483019 -0.010640020593286989 0.11270860208211049 -0.11391284906653892
 -0.03089325830039002 0.0019711506600434614
 -0.33166578879624536 -0.10194305099731601 0.01220716860483019 -0.010640020593286989 0.008994220298481875 0.013203762237073605 -0.030396540466786706 0.0021031701849013942
 0.07046251606328342 0.014412399419960023
2180000000.0 0.04355040745668421 -0.060793507169775524 0.10682800508380824 -0.3269032140286828 0.3093004874236656 0.10218853351299184 -0.053703930938347695 0.3464015213331264
 -0.34049366095138733 -0.0720542824258882
 0.10655675774507044 -0.32678589833705773 0.06533537814760439 -0.06774663859453911 -0.02790837579345251 -5.315652844271027e-05 -0.01345639061982327 -0.01026608102349343
 0.0097754913552042 -0.012453045267310324
