! Created with skrf 1.8.0 (http://scikit-rf.org).
# Hz S RI R 50.0 
!freq ReS11 ImS11 ReS12 ImS12 ReS13 ImS13
! ReS14 ImS14 ReS15 ImS15
! ReS21 ImS21 ReS22 ImS22 ReS23 ImS23
! ReS24 ImS24 ReS25 ImS25
! ReS31 ImS31 ReS32 ImS32 ReS33 ImS33
! ReS34 ImS34 ReS35 ImS35
! ReS41 ImS41 ReS42 ImS42 ReS43 ImS43
! ReS44 ImS44 ReS45 ImS45
! ReS51 ImS51 ReS52 ImS52 ReS53 ImS53
! ReS54 ImS54 ReS55 ImS55
!
2000000000.0 0.12143259769979327 -0.19281138524491662 0.259421059831864 -0.22094229582178854 0.08104893408911155 0.29752569906210485 -0.33539672794844255 0.06651960298459908
 0.09441225375075842 -0.32627093571989096
 0.25875158047200947 -0.2207311830918374 -0.09713372862710319 -0.1351883343063747 -0.02480150369111449 -0.012495879267389045 0.013690797434379152 -0.012595863230657867
 0.0049350095799348525 0.01604241291801176
 0.07963846843330981 0.29575294056716883 -0.024622466387348916 -0.012503147760765136 0.043182896186449576 0.10302856131680685 0.0049350095799348525 0.01604241291801176
 -0.01613409713218977 -0.0038036142024996953
 -0.3401582736070557 0.06598373326935737 0.013942956059896264 -0.012703462727364102 0.005028736736142628 0.01637580739803979 0.13663763311222127 -0.1604961372573296
 0.0006893241772660474 -0.029731666771546022
 0.09387060589458972 -0.32524415978823523 0.005028736736142628 0.01637580739803979 -0.016230287673711787 -0.00374776728501206 0.0004990160634035697 -0.02926389076690077
 -0.031536885101534955 0.09073978060865386
2010000000.0 0.10410458412047742 -0.19162305259228798 0.2378006739492843 -0.2455391206910342 0.11128189596664001 0.28941558885397445 -0.3289661397302617 0.09583393191620562
 0.06445728310401172 -0.33465083558007036
 0.23715521633564857 -0.24514515525603445 -0.09935818156361764 -0.1332434049978349 -0.02621128063312407 -0.009059248705416465 0.011067306795443573 -0.014737284105036103
 0.007756129514503155 0.014727404360063309
 0.10970729795767599 0.2879556729884005 -0.02605491332124405 -0.009127113897831924 0.056313940459447244 0.09288260176630662 0.007756129514503155 0.014727404360063309
 -0.016507082712992546 -0.0006775834328722272
 -0.3338426792987133 0.09574563029157714 0.011322393758145814 -0.014883882109163218 0.007917980123094423 0.015055016913134123 0.12726265840466258 -0.16570207008017773
 -0.0026957253238092406 -0.029580422837473273
 0.06408066582485651 -0.3334296127201086 0.007917980123094423 0.015055016913134123 -0.016525821744557995 -0.0006422615320132034 -0.0027602949373942945 -0.02909430131301906
 -0.02310433446056907 0.09141907609410319
2020000000.0 0.08732199393092809 -0.18837390513911192 0.2137994130873248 -0.2677467402583852 0.14050102401088915 0.2780973761717769 -0.31990112152573924 0.12455780339426627
 0.03380550333925035 -0.3400497215162072
 0.21318529578023884 -0.26737515182698024 -0.10135655866155241 -0.13117195051846228 -0.02715289141605938 -0.005496868883294042 0.00817584094892563 -0.016355857429315897
 0.010277124997647819 0.012969270763349278
 0.13887205555980806 0.276838052809788 -0.02704215750328981 -0.005605876465586753 0.06818683598205436 0.08167920841411781 0.010277124997647819 0.012969270763349278
 -0.016265598396768822 0.0023907044794014252
 -0.32497150476868825 0.12491904703486836 0.008370078430145006 -0.016543120736021672 0.01044451852093009 0.013225603360658339 0.11786546504828913 -0.17045218609885288
 -0.005987130118358123 -0.029113568114748547
 0.03352867972678798 -0.33884364309215914 0.01044451852093009 0.013225603360658339 -0.016269899298822606 0.0024457214722251827 -0.006026356523354344 -0.02858113993460567
 -0.01456815809006773 0.09142158645765745
2030000000.0 0.07150883852400047 -0.1831655888876531 0.18764336335557788 -0.28750661571519137 0.16853120184693918 0.2637740981732833 -0.30830180725378376 0.1524409429515515
 0.0026579344951906 -0.3425907871866473
 0.18715981339340587 -0.28715206672264965 -0.10318877930063312 -0.12904417749878458 -0.027671103016835563 -0.0018618625316305416 0.005040845376842097 -0.017425554759584256
 0.012429403300121582 0.01079513318443649
 0.16672536922875814 0.2626596053651612 -0.027528334916716996 -0.0018903156565851697 0.07868389584531965 0.06952642144327015 0.012429403300121582 0.01079513318443649
 -0.0154890841166943 0.005358221166733705
 -0.31339080227001687 0.15327288743587117 0.005231782339139177 -0.017680744108716454 0.01266045625792821 0.011024090406578908 0.1083678862084826 -0.17467061713247684
 -0.009277965374196073 -0.028274831949023846
 0.002450200406208262 -0.34143666268828465 0.01266045625792821 0.011024090406578908 -0.015497867346802648 0.0054506962058795275 -0.009236590959931299 -0.027752114234928783
 -0.006045649635040485 0.09057924575088515
2040000000.0 0.05701013425647816 -0.17625748550829398 0.15980275059712168 -0.30470674499877315 0.19496691373848105 0.24660404947191122 -0.2943505743209629 0.17931377023592673
 -0.028703381375905456 -0.3422509897992133
 0.15934979776603897 -0.3043852249464393 -0.1047860946029245 -0.1271015500693446 -0.027679293910520857 0.0019232430955652261 0.001774771914573268 -0.01792060218857128
 0.014182907947620064 0.0082407745255491
 0.19312186228377984 0.245635052308534 -0.027558271574992518 0.0018327324617203092 0.08782176353577231 0.0566729968077962 0.014182907947620064 0.0082407745255491
 -0.014126567120239138 0.008195925437385254
 -0.2993067713581868 0.18055167781324497 0.0018968321636494484 -0.01821034767013911 0.014452807971641064 0.008413355452311819 0.09903763981568346 -0.1783800864289735
 -0.012533901820110091 -0.02704167735644314
 -0.0288267230529121 -0.341220624985982 0.014452807971641064 0.008413355452311819 -0.014135783449856337 0.00826215825709312 -0.01244657126992071 -0.026567458074040144
 0.002336280230982954 0.08895551330193839
2050000000.0 0.04423175325678992 -0.16802805114537628 0.13040273695261617 -0.3192371582431221 0.21957226576078898 0.22671589735589082 -0.2779639604860859 0.20490971755392626
 -0.060032442206534684 -0.33910233860134903
 0.12994531997407086 -0.3188330363680221 -0.10621840974743564 -0.12531033120403592 -0.027158606637111088 0.0056960330315471205 -0.0015356567695059768 -0.017794241011511835
 0.015396764112488099 0.005381321419601948
 0.21763687530739392 0.22586876914423912 -0.027012762730785986 0.005580313476995853 0.09555560817505764 0.043259368742582766 0.015396764112488099 0.005381321419601948
 -0.012262279904643916 0.01067657920019941
 -0.2827329962051231 0.20660367640792215 -0.0014998982640822003 -0.018078042318912958 0.015704755375440246 0.005519624716552145 0.08981241089403275 -0.18167480687332208
 -0.01565449349876796 -0.025382740938794928
 -0.060078603627195706 -0.33792256882570926 0.015704755375440246 0.005519624716552145 -0.012260461492823574 0.010755994272426458 -0.015514308734807138 -0.02488870668804796
 0.010451104891287909 0.08651161030678631
2060000000.0 0.03311123179850971 -0.15871967139006327 0.09971343453063614 -0.3309168878417316 0.24202471686491353 0.20426735796415066 -0.25926535596498346 0.22901810534047107
 -0.09105129704805996 -0.33302455801312947
 0.0992212069802744 -0.33035554967255776 -0.10761198829175213 -0.12365580124789852 -0.026056549734138075 0.009278658214610835 -0.004702855379647464 -0.017064336947657674
 0.01600232642786967 0.0023973120731750237
 0.24000582584348482 0.20366927543189825 -0.025971924547382806 0.009156946159189784 0.10185792626105564 0.029434789327710747 0.01600232642786967 0.0023973120731750237
 -0.009974118383459608 0.01272012635947587
 -0.2638860802876201 0.2311133380452805 -0.004681859075249662 -0.01735730577526852 0.016312996584032884 0.002462545604845924 0.08079345080996932 -0.18465051269892285
 -0.018563312037447165 -0.023336479075898715
 -0.09097195620315204 -0.33170004799243424 0.016312996584032884 0.002462545604845924 -0.00995947647199902 0.012796689854483805 -0.018350352419598315 -0.02285932444319098
 0.018238065175690488 0.0834226390834697
2070000000.0 0.023787738458659464 -0.14870176173602773 0.0679359006746862 -0.33949624617051183 0.26207379277959153 0.1796116540339864 -0.23834178428855707 0.25147310578528853
 -0.12133592651119496 -0.3238713173896495
 0.0675022828432492 -0.338949969529516 -0.10906051245662356 -0.12213206811663736 -0.024472903071699855 0.012656776247349075 -0.007612388962448455 -0.015770894565986744
 0.015996062936774833 -0.0006131768309885682
 0.25999173345580817 0.17914773017806532 -0.02443762055323923 0.012495670701870807 0.10684646842668725 0.015391840416651991 0.015996062936774833 -0.0006131768309885682
 -0.007366892292879932 0.01426673174619847
 -0.2427100742651411 0.25387936900230057 -0.007672930322565635 -0.016034436723940282 0.016330445077571823 -0.0006044883219791582 0.07184526100978883 -0.18726295015798516
 -0.02115688107741156 -0.02095693081183195
 -0.12117424962788202 -0.32267534441345785 0.016330445077571823 -0.0006044883219791582 -0.0073338379840211295 0.014343006452909455 -0.02091408597684109 -0.020496581085696717
 0.02565643262465169 0.07963017729544691
2080000000.0 0.016233509873850468 -0.13824129725004392 0.03545455203852477 -0.345105259577091 0.27943118583874216 0.1530416544117084 -0.2153674158504834 0.2718630741473108
 -0.1507815001329676 -0.3120117101398679
 0.03509398412461637 -0.34445347005367716 -0.11051272662931792 -0.12066642009413574 -0.022570607329783787 0.015787495124824795 -0.010201278667859756 -0.014034781375224275
 0.015558447970817353 -0.0034958908483828364
 0.27733382454071626 0.15275557074019322 -0.02251171458148758 0.015641702704194127 0.11055245328053195 0.0011270029395030125 0.015558447970817353 -0.0034958908483828364
 -0.004598401181513606 0.015295790017272768
 -0.21958911733500924 0.2747036247900184 -0.010289396612024743 -0.014310728344406711 0.01587289687308519 -0.003542245766408319 0.06306373173111039 -0.18947596957684917
 -0.023499586678747138 -0.018388254598666155
 -0.15054883012606238 -0.3108707488654388 0.01587289687308519 -0.003542245766408319 -0.004557604528876292 0.01537597549883965 -0.023223144448719975 -0.01792755557632494
 0.032705095587801505 0.07522566471752054
2090000000.0 0.010371322418788456 -0.12769142679034298 0.0025464118691581406 -0.34738558451798845 0.2939551635199072 0.12479037544767169 -0.1906821323501984 0.2900994055086149
 -0.1789568396508374 -0.2974182729463818
 0.0022196879438114926 -0.3468300080804697 -0.11188934439172492 -0.11935322520715463 -0.02029343990359798 0.018665278910487155 -0.012453719888434925 -0.011928297197629117
 0.014590073086712226 -0.006260255066750599
 0.29179285354407 0.12466879117517914 -0.020218527135700888 0.018512427590087432 0.11296235473298571 -0.01314110863817396 0.014590073086712226 -0.006260255066750599
 -0.0016860184504277206 0.015862328372147162
 -0.19459852647275896 0.293352753156741 -0.012581891112637392 -0.0122067008089227 0.014888930693146049 -0.006347284268610342 0.05446066511244321 -0.19128113416347267
 -0.025612653937288142 -0.015510279331036244
 -0.17862587946686714 -0.29625668297179825 0.014888930693146049 -0.006347284268610342 -0.0016182011389279775 0.015925380745015892 -0.025238029542906815 -0.015098601276764908
 0.03934451988724238 0.07011279581902817
2100000000.0 0.005919712150105592 -0.11708542470221778 -0.030455545556925673 -0.34655221068281533 0.30549037342299834 0.0952810005592379 -0.16441825008823902 0.3059910957432918
 -0.20567885974862202 -0.28022328997830864
 -0.030753746457517026 -0.3460289432132962 -0.11332465252883059 -0.11816766215397735 -0.017573850837449115 0.021223534987160234 -0.014312875438725848 -0.009500880618482754
 0.013120073125066243 -0.008797973064691674
 0.303321787134348 0.09535686176401302 -0.01755306758396381 0.02106087148004176 0.11400349798169178 -0.02720503515801147 0.013120073125066243 -0.008797973064691674
 0.0012930064428339275 0.015877613601381693
 -0.16810157934457728 0.30973543189833624 -0.01451471335825444 -0.00969880615953086 0.01339298667701321 -0.008969996848258813 0.04621459207664966 -0.19262598939721506
 -0.02734543906050089 -0.012324922642444145
 -0.20525650215882574 -0.2791183827030312 0.01339298667701321 -0.008969996848258813 0.0013810372189634428 0.015940211412182676 -0.026967474537006878 -0.011980878149620037
 0.04533145635119413 0.06443118924591298
2110000000.0 0.0029179892378665153 -0.10638370020096764 -0.06329858891035102 -0.34246555414960567 0.31396029572601164 0.06479189265116017 -0.1369022091954986 0.3195950077179925
 -0.23074951334475136 -0.2606789824609554
 -0.0635422316977977 -0.3420511901525795 -0.1148632302134864 -0.11711854889139028 -0.014561725046652433 0.023451171445203513 -0.015740345404137587 -0.0067536255770225834
 0.01121199572459199 -0.011043292363467742
 0.31184065043131187 0.06505861828353289 -0.014533908530711893 0.02324518348029126 0.11391096005294708 -0.041087467689784496 0.01121199572459199 -0.011043292363467742
 0.004255081004073385 0.015341962197523009
 -0.1401413573602668 0.32359961063306675 -0.015917491081368515 -0.006907077424527716 0.011448874760261296 -0.011254031408974711 0.03824620798503505 -0.19370179128890902
 -0.028709402727543656 -0.00891278695362197
 -0.2302438481062673 -0.25969181928261165 0.011448874760261296 -0.011254031408974711 0.00429814015547026 0.015391036673508617 -0.028259328676176816 -0.008649786951516534
 0.05079980406494681 0.05822265126756231
2120000000.0 0.0015414616513107036 -0.0956571130207385 -0.09557294640380687 -0.33524848265361523 0.3193227507370676 0.03360551870563034 -0.10815340870165484 0.33056204176903475
 -0.25391502962159773 -0.2387773086927121
 -0.09572144694155303 -0.3347217407558532 -0.11654799900432287 -0.11611654251514783 -0.011232336149756068 0.02514789734856859 -0.016612179011874117 -0.0037786158196499425
 0.008918212744902251 -0.01285002018752897
 0.31718155431442985 0.034161681814856834 -0.011238134962252328 0.024952374571375873 0.11269244229654192 -0.054527183605018334 0.008918212744902251 -0.01285002018752897
 0.006993697613725258 0.014212914367559625
 -0.11108530270774776 0.33493334341522085 -0.016818993384665526 -0.003922611090097759 0.009136326893023706 -0.013074209968559765 0.030431367955014544 -0.19440768128863958
 -0.02961356668034866 -0.0053677415506300594
 -0.253339802880758 -0.23792895403481817 0.009136326893023706 -0.013074209968559765 0.00708434482095662 0.01427006185044004 -0.029161230125415577 -0.005142782807056728
 0.055590274131143626 0.05158629290891121
2130000000.0 0.0017945001937730084 -0.08536200480952806 -0.12693491967578402 -0.3249170721997567 0.3215286553062802 0.0021323906753728224 -0.07856858879323964 0.3390033442649282
 -0.2749786630880793 -0.21488255795694833
 -0.12696840222039057 -0.32437840873894724 -0.11830678810106796 -0.11520346168009887 -0.007779359048719073 0.02642104699076744 -0.016940133804801544 -0.0007552250016958224
 0.006366623380170144 -0.014198098978848798
 0.3194464018629063 0.0028804101078985086 -0.007801071829621332 0.026233299830216685 0.11039254219310571 -0.06760755167103442 0.006366623380170144 -0.014198098978848798
 0.009496750070883558 0.01264423938360672
 -0.08103271075474275 0.3435243210319729 -0.01720624475736019 -0.0008292203296060791 0.00653397116381617 -0.01444112034998963 0.022720312612184074 -0.19481357000494232
 -0.03010958685740582 -0.0017444914002680925
 -0.2743376736495608 -0.2140909075181117 0.00653397116381617 -0.01444112034998963 0.009582395514082935 0.012652727767045428 -0.029625119002655572 -0.001593175930783301
 0.059845109604906466 0.044601085363317215
2140000000.0 0.0036002786780338115 -0.0757966095675705 -0.1570194526924047 -0.31163630880985055 0.3205364029885021 -0.029357805248006644 -0.04832072072688374 0.3446279035245503
 -0.2936681586159266 -0.1891098568677833
 -0.15697198178642963 -0.31114859255342536 -0.12012015697344888 -0.1143208979463114 -0.004215658094438836 0.027197684350647882 -0.016739441984244548 0.0022429008139232703
 0.003654585386290044 -0.015034863562413129
 0.3184299588295579 -0.028405188719046674 -0.004257219511048246 0.02702873937170612 0.10699156636435034 -0.08008418653210657 0.003654585386290044 -0.015034863562413129
 0.011641344057331443 0.010665499935882828
 -0.05038017309322213 0.3494887035093282 -0.016973707198733663 0.0021957551198558203 0.003754392185268584 -0.015337282081800933 0.015097915161337246 -0.19488460308441882
 -0.03021583405520692 0.0019431726297954332
 -0.2929627390716361 -0.1884139437669375 0.003754392185268584 -0.015337282081800933 0.01171704953668663 0.010674576985113034 -0.029743088137035332 0.0020394254405572032
 0.06344729461718862 0.03732486709090865
2150000000.0 0.006535589448264543 -0.06731161596069662 -0.18558936072222834 -0.2955139349008529 0.3163645236655459 -0.06045850692107364 -0.017706018297634397 0.3476837392501132
 -0.3098859936146553 -0.1616852802883664
 -0.18560267225879792 -0.29520281673226634 -0.12199188145538724 -0.11353611960615144 -0.0005701451749931385 0.027558338250348053 -0.01605319568879043 0.005206184915249858
 0.0008401869210223689 -0.015376652725631441
 0.31443837698963273 -0.05936245226330055 -0.0006195897986638538 0.027389367719966466 0.1026530580453051 -0.09205599193483265 0.0008401869210223689 -0.015376652725631441
 0.013392691447232763 0.00830986734669983
 -0.019370027439558634 0.35268096601682997 -0.016314743916070313 0.005204123196661656 0.000888696325125603 -0.015724496847729898 0.007574193871749511 -0.19463646719740776
 -0.029879697945408366 0.005627022782816952
 -0.3091634058256817 -0.1610405619285078 0.000888696325125603 -0.015724496847729898 0.013470190071047338 0.008323484826648922 -0.029372784131050253 0.0056594435519541466
 0.06644822607972163 0.029748863234182958
2160000000.0 0.010315384753364885 -0.05967066018691933 -0.21253555161900023 -0.27693628482062105 0.30921113121063476 -0.09086993277290467 0.013000631233489537 0.34789869344728247
 -0.32349359759696195 -0.13294106991933907
 -0.21251154261913494 -0.2765896265277316 -0.12410057395961258 -0.11277076983161162 0.0031447396025228802 0.02742406666440603 -0.01485857224694662 0.00798837802888651
 -0.001985451704838798 -0.015254715402647761
 0.30736824867671275 -0.08962977228258524 0.003043915726326072 0.027254623614074318 0.09731250779883922 -0.10336754208051896 -0.001985451704838798 -0.015254715402647761
 0.01471556018631493 0.005698535250488769
 0.0117897918203657 0.3530490793034879 -0.015127243996314058 0.00806628427633717 -0.0020000103865479837 -0.015559841821258403 0.0001518694472046023 -0.1940994107993153
 -0.029078878810891457 0.00925472680037697
 -0.3227084914386407 -0.1324231353517685 -0.0020000103865479837 -0.015559841821258403 0.014768612352636401 0.005698578641572047 -0.028577963389024137 0.009267751561665462
 0.06876445184631863 0.02208382632881577
2170000000.0 0.01478574453447945 -0.0531025891282914 -0.23754104624798997 -0.25596116568274885 0.29908645941868733 -0.1203638713047172 0.04362872814858321 0.34541366943091384
 -0.3343866946995803 -0.10308758069333383
 -0.23753381506276963 -0.2555474116849785 -0.1263789362446009 -0.11206901188884791 0.006747447713128856 0.026794242723367084 -0.013146069846578363 0.010530036724679047
 -0.004723037002665429 -0.014589365668073123
 0.2973140688573902 -0.11887454729371068 0.006630406299839474 0.026632656567016265 0.09123494962619216 -0.11400918243355805 -0.004723037002665429 -0.014589365668073123
 0.015477912239589105 0.002906555217594931
 0.042875204207084315 0.3506677662431332 -0.013394884178141135 0.01063813208621005 -0.004824414824775492 -0.014932077817797942 -0.007301730187064548 -0.1933359615021173
 -0.02782096691904445 0.012832077175208142
 -0.3336588454700365 -0.10265693576770545 -0.004824414824775492 -0.014932077817797942 0.015615389290414297 0.002864888305734586 -0.027357959533533153 0.012751256461696503
 0.07044702041089199 0.014282567205323836
2180000000.0 0.01987140090204572 -0.04755637013361637 -0.2604568493005844 -0.23271338893152518 0.2862163794660433 -0.14855725463151695 0.07382265380954078 0.3402304763290196
 -0.34253486544215156 -0.07240004465510476
 -0.2603872963756946 -0.2323689508781308 -0.12885290630776794 -0.11123956465308034 0.01021126986534818 0.02571667164091668 -0.010977612329504031 0.01273636530415234
