!Agilent Technologies,N5224A,MY51441093,A.09.90.21
!Agilent N5224A: A.09.90.21
!Date: Wednesday, October 01, 2025 16:35:51
!Correction: S11(Full 2 Port(1,2)) 
!S21(Full 2 Port(1,2)) 
!S12(Full 2 Port(1,2)) 
!S22(Full 2 Port(1,2)) 
!S2P File: Measurements: S11, S21, S12, S22:
# Hz S  dB   R 50
1000000000 -5.545589 -84.428665 -11.607446 109.43706 -11.58285 109.41344 -2.8309765 -178.50456
1010000000 -5.6462517 -88.027069 -11.257131 106.22768 -11.235257 106.19724 -2.9635196 179.23262
1020000000 -5.7535753 -91.642326 -10.917323 102.97688 -10.89186 102.95219 -3.0992043 176.96127
1030000000 -5.8726192 -95.263901 -10.590425 99.723427 -10.562142 99.685081 -3.2459965 174.68561
1040000000 -6.0016894 -98.916573 -10.266045 96.462563 -10.239621 96.39682 -3.3986392 172.41406
1050000000 -6.1417823 -102.55974 -9.9506931 93.175667 -9.9296522 93.090668 -3.5600338 170.15015
1060000000 -6.2938862 -106.21252 -9.642005 89.869614 -9.6246529 89.78141 -3.7262249 167.90132
1070000000 -6.4552846 -109.87087 -9.3453684 86.543007 -9.3302412 86.44767 -3.8986976 165.67331
1080000000 -6.6277256 -113.53416 -9.0562496 83.195648 -9.0445356 83.112144 -4.078012 163.45474
1090000000 -6.8121905 -117.20295 -8.7763882 79.854027 -8.7656956 79.760071 -4.2661409 161.25371
1100000000 -7.0096717 -120.87867 -8.5050392 76.495491 -8.4963455 76.400597 -4.4593682 159.07275
1110000000 -7.2183542 -124.5481 -8.2411423 73.101646 -8.236659 73.017471 -4.6594911 156.91257
1120000000 -7.4388452 -128.21848 -7.9911556 69.715813 -7.9857512 69.636063 -4.8664408 154.79192
1130000000 -7.6736798 -131.89026 -7.7532921 66.322823 -7.7473793 66.256393 -5.0835199 152.6973
1140000000 -7.9208527 -135.57181 -7.5223999 62.943737 -7.5181732 62.879303 -5.3043447 150.64987
1150000000 -8.1827745 -139.24742 -7.3033466 59.569801 -7.2978659 59.512615 -5.5325742 148.64384
1160000000 -8.4567547 -142.90213 -7.0888267 56.206757 -7.0848427 56.150406 -5.7648692 146.68343
1170000000 -8.7464056 -146.55328 -6.885088 52.845303 -6.878758 52.788578 -5.9986458 144.76924
1180000000 -9.0466785 -150.18106 -6.6884408 49.495094 -6.6837864 49.43721 -6.2383938 142.90276
1190000000 -9.3635788 -153.79553 -6.5027452 46.160946 -6.4951959 46.100292 -6.4817801 141.06924
1200000000 -9.6949654 -157.39148 -6.3226757 42.836266 -6.3181186 42.773064 -6.7318554 139.29276
1210000000 -10.037192 -160.98216 -6.1521993 39.520622 -6.1483908 39.463425 -6.9824424 137.58894
1220000000 -10.397993 -164.57755 -5.9896946 36.216492 -5.9850726 36.152737 -7.2344818 135.93365
1230000000 -10.770742 -168.15538 -5.8353844 32.942081 -5.8313484 32.881672 -7.4881744 134.3373
1240000000 -11.161664 -171.71341 -5.6876483 29.690292 -5.6842909 29.628262 -7.7417159 132.79224
1250000000 -11.568207 -175.24454 -5.5492096 26.451805 -5.5450845 26.399908 -7.9956498 131.30667
1260000000 -11.991285 -178.77867 -5.416532 23.242256 -5.4116454 23.187279 -8.2491045 129.88474
1270000000 -12.426748 177.68779 -5.290565 20.053049 -5.285768 20.003237 -8.5030966 128.52194
1280000000 -12.885535 174.1825 -5.1709299 16.887873 -5.1669254 16.837393 -8.7520571 127.21487
1290000000 -13.358788 170.70433 -5.0564842 13.757658 -5.0529227 13.695839 -8.99646 125.94792
1300000000 -13.848184 167.22131 -4.9490643 10.6408 -4.9456978 10.578508 -9.2424955 124.72815
1310000000 -14.349107 163.72766 -4.8461447 7.5481935 -4.8439322 7.4957204 -9.483243 123.57215
1320000000 -14.869433 160.1725 -4.7509079 4.4814763 -4.7487655 4.4388342 -9.7194014 122.47726
1330000000 -15.42264 156.61307 -4.6608891 1.4529942 -4.6583614 1.4114792 -9.948144 121.42247
1340000000 -16.004681 153.05235 -4.5743799 -1.5354525 -4.5718226 -1.5867559 -10.16886 120.40072
1350000000 -16.60429 149.5731 -4.4898887 -4.5002131 -4.4888945 -4.5596056 -10.383017 119.4137
1360000000 -17.216581 146.10104 -4.4123316 -7.4534745 -4.4116602 -7.5060134 -10.596198 118.45879
1370000000 -17.846529 142.5005 -4.338892 -10.383909 -4.3380432 -10.422041 -10.798878 117.54778
1380000000 -18.512486 138.80064 -4.2702141 -13.278646 -4.2664289 -13.321281 -10.993587 116.65578
1390000000 -19.222134 135.04434 -4.2044415 -16.149681 -4.2020411 -16.18881 -11.181859 115.78494
1400000000 -19.973829 131.28993 -4.1444654 -18.977654 -4.14009 -19.025087 -11.364518 114.92509
1410000000 -20.753973 127.52106 -4.0839968 -21.788837 -4.0805688 -21.836437 -11.542318 114.07844
1420000000 -21.570915 123.55412 -4.028203 -24.575352 -4.0247083 -24.619503 -11.711336 113.27555
1430000000 -22.43185 119.42287 -3.9748521 -27.337353 -3.970813 -27.376074 -11.873569 112.46834
1440000000 -23.367268 115.0662 -3.9240313 -30.067818 -3.9180179 -30.109446 -12.023624 111.66271
1450000000 -24.368996 110.57199 -3.875257 -32.775917 -3.8698692 -32.815975 -12.16872 110.83147
1460000000 -25.42952 105.75436 -3.8288357 -35.467098 -3.8250518 -35.503357 -12.314444 109.9854
1470000000 -26.556641 100.48106 -3.7840197 -38.128803 -3.7810814 -38.171356 -12.451534 109.12912
1480000000 -27.772526 94.321442 -3.7438951 -40.775505 -3.7400804 -40.814259 -12.583596 108.26149
1490000000 -29.105764 87.242432 -3.7050052 -43.393581 -3.701545 -43.432587 -12.70791 107.37286
1500000000 -30.544186 78.898491 -3.66681 -45.98748 -3.6658056 -46.030769 -12.826175 106.46647
1510000000 -32.078861 68.657532 -3.6308844 -48.566669 -3.6303179 -48.60622 -12.940328 105.52643
1520000000 -33.611774 55.688236 -3.5991111 -51.125618 -3.5979097 -51.159409 -13.04818 104.58775
1530000000 -34.95533 38.91497 -3.5684505 -53.66357 -3.5653067 -53.694401 -13.150518 103.61226
1540000000 -35.886799 19.353153 -3.5383537 -56.179604 -3.5348842 -56.213417 -13.244114 102.5902
1550000000 -36.033451 -1.4468328 -3.5121257 -58.674763 -3.506923 -58.710968 -13.337337 101.5254
1560000000 -35.44944 -19.873001 -3.4838138 -61.158493 -3.4828284 -61.194717 -13.430713 100.44244
1570000000 -34.421951 -34.882835 -3.4599245 -63.62994 -3.4564822 -63.660431 -13.52186 99.358521
1580000000 -33.223572 -47.10463 -3.4385245 -66.084114 -3.4352481 -66.107323 -13.608319 98.259621
1590000000 -32.041115 -57.284569 -3.4200523 -68.510719 -3.4174061 -68.540909 -13.689637 97.104248
1600000000 -31.025528 -66.193321 -3.4042764 -70.919701 -3.3996053 -70.949455 -13.770861 95.879715
1610000000 -30.121449 -73.836098 -3.3905637 -73.310768 -3.3859868 -73.343925 -13.857554 94.600685
1620000000 -29.336048 -80.701569 -3.3793027 -75.680649 -3.3745389 -75.711357 -13.948154 93.31041
1630000000 -28.6292 -87.198853 -3.3702638 -78.029945 -3.3659124 -78.054108 -14.033462 91.987289
1640000000 -28.024691 -93.719635 -3.3659544 -80.34137 -3.3619225 -80.367538 -14.121135 90.540466
1650000000 -27.551001 -100.2065 -3.365948 -82.620773 -3.3595409 -82.647621 -14.217857 88.980583
1660000000 -27.213844 -106.56765 -3.3664255 -84.849464 -3.3628228 -84.876274 -14.333236 87.317284
1670000000 -26.991529 -112.7843 -3.3715367 -87.029213 -3.3634455 -87.04882 -14.472993 85.616295
1680000000 -26.898436 -118.95583 -3.3728702 -89.128593 -3.3660405 -89.153023 -14.643 83.909935
1690000000 -26.96744 -125.07695 -3.3715401 -91.167259 -3.3644791 -91.184174 -14.83746 82.28688
1700000000 -27.216728 -130.9725 -3.3600478 -93.134811 -3.3519139 -93.160522 -15.059464 80.802528
1710000000 -27.686533 -135.82118 -3.3362906 -95.089577 -3.3274961 -95.114212 -15.301981 79.52285
1720000000 -28.288515 -139.15016 -3.3002162 -97.057922 -3.2935259 -97.078529 -15.553288 78.583046
1730000000 -28.882389 -140.55345 -3.2565866 -99.081551 -3.2489994 -99.092239 -15.780023 77.89711
1740000000 -29.306128 -140.53583 -3.2106888 -101.1521 -3.2013023 -101.1671 -15.976694 77.402451
1750000000 -29.530857 -140.10152 -3.1662729 -103.2761 -3.1543627 -103.28715 -16.13855 76.959106
1760000000 -29.61804 -139.6508 -3.1241858 -105.42852 -3.1129899 -105.44414 -16.28064 76.530289
1770000000 -29.596441 -139.59372 -3.0874944 -107.59653 -3.0752165 -107.61362 -16.402172 76.023033
1780000000 -29.479406 -139.68016 -3.0533247 -109.7745 -3.0420732 -109.79092 -16.504446 75.494049
1790000000 -29.260677 -140.22223 -3.0243998 -111.95171 -3.0118077 -111.96735 -16.600622 74.882057
1800000000 -29.002081 -141.6156 -2.9990711 -114.11684 -2.9842067 -114.13809 -16.696291 74.203201
1810000000 -28.765598 -143.65234 -2.9743083 -116.28139 -2.9603374 -116.29601 -16.79258 73.505905
1820000000 -28.578506 -145.97069 -2.9522543 -118.43317 -2.9377725 -118.45298 -16.88361 72.82383
1830000000 -28.405834 -148.25963 -2.9321055 -120.57273 -2.9179549 -120.58806 -16.96837 72.071877
1840000000 -28.234989 -150.93163 -2.9142921 -122.70625 -2.8988652 -122.72079 -17.049503 71.328003
1850000000 -28.078655 -153.68472 -2.8963859 -124.82578 -2.8805678 -124.84388 -17.137524 70.510605
1860000000 -27.95653 -156.57011 -2.880604 -126.93298 -2.8652201 -126.95815 -17.230898 69.703171
1870000000 -27.841791 -159.50703 -2.8647149 -129.03549 -2.8485198 -129.06213 -17.324364 68.940094
1880000000 -27.708694 -162.42805 -2.8500998 -131.12344 -2.8364944 -131.14899 -17.411083 68.238884
1890000000 -27.572994 -165.74074 -2.837482 -133.20662 -2.8248291 -133.22372 -17.496283 67.553841
1900000000 -27.435095 -169.43665 -2.8258188 -135.26637 -2.810617 -135.28882 -17.577677 66.853134
1910000000 -27.382801 -173.22862 -2.8147485 -137.31279 -2.7999094 -137.34203 -17.664589 66.15596
1920000000 -27.341393 -176.9705 -2.8032529 -139.36162 -2.7885182 -139.38808 -17.756857 65.556931
1930000000 -27.2959 179.57111 -2.7927721 -141.39885 -2.7773118 -141.42435 -17.846851 65.019516
1940000000 -27.203674 176.09541 -2.7834685 -143.42139 -2.7688518 -143.45332 -17.926437 64.575859
1950000000 -27.069803 172.19923 -2.7730167 -145.43916 -2.7585664 -145.46523 -17.996067 64.151665
1960000000 -26.943117 168.05496 -2.7634325 -147.4436 -2.7492125 -147.47227 -18.058889 63.666447
1970000000 -26.846237 163.91983 -2.7544553 -149.43521 -2.7414358 -149.4687 -18.121506 63.205231
1980000000 -26.7491 159.83334 -2.744669 -151.42459 -2.7306776 -151.45064 -18.191774 62.734818
1990000000 -26.612396 155.8102 -2.7336786 -153.40875 -2.7197118 -153.4313 -18.254414 62.358452
2000000000 -26.46991 151.57172 -2.7238324 -155.39938 -2.7120297 -155.39688 -18.301291 61.960587
2010000000 -26.334576 147.22569 -2.7158883 -157.37263 -2.7023339 -157.37212 -18.343124 61.583248
2020000000 -26.25061 142.98965 -2.7057052 -159.33694 -2.6937835 -159.33769 -18.378138 61.143204
2030000000 -26.152601 139.00293 -2.6972315 -161.30527 -2.6865771 -161.29303 -18.416199 60.73513
2040000000 -26.016172 135.17584 -2.6893034 -163.25685 -2.6770022 -163.25198 -18.44544 60.375725
2050000000 -25.851458 131.29205 -2.680788 -165.20981 -2.668608 -165.20718 -18.466942 59.940777
2060000000 -25.678909 127.32695 -2.6740935 -167.15739 -2.6612208 -167.14754 -18.472486 59.522709
2070000000 -25.516333 123.27026 -2.666431 -169.10115 -2.6546609 -169.09064 -18.484825 59.076214
2080000000 -25.341843 119.41277 -2.6584549 -171.04247 -2.6464529 -171.03212 -18.499552 58.64727
2090000000 -25.148443 115.66422 -2.6528285 -172.97917 -2.6420441 -172.96638 -18.505129 58.253422
2100000000 -24.918243 111.83646 -2.6481476 -174.91006 -2.637099 -174.9014 -18.512999 57.971783
2110000000 -24.683187 108.03436 -2.6459029 -176.82858 -2.6335826 -176.8172 -18.506163 57.767452
2120000000 -24.461874 104.20326 -2.6412356 -178.73611 -2.6309884 -178.72784 -18.479706 57.544441
2130000000 -24.242338 100.57924 -2.6376779 179.36414 -2.6283753 179.36754 -18.439587 57.30938
2140000000 -24.009212 97.210541 -2.6338089 177.46529 -2.624465 177.47414 -18.397058 57.092186
2150000000 -23.735174 93.865913 -2.6309121 175.58537 -2.6215315 175.58922 -18.33872 56.817173
2160000000 -23.458494 90.426254 -2.626277 173.70923 -2.6162229 173.70667 -18.271248 56.543427
2170000000 -23.201921 87.061195 -2.6215363 171.83194 -2.6137502 171.83347 -18.199934 56.208008
2180000000 -22.950443 83.859451 -2.6177037 169.96156 -2.609293 169.96106 -18.124344 55.832031
2190000000 -22.690702 80.833672 -2.6137948 168.08882 -2.6060035 168.09489 -18.046553 55.438141
2200000000 -22.416637 77.808418 -2.6115155 166.22733 -2.603034 166.235 -17.966656 54.972149
2210000000 -22.153229 74.732552 -2.6070838 164.36679 -2.5996494 164.37457 -17.882273 54.547783
2220000000 -21.914463 71.746628 -2.6018927 162.51317 -2.5973296 162.52527 -17.790056 54.034294
2230000000 -21.686419 68.858147 -2.5994143 160.6602 -2.5939224 160.68086 -17.702204 53.545284
2240000000 -21.457947 66.158989 -2.5963428 158.81027 -2.5907421 158.83803 -17.602062 53.024071
2250000000 -21.211933 63.512367 -2.5946209 156.96446 -2.5870283 156.99475 -17.50206 52.473644
2260000000 -20.960024 60.743187 -2.591881 155.12486 -2.5846334 155.15443 -17.396132 51.855675
2270000000 -20.730093 57.945332 -2.5882235 153.29182 -2.5828519 153.3157 -17.295099 51.207207
2280000000 -20.520761 55.345329 -2.5859969 151.45995 -2.5801342 151.47559 -17.193581 50.543003
2290000000 -20.308226 52.963589 -2.5831814 149.62206 -2.5785749 149.6427 -17.092073 49.840885
2300000000 -20.068872 50.507587 -2.5834599 147.79526 -2.5769107 147.8163 -16.98641 49.13884
2310000000 -19.820288 48.021473 -2.5816627 145.97107 -2.5766983 145.99182 -16.880527 48.433567
2320000000 -19.597343 45.464405 -2.581732 144.15779 -2.5761371 144.17982 -16.776316 47.687794
2330000000 -19.402086 42.952126 -2.5803001 142.34703 -2.5754664 142.36902 -16.662273 46.929569
2340000000 -19.224367 40.662155 -2.5796356 140.53384 -2.5733104 140.55907 -16.550329 46.158329
2350000000 -19.029406 38.47237 -2.5790527 138.73013 -2.5737443 138.75108 -16.427742 45.409527
2360000000 -18.818546 36.29002 -2.5795257 136.92839 -2.572504 136.95485 -16.300968 44.601902
2370000000 -18.616882 34.031029 -2.5814896 135.13347 -2.5739408 135.16165 -16.174147 43.699673
2380000000 -18.429689 31.802065 -2.5802829 133.34435 -2.5731118 133.3708 -16.04921 42.757023
2390000000 -18.250973 29.673958 -2.5808175 131.55495 -2.5737896 131.58659 -15.933525 41.818153
2400000000 -18.0662 27.574175 -2.5827777 129.77379 -2.5740242 129.81361 -15.817625 40.88448
2410000000 -17.880306 25.442068 -2.5827551 127.99464 -2.5735447 128.03462 -15.699497 39.983475
2420000000 -17.716711 23.292564 -2.583662 126.22134 -2.5749125 126.25848 -15.576037 39.039753
2430000000 -17.563765 21.212067 -2.5846157 124.45161 -2.5746262 124.4889 -15.45679 38.105289
2440000000 -17.406765 19.306866 -2.5835245 122.68542 -2.5756528 122.72353 -15.338066 37.059017
2450000000 -17.238249 17.413061 -2.5855675 120.91294 -2.5749745 120.95461 -15.224232 36.020039
2460000000 -17.060305 15.462648 -2.5884047 119.15156 -2.5760717 119.18871 -15.115759 34.981911
2470000000 -16.887796 13.3609 -2.5893791 117.39359 -2.5789418 117.42814 -15.010113 33.964874
2480000000 -16.746511 11.290266 -2.5915349 115.64265 -2.5804214 115.67618 -14.899821 32.903046
2490000000 -16.611652 9.3311625 -2.5924318 113.89716 -2.5820732 113.92548 -14.788002 31.779484
2500000000 -16.473738 7.4470143 -2.5938995 112.1503 -2.5830393 112.17835 -14.676033 30.649679
2510000000 -16.332611 5.5877018 -2.5961845 110.40382 -2.5836511 110.4331 -14.568147 29.484253
2520000000 -16.196756 3.7276931 -2.5987058 108.66437 -2.5862372 108.692 -14.465392 28.284157
2530000000 -16.072081 1.9129686 -2.6014495 106.9295 -2.5873113 106.95298 -14.359873 27.113066
2540000000 -15.944769 0.17448385 -2.6022942 105.18894 -2.5908902 105.21944 -14.259931 25.910954
2550000000 -15.80356 -1.5551496 -2.6048989 103.44962 -2.5946498 103.48727 -14.157103 24.711424
2560000000 -15.657772 -3.3548026 -2.6078763 101.72127 -2.5969009 101.76232 -14.054585 23.519148
2570000000 -15.529976 -5.2680597 -2.6108968 100.00435 -2.5994375 100.03684 -13.95399 22.294786
2580000000 -15.418148 -7.1433239 -2.6123405 98.285942 -2.6016815 98.318146 -13.86075 21.100433
2590000000 -15.322251 -8.9112225 -2.6134534 96.564064 -2.6032662 96.59977 -13.763008 19.896744
2600000000 -15.224209 -10.587209 -2.6158998 94.843719 -2.6059742 94.881676 -13.668411 18.71376
2610000000 -15.114097 -12.217849 -2.6194847 93.128204 -2.6069846 93.164146 -13.576736 17.518623
2620000000 -15.003567 -13.964924 -2.6225617 91.414764 -2.6103468 91.449211 -13.485446 16.263638
2630000000 -14.905049 -15.713195 -2.6254699 89.70742 -2.6136024 89.740425 -13.400696 15.00948
2640000000 -14.814829 -17.409542 -2.6285851 88.005371 -2.6146419 88.037834 -13.320593 13.749956
2650000000 -14.726261 -19.062197 -2.631485 86.30043 -2.6181588 86.333595 -13.247973 12.506289
2660000000 -14.62896 -20.752209 -2.6360035 84.597343 -2.6226487 84.63726 -13.172704 11.284464
2670000000 -14.537365 -22.492956 -2.640734 82.913933 -2.6250155 82.93631 -13.098181 10.044548
2680000000 -14.464053 -24.236595 -2.6442304 81.230583 -2.6298859 81.248672 -13.021194 8.7566586
2690000000 -14.4025 -25.921583 -2.645807 79.54361 -2.6324506 79.56395 -12.947727 7.4342332
2700000000 -14.333164 -27.475225 -2.6486044 77.851601 -2.6349077 77.878654 -12.8824 6.094192
2710000000 -14.254434 -29.028475 -2.6535449 76.15509 -2.6374629 76.193657 -12.819495 4.7720914
2720000000 -14.171072 -30.673563 -2.6559627 74.475914 -2.6404502 74.509666 -12.756091 3.4868038
2730000000 -14.097991 -32.355072 -2.6618595 72.800827 -2.643204 72.829765 -12.69451 2.2334516
2740000000 -14.03882 -34.000385 -2.6649098 71.128868 -2.6464427 71.156059 -12.627795 0.95486993
2750000000 -13.976155 -35.625904 -2.6689534 69.456772 -2.6508377 69.486588 -12.565693 -0.3370975
2760000000 -13.917611 -37.241833 -2.6732678 67.789078 -2.6557369 67.823868 -12.50744 -1.6306471
2770000000 -13.854992 -38.893166 -2.6769404 66.125504 -2.6565716 66.16201 -12.454288 -2.8880279
2780000000 -13.811496 -40.560295 -2.6800327 64.468292 -2.6601458 64.50013 -12.402836 -4.1392102
2790000000 -13.777886 -42.192886 -2.6814067 62.811398 -2.6612442 62.837425 -12.350841 -5.3644471
2800000000 -13.743196 -43.738571 -2.6834776 61.144756 -2.6638298 61.18079 -12.301518 -6.6213942
2810000000 -13.697458 -45.274734 -2.6869254 59.481003 -2.6668785 59.517128 -12.258484 -7.8950448
2820000000 -13.652046 -46.869694 -2.6906512 57.823414 -2.6710951 57.872002 -12.219533 -9.1813049
2830000000 -13.610555 -48.504765 -2.6957006 56.177841 -2.6725476 56.208286 -12.184855 -10.429394
2840000000 -13.585133 -50.133461 -2.6978676 54.535679 -2.6751502 54.560329 -12.149014 -11.673515
2850000000 -13.559399 -51.719872 -2.6994522 52.887676 -2.6789718 52.913425 -12.11386 -12.905463
2860000000 -13.532553 -53.271374 -2.7019932 51.243763 -2.6820931 51.266289 -12.075914 -14.181987
2870000000 -13.504064 -54.87048 -2.7045631 49.606422 -2.6839333 49.618511 -12.041946 -15.479879
2880000000 -13.482405 -56.492607 -2.7070084 47.965378 -2.6866956 47.980362 -12.00913 -16.78643
2890000000 -13.471871 -58.083836 -2.7092888 46.329456 -2.6888537 46.32967 -11.981198 -18.090919
2900000000 -13.466189 -59.642464 -2.7105577 44.685715 -2.6907067 44.692337 -11.958049 -19.344931
2910000000 -13.452033 -61.156017 -2.7128422 43.044128 -2.6934414 43.050343 -11.932604 -20.58923
2920000000 -13.438206 -62.720139 -2.7158399 41.407166 -2.6976159 41.411777 -11.908902 -21.809929
2930000000 -13.434308 -64.309166 -2.7175646 39.77166 -2.6989136 39.78022 -11.884708 -23.02636
2940000000 -13.43754 -65.90033 -2.7198749 38.136089 -2.7008302 38.150127 -11.862854 -24.226372
2950000000 -13.436634 -67.45414 -2.7215889 36.499043 -2.7025054 36.517231 -11.843313 -25.454588
2960000000 -13.440252 -69.011696 -2.7256062 34.871536 -2.7044032 34.888557 -11.82878 -26.638685
2970000000 -13.448879 -70.610657 -2.7283778 33.251446 -2.7066996 33.265385 -11.814949 -27.823605
2980000000 -13.466439 -72.247482 -2.7279613 31.63088 -2.7067668 31.63493 -11.806501 -28.970959
2990000000 -13.495469 -73.8153 -2.7285144 30.011551 -2.7084918 30.003788 -11.801237 -30.144686
3000000000 -13.519397 -75.301575 -2.7291775 28.382479 -2.7111552 28.381563 -11.795609 -31.33363
3010000000 -13.539043 -76.800995 -2.7309382 26.749123 -2.7141631 26.767389 -11.799981 -32.507854
3020000000 -13.550447 -78.373474 -2.7337801 25.122292 -2.7142289 25.144419 -11.802899 -33.676796
3030000000 -13.572795 -80.01339 -2.7367892 23.51417 -2.7154655 23.526934 -11.808874 -34.828674
3040000000 -13.616729 -81.637177 -2.7379053 21.909267 -2.7156057 21.905916 -11.813665 -35.982418
3050000000 -13.666182 -83.180664 -2.7366755 20.301775 -2.71592 20.285833 -11.816374 -37.160999
