!Agilent Technologies,N5224A,MY51441093,A.09.90.21
!Agilent N5224A: A.09.90.21
!Date: Wednesday, October 01, 2025 16:36:18
!Correction: S11(Full 2 Port(1,2)) 
!S21(Full 2 Port(1,2)) 
!S12(Full 2 Port(1,2)) 
!S22(Full 2 Port(1,2)) 
!S2P File: Measurements: S11, S21, S12, S22:
# Hz S  dB   R 50
1000000000 -10.643664 147.67897 -7.0526872 48.676186 -7.0280476 48.651985 -3.6010799 -168.69467
1010000000 -11.022482 142.3029 -6.8959332 45.402039 -6.8737607 45.38039 -3.7048459 -170.2695
1020000000 -11.403199 136.82631 -6.7480412 42.14502 -6.7239556 42.122868 -3.8061721 -171.84378
1030000000 -11.780515 131.21156 -6.6082983 38.919701 -6.5825205 38.890839 -3.9093559 -173.41473
1040000000 -12.163322 125.49385 -6.4766521 35.753853 -6.4475689 35.688797 -4.0102406 -174.98083
1050000000 -12.543858 119.68434 -6.3467417 32.616768 -6.3244672 32.521374 -4.1135912 -176.54544
1060000000 -12.916871 113.76888 -6.2207294 29.49568 -6.2036252 29.395393 -4.214757 -178.08806
1070000000 -13.279169 107.73576 -6.1019921 26.396297 -6.088892 26.305628 -4.3160901 -179.63145
1080000000 -13.628488 101.58302 -5.988925 23.331236 -5.9780078 23.250792 -4.4151173 178.84201
1090000000 -13.961017 95.317093 -5.8808231 20.314825 -5.8710127 20.219007 -4.5134187 177.31485
1100000000 -14.280235 88.969429 -5.7764993 17.315983 -5.7702994 17.212713 -4.6109881 175.78241
1110000000 -14.575835 82.577408 -5.675384 14.331154 -5.6716061 14.23809 -4.7055736 174.25052
1120000000 -14.839833 76.103981 -5.5815172 11.375047 -5.5794673 11.290605 -4.8028302 172.71922
1130000000 -15.073802 69.559776 -5.4950476 8.441328 -5.4908371 8.3750658 -4.9002218 171.1937
1140000000 -15.277737 62.988632 -5.4102025 5.5529237 -5.4055123 5.4870129 -4.9969368 169.6761
1150000000 -15.452687 56.417843 -5.3308854 2.6996038 -5.3249569 2.6386871 -5.0937548 168.16669
1160000000 -15.600616 49.879814 -5.2522092 -0.12597403 -5.2485709 -0.19054495 -5.1868439 166.65413
1170000000 -15.71734 43.414394 -5.1781969 -2.9184544 -5.1735663 -2.9780488 -5.2802935 165.13525
1180000000 -15.801828 37.008858 -5.1042528 -5.6913638 -5.1000166 -5.7408428 -5.373466 163.62236
1190000000 -15.858836 30.74272 -5.0347204 -8.4287825 -5.0269327 -8.4786167 -5.4652281 162.11221
1200000000 -15.887017 24.57126 -4.9662666 -11.142323 -4.960309 -11.202031 -5.5562983 160.60553
1210000000 -15.892619 18.590685 -4.9010596 -13.839195 -4.895206 -13.903353 -5.6456084 159.08116
1220000000 -15.870804 12.767504 -4.8370762 -16.513441 -4.8312798 -16.582844 -5.7355728 157.54747
1230000000 -15.82915 7.0960755 -4.7756305 -19.166319 -4.7718201 -19.224066 -5.8271656 156.01492
1240000000 -15.77585 1.5470854 -4.7183623 -21.786283 -4.7136426 -21.848967 -5.9175935 154.48495
1250000000 -15.711013 -3.8094897 -4.6620431 -24.386803 -4.6576972 -24.441259 -6.0089569 152.9666
1260000000 -15.637759 -8.9851007 -4.606041 -26.96784 -4.6023569 -27.017006 -6.096549 151.44756
1270000000 -15.553086 -13.968469 -4.5524497 -29.525997 -4.5491629 -29.57489 -6.1858907 149.9133
1280000000 -15.465641 -18.829489 -4.5015407 -32.063141 -4.495945 -32.10984 -6.273653 148.36655
1290000000 -15.379594 -23.529371 -4.4512329 -34.572777 -4.4458227 -34.631363 -6.3639865 146.82764
1300000000 -15.291723 -28.046534 -4.4002461 -37.077557 -4.3956289 -37.138153 -6.4534926 145.28
1310000000 -15.201624 -32.410366 -4.3521857 -39.564388 -4.3499966 -39.62064 -6.5439954 143.742
1320000000 -15.105413 -36.628395 -4.306828 -42.047337 -4.3064637 -42.086842 -6.6333656 142.19411
1330000000 -15.002463 -40.787167 -4.2653499 -44.489376 -4.2634697 -44.527283 -6.7226377 140.64401
1340000000 -14.912894 -44.893288 -4.2239213 -46.904362 -4.2187328 -46.948002 -6.8109398 139.09613
1350000000 -14.835527 -48.89093 -4.1810107 -49.298519 -4.1779857 -49.358288 -6.9010568 137.54935
1360000000 -14.766357 -52.712048 -4.1380725 -51.695316 -4.1350193 -51.746292 -6.9916916 136.0219
1370000000 -14.694059 -56.401596 -4.0967584 -54.087238 -4.0966673 -54.131622 -7.0779552 134.47124
1380000000 -14.617101 -60.01804 -4.0595331 -56.461105 -4.0572658 -56.497532 -7.1677952 132.92725
1390000000 -14.539519 -63.610565 -4.0247698 -58.817589 -4.0194826 -58.850552 -7.2577319 131.37076
1400000000 -14.47576 -67.175659 -3.9884808 -61.146362 -3.9850433 -61.191387 -7.3489671 129.83057
1410000000 -14.419344 -70.646896 -3.9523823 -63.469627 -3.9501991 -63.516541 -7.440578 128.30434
1420000000 -14.364327 -74.010094 -3.9179661 -65.777916 -3.9162061 -65.82489 -7.5290346 126.77416
1430000000 -14.308727 -77.326569 -3.8848336 -68.076614 -3.8834903 -68.116257 -7.6192021 125.2487
1440000000 -14.257211 -80.606239 -3.8543477 -70.354156 -3.8496246 -70.392113 -7.7090211 123.70953
1450000000 -14.214802 -83.853508 -3.8225393 -72.620056 -3.8181982 -72.653709 -7.8007278 122.16656
1460000000 -14.176383 -87.033272 -3.7888937 -74.87841 -3.7860448 -74.917412 -7.8932157 120.63449
1470000000 -14.146182 -90.133583 -3.7588747 -77.12841 -3.7562673 -77.173264 -7.9854321 119.09532
1480000000 -14.112243 -93.172585 -3.7302716 -79.373573 -3.7263181 -79.411873 -8.0770092 117.55472
1490000000 -14.079353 -96.206566 -3.7025335 -81.601669 -3.6982338 -81.639923 -8.1696892 116.00928
1500000000 -14.05104 -99.20533 -3.6755373 -83.819778 -3.6725245 -83.858429 -8.2638531 114.4632
1510000000 -14.024743 -102.20042 -3.6473215 -86.027863 -3.6475816 -86.066956 -8.3567772 112.91354
1520000000 -14.003256 -105.15092 -3.6243405 -88.231743 -3.622427 -88.260986 -8.4471874 111.38103
1530000000 -13.97824 -108.08135 -3.601635 -90.41539 -3.5982974 -90.451782 -8.5397043 109.82047
1540000000 -13.966089 -111.03806 -3.5778208 -92.588051 -3.5755498 -92.621719 -8.6316957 108.25647
1550000000 -13.956412 -113.97562 -3.5551224 -94.752029 -3.552177 -94.788139 -8.7274218 106.70872
1560000000 -13.955204 -116.85671 -3.5339143 -96.917068 -3.5307932 -96.952278 -8.8217392 105.15759
1570000000 -13.946967 -119.67489 -3.5139682 -99.083427 -3.51021 -99.113899 -8.9149809 103.62432
1580000000 -13.93031 -122.51266 -3.4950197 -101.23985 -3.4927957 -101.26402 -9.0100298 102.07721
1590000000 -13.913238 -125.39182 -3.4813128 -103.37585 -3.4783888 -103.40403 -9.1090536 100.51422
1600000000 -13.899045 -128.31888 -3.4694922 -105.49622 -3.4639904 -105.52492 -9.2111006 98.95752
1610000000 -13.885509 -131.24289 -3.455096 -107.61003 -3.4505818 -107.64195 -9.3175316 97.41053
1620000000 -13.873003 -134.17525 -3.4469171 -109.71413 -3.4409525 -109.74493 -9.4265242 95.886032
1630000000 -13.854766 -137.17896 -3.4380839 -111.80396 -3.4333153 -111.82602 -9.5375414 94.352608
1640000000 -13.840989 -140.23642 -3.4342732 -113.85896 -3.4283988 -113.88512 -9.655899 92.794594
1650000000 -13.835189 -143.40047 -3.4336646 -115.8917 -3.4258513 -115.91551 -9.7859879 91.25589
1660000000 -13.835956 -146.59155 -3.4313338 -117.8914 -3.4264517 -117.91366 -9.9274244 89.764816
1670000000 -13.842605 -149.87717 -3.4347336 -119.84619 -3.4262562 -119.86678 -10.078549 88.361656
1680000000 -13.8638 -153.25769 -3.4334521 -121.75201 -3.4259589 -121.7672 -10.234377 87.075943
1690000000 -13.910738 -156.75986 -3.4309022 -123.58578 -3.4219611 -123.60588 -10.38759 85.915451
1700000000 -13.996247 -160.32495 -3.4177172 -125.37618 -3.4075344 -125.40174 -10.533787 84.912766
1710000000 -14.127111 -163.72192 -3.3934662 -127.16309 -3.3847437 -127.19188 -10.667472 84.019035
1720000000 -14.278305 -166.88002 -3.3579223 -128.97829 -3.3506191 -128.99376 -10.771937 83.245346
1730000000 -14.427934 -169.76907 -3.3186793 -130.84999 -3.3093839 -130.85269 -10.849848 82.44558
1740000000 -14.558445 -172.51253 -3.2766473 -132.75813 -3.2647848 -132.76694 -10.903205 81.601753
1750000000 -14.678592 -175.1725 -3.2371557 -134.71841 -3.2235076 -134.72552 -10.944307 80.633133
1760000000 -14.79186 -177.74969 -3.1994534 -136.70511 -3.1873312 -136.72137 -10.983562 79.58374
1770000000 -14.886856 179.74768 -3.1663537 -138.71039 -3.1541607 -138.73053 -11.02581 78.451576
1780000000 -14.959707 177.29181 -3.1368651 -140.72728 -3.1244431 -140.74794 -11.067039 77.282051
1790000000 -15.01788 174.83621 -3.1123755 -142.74701 -3.099822 -142.75758 -11.113592 76.087952
1800000000 -15.059845 172.28294 -3.0900087 -144.75331 -3.074748 -144.76691 -11.162687 74.870621
1810000000 -15.098207 169.6962 -3.0694864 -146.7511 -3.0551841 -146.77057 -11.214561 73.658348
1820000000 -15.139409 167.10333 -3.051151 -148.74641 -3.0374391 -148.76556 -11.266367 72.442467
1830000000 -15.175997 164.53464 -3.0341079 -150.73567 -3.0174985 -150.75302 -11.314336 71.209602
1840000000 -15.20349 161.90886 -3.0187907 -152.71806 -3.0026014 -152.73457 -11.365424 69.975311
1850000000 -15.230371 159.27298 -3.0042193 -154.68596 -2.9875479 -154.70456 -11.419852 68.744568
1860000000 -15.257283 156.61617 -2.9905298 -156.65315 -2.9738119 -156.67778 -11.475377 67.530006
1870000000 -15.280559 153.9639 -2.9775774 -158.61508 -2.9611192 -158.63795 -11.530733 66.342567
1880000000 -15.29554 151.321 -2.9654796 -160.56642 -2.9500735 -160.58536 -11.577665 65.167526
1890000000 -15.30443 148.60159 -2.9578381 -162.51082 -2.9408057 -162.52591 -11.625982 63.999931
1900000000 -15.314658 145.81749 -2.9477208 -164.43402 -2.9304404 -164.45493 -11.673512 62.82745
1910000000 -15.336184 143.01758 -2.9359863 -166.35675 -2.9213047 -166.37659 -11.724832 61.666977
1920000000 -15.356744 140.27667 -2.9276247 -168.27147 -2.9119289 -168.30096 -11.775469 60.573643
1930000000 -15.366961 137.61008 -2.9191697 -170.1946 -2.9022293 -170.21826 -11.818694 59.489799
1940000000 -15.362799 134.93535 -2.9118538 -172.1015 -2.8970463 -172.1331 -11.858676 58.419277
1950000000 -15.347479 132.17734 -2.905575 -174.00175 -2.8911934 -174.02553 -11.895605 57.341228
1960000000 -15.337028 129.36201 -2.8991427 -175.8829 -2.8841524 -175.90646 -11.933941 56.241032
1970000000 -15.327775 126.58259 -2.8913131 -177.75856 -2.8780186 -177.78641 -11.97318 55.161774
1980000000 -15.318425 123.81999 -2.8849149 -179.63635 -2.8692124 -179.65639 -12.011944 54.109066
1990000000 -15.298013 121.06584 -2.8773835 178.49326 -2.862391 178.47504 -12.044621 53.069862
2000000000 -15.274646 118.26315 -2.8704526 176.61543 -2.8566511 176.62129 -12.072234 51.979156
2010000000 -15.258932 115.45548 -2.8648925 174.75122 -2.8495491 174.75343 -12.098837 50.901077
2020000000 -15.250695 112.72341 -2.8566225 172.89124 -2.844486 172.8922 -12.12477 49.786339
2030000000 -15.239962 110.03296 -2.8517151 171.02646 -2.8384533 171.03633 -12.149169 48.699162
2040000000 -15.214808 107.40195 -2.8451881 169.16953 -2.8341663 169.18027 -12.171028 47.636868
2050000000 -15.180193 104.71739 -2.8413806 167.31976 -2.8281245 167.32977 -12.191442 46.535042
2060000000 -15.149364 102.02928 -2.8373029 165.47516 -2.8252268 165.4856 -12.204506 45.403111
2070000000 -15.118406 99.317177 -2.8323948 163.6317 -2.8209934 163.64543 -12.22385 44.302887
2080000000 -15.082428 96.656532 -2.8294401 161.78659 -2.8153911 161.80447 -12.242291 43.205425
2090000000 -15.040763 94.017128 -2.827136 159.95198 -2.8137956 159.96909 -12.256824 42.141777
2100000000 -14.992911 91.303116 -2.8245964 158.12323 -2.8115757 158.13368 -12.268903 41.125759
2110000000 -14.947269 88.633728 -2.8237455 156.30032 -2.8126998 156.31104 -12.279014 40.10886
2120000000 -14.907475 85.986298 -2.8227935 154.48662 -2.8120718 154.49529 -12.279958 39.076904
2130000000 -14.86446 83.416977 -2.8219101 152.68456 -2.8111432 152.68828 -12.277794 38.047066
2140000000 -14.811253 80.908928 -2.8201222 150.88049 -2.8087895 150.88524 -12.274278 37.03648
2150000000 -14.746557 78.381775 -2.8204832 149.0827 -2.8100467 149.09288 -12.268043 35.982861
2160000000 -14.682661 75.814262 -2.819109 147.29678 -2.8075123 147.29765 -12.259478 34.945396
2170000000 -14.627169 73.299316 -2.8182602 145.51363 -2.8078856 145.51187 -12.250338 33.880619
2180000000 -14.566799 70.829124 -2.8163869 143.72926 -2.8085825 143.72958 -12.243181 32.808292
2190000000 -14.504186 68.401649 -2.8162093 141.94691 -2.8065526 141.95609 -12.232518 31.737526
2200000000 -14.434199 65.937302 -2.8147094 140.17351 -2.8077013 140.18538 -12.225572 30.647285
2210000000 -14.373228 63.462677 -2.8148041 138.40749 -2.8067355 138.41954 -12.214126 29.581776
2220000000 -14.320073 61.049435 -2.8122256 136.6414 -2.806843 136.65797 -12.201644 28.471172
2230000000 -14.261006 58.702579 -2.8123879 134.87347 -2.8064387 134.89993 -12.190347 27.381796
2240000000 -14.199422 56.400761 -2.8121452 133.10413 -2.8049531 133.1376 -12.1725 26.290609
2250000000 -14.129859 54.057472 -2.8131013 131.34497 -2.8051975 131.37932 -12.157776 25.17598
2260000000 -14.063188 51.707165 -2.8134367 129.59389 -2.8051071 129.62196 -12.139648 24.035753
2270000000 -14.005627 49.352444 -2.8119645 127.84528 -2.8048372 127.86949 -12.125165 22.906277
2280000000 -13.947989 47.115421 -2.8111618 126.09872 -2.8042622 126.11618 -12.111864 21.774534
2290000000 -13.881182 44.930794 -2.8125234 124.34486 -2.8066499 124.36843 -12.097982 20.624874
2300000000 -13.808623 42.681007 -2.8134418 122.60138 -2.8067517 122.63045 -12.079538 19.484615
2310000000 -13.734349 40.400425 -2.8162856 120.86315 -2.8093295 120.88937 -12.065907 18.354919
2320000000 -13.677551 38.133274 -2.8165138 119.13652 -2.8087583 119.15611 -12.049311 17.218906
2330000000 -13.628091 35.939449 -2.8160884 117.40401 -2.8098896 117.42744 -12.029126 16.082819
2340000000 -13.575624 33.864883 -2.8164403 115.66666 -2.8095255 115.6956 -12.008216 14.955778
2350000000 -13.512303 31.792011 -2.8178325 113.93616 -2.8115158 113.96743 -11.982771 13.845817
2360000000 -13.44284 29.698383 -2.8211327 112.22127 -2.8126798 112.24597 -11.956697 12.705734
2370000000 -13.382832 27.569561 -2.822561 110.50774 -2.8154659 110.53748 -11.931405 11.535237
2380000000 -13.328501 25.492788 -2.8241482 108.79594 -2.8165412 108.83037 -11.907678 10.346448
2390000000 -13.27089 23.458195 -2.8264902 107.08334 -2.8172245 107.12524 -11.887158 9.1642551
2400000000 -13.21512 21.43297 -2.8286819 105.38165 -2.8168857 105.42718 -11.867362 8.0098028
2410000000 -13.160748 19.384617 -2.8299789 103.68133 -2.8185472 103.72391 -11.848351 6.8650413
2420000000 -13.115303 17.393011 -2.8309236 101.98967 -2.8200984 102.02178 -11.823279 5.7040858
2430000000 -13.070748 15.448752 -2.8311357 100.28851 -2.8208303 100.32757 -11.799006 4.55231
2440000000 -13.015864 13.600091 -2.8313751 98.587517 -2.8223858 98.631149 -11.777758 3.3410947
2450000000 -12.953798 11.686768 -2.8336635 96.892708 -2.8221264 96.944839 -11.7609 2.139225
2460000000 -12.88907 9.7327614 -2.8372378 95.203911 -2.8241494 95.248772 -11.743119 0.94443953
2470000000 -12.838499 7.7292709 -2.8380423 93.523613 -2.8262661 93.55542 -11.726064 -0.22655658
2480000000 -12.799076 5.786974 -2.838321 91.838905 -2.8264735 91.868858 -11.703987 -1.4348606
2490000000 -12.760034 3.9468958 -2.8399708 90.157036 -2.8287311 90.190651 -11.681775 -2.6783509
2500000000 -12.716178 2.113131 -2.8418181 88.473633 -2.8290193 88.505577 -11.65772 -3.9321928
2510000000 -12.66647 0.28929257 -2.8433216 86.795288 -2.8301167 86.829422 -11.635742 -5.2012525
2520000000 -12.623416 -1.5259576 -2.8449085 85.121468 -2.832834 85.153442 -11.619578 -6.485189
2530000000 -12.582186 -3.2970164 -2.8477209 83.443512 -2.835345 83.478134 -11.601377 -7.7410054
2540000000 -12.5369 -5.0469375 -2.8492556 81.771698 -2.8367522 81.807991 -11.583415 -9.0080805
2550000000 -12.484949 -6.8088427 -2.8517342 80.097755 -2.8403754 80.1408 -11.565648 -10.272007
2560000000 -12.435157 -8.6476269 -2.8548226 78.439468 -2.8413205 78.480652 -11.549281 -11.522126
2570000000 -12.402499 -10.496903 -2.8559699 76.789253 -2.844079 76.82547 -11.534024 -12.777384
2580000000 -12.379423 -12.266426 -2.8559551 75.135834 -2.8445508 75.163864 -11.523249 -14.024621
2590000000 -12.358541 -13.954536 -2.8565998 73.465637 -2.8444774 73.506691 -11.508907 -15.26415
2600000000 -12.326414 -15.599776 -2.8569548 71.803856 -2.847048 71.845863 -11.500942 -16.502289
2610000000 -12.290266 -17.272287 -2.8604913 70.145836 -2.8472462 70.188644 -11.48968 -17.752352
2620000000 -12.261083 -18.998699 -2.8627512 68.498367 -2.8492451 68.531677 -11.479732 -19.038725
2630000000 -12.239738 -20.701202 -2.8636546 66.847954 -2.8524268 66.879028 -11.478526 -20.338802
2640000000 -12.220279 -22.353483 -2.8648243 65.196732 -2.851532 65.235481 -11.477924 -21.635931
2650000000 -12.197446 -23.986029 -2.8672218 63.54808 -2.8538239 63.591698 -11.483972 -22.9077
2660000000 -12.173935 -25.659752 -2.8694844 61.907532 -2.8565269 61.950329 -11.484645 -24.177778
2670000000 -12.160758 -27.363119 -2.872117 60.276855 -2.8563921 60.304867 -11.485163 -25.45582
2680000000 -12.155087 -28.997248 -2.8724508 58.642391 -2.8576305 58.664169 -11.483478 -26.771511
2690000000 -12.153722 -30.577484 -2.8712065 57.00544 -2.8567059 57.029591 -11.483702 -28.11965
2700000000 -12.141793 -32.08527 -2.8731263 55.356117 -2.8583744 55.393745 -11.492443 -29.484268
2710000000 -12.123212 -33.638134 -2.8755088 53.714939 -2.8597052 53.757938 -11.501985 -30.811398
2720000000 -12.109941 -35.25444 -2.8776963 52.091805 -2.860642 52.123825 -11.514606 -32.092506
2730000000 -12.104907 -36.871101 -2.8788164 50.465824 -2.8606184 50.491535 -11.524961 -33.369984
2740000000 -12.107049 -38.447365 -2.87937 48.837662 -2.8632829 48.868149 -11.533359 -34.651413
2750000000 -12.10634 -39.997822 -2.8809612 47.216984 -2.8635468 47.251823 -11.544679 -35.954094
2760000000 -12.107533 -41.549427 -2.8825305 45.592064 -2.8628154 45.637447 -11.560022 -37.24128
2770000000 -12.112549 -43.134888 -2.88378 43.976158 -2.8617017 44.01704 -11.583114 -38.508694
2780000000 -12.129008 -44.680111 -2.8824751 42.360863 -2.8618667 42.393696 -11.604252 -39.776169
2790000000 -12.148982 -46.165951 -2.8792939 40.735321 -2.8608296 40.764904 -11.626694 -41.02776
2800000000 -12.163252 -47.606949 -2.8797355 39.108578 -2.8603466 39.141754 -11.653587 -42.315491
2810000000 -12.171805 -49.085674 -2.8815148 37.481571 -2.8600659 37.523258 -11.683471 -43.615177
2820000000 -12.182309 -50.599434 -2.8828564 35.861893 -2.8602731 35.910679 -11.718663 -44.927074
2830000000 -12.201826 -52.14135 -2.8827925 34.255005 -2.8600118 34.286392 -11.757082 -46.20895
2840000000 -12.229908 -53.641663 -2.8800566 32.636749 -2.8595054 32.673298 -11.793536 -47.490681
2850000000 -12.254654 -55.083202 -2.8795924 31.027071 -2.8587346 31.057312 -11.830006 -48.756119
2860000000 -12.277635 -56.529648 -2.879818 29.415007 -2.8572495 29.441431 -11.860977 -50.072346
2870000000 -12.305342 -58.012383 -2.878222 27.808657 -2.8555591 27.821154 -11.899737 -51.407845
2880000000 -12.33764 -59.483231 -2.876977 26.194569 -2.8541479 26.207464 -11.941993 -52.745747
2890000000 -12.378668 -60.908581 -2.8746035 24.581177 -2.8522954 24.588812 -11.9881 -54.070576
2900000000 -12.416836 -62.302212 -2.8732746 22.964727 -2.8516788 22.97117 -12.038496 -55.353779
2910000000 -12.451493 -63.693687 -2.87237 21.346127 -2.8520324 21.358276 -12.087756 -56.611141
2920000000 -12.4875 -65.126045 -2.8702271 19.734842 -2.8515484 19.744133 -12.139956 -57.851963
2930000000 -12.535355 -66.538742 -2.8685787 18.119987 -2.8488672 18.135519 -12.192789 -59.103008
2940000000 -12.590417 -67.950233 -2.8659618 16.511501 -2.8463445 16.524458 -12.250664 -60.331356
2950000000 -12.637357 -69.332428 -2.864959 14.893583 -2.8439894 14.912658 -12.309387 -61.597775
2960000000 -12.690716 -70.723518 -2.863029 13.281597 -2.8422792 13.298705 -12.377475 -62.825298
2970000000 -12.754307 -72.125267 -2.8631163 11.673703 -2.8409107 11.690435 -12.446616 -64.053497
2980000000 -12.827981 -73.51194 -2.8583333 10.070711 -2.837786 10.074779 -12.521923 -65.266418
2990000000 -12.901102 -74.803337 -2.8560703 8.457057 -2.8356378 8.4608259 -12.601964 -66.491554
3000000000 -12.965466 -76.062279 -2.8524549 6.8408551 -2.8336098 6.850595 -12.681925 -67.734276
3010000000 -13.026599 -77.370628 -2.8502796 5.2178063 -2.8320882 5.2439995 -12.7721 -68.984962
3020000000 -13.091759 -78.753281 -2.8501756 3.6091962 -2.830157 3.6318455 -12.865428 -70.230392
3030000000 -13.17395 -80.140785 -2.8491328 2.0093167 -2.8263729 2.0202019 -12.957258 -71.457306
3040000000 -13.268478 -81.42849 -2.8451114 0.40666083 -2.8213174 0.40510499 -13.052923 -72.672935
