!Agilent Technologies,N5224A,MY51441093,A.09.90.21
!Agilent N5224A: A.09.90.21
!Date: Wednesday, October 01, 2025 16:37:49
!Correction: S11(Full 2 Port(1,2)) 
!S21(Full 2 Port(1,2)) 
!S12(Full 2 Port(1,2)) 
!S22(Full 2 Port(1,2)) 
!S2P File: Measurements: S11, S21, S12, S22:
# Hz S  dB   R 50
1000000000 -16.365406 -168.69664 -1.93392 -137.73526 -1.9101024 -137.7549 -22.868713 178.63675
1010000000 -16.436087 -169.66629 -1.9329386 -139.40019 -1.9094502 -139.4286 -23.21212 177.26672
1020000000 -16.499344 -170.7881 -1.9334071 -141.06685 -1.9071653 -141.10884 -23.554716 175.82443
1030000000 -16.575935 -172.05765 -1.9318211 -142.73129 -1.9070803 -142.78674 -23.905367 174.42049
1040000000 -16.670124 -173.25641 -1.9305334 -144.39943 -1.9069084 -144.4707 -24.246054 172.92758
1050000000 -16.75881 -174.41789 -1.9292009 -146.05975 -1.9088383 -146.14743 -24.58827 171.2915
1060000000 -16.834332 -175.54488 -1.9285942 -147.7242 -1.91202 -147.82362 -24.9261 169.61702
1070000000 -16.900993 -176.78763 -1.9274392 -149.38266 -1.9146485 -149.495 -25.284061 167.72586
1080000000 -16.972281 -178.04645 -1.9260401 -151.05028 -1.9180678 -151.15683 -25.667397 165.93665
1090000000 -17.056646 -179.28285 -1.9262909 -152.70511 -1.9190582 -152.82033 -26.04331 164.12877
1100000000 -17.126484 179.52316 -1.9258647 -154.37234 -1.9210049 -154.4785 -26.403069 162.27832
1110000000 -17.173788 178.30598 -1.9257916 -156.03769 -1.9226928 -156.13564 -26.755585 160.24321
1120000000 -17.219288 176.94145 -1.9267876 -157.70108 -1.9252285 -157.79417 -27.123718 157.93164
1130000000 -17.274174 175.43663 -1.9295928 -159.36418 -1.9270836 -159.44707 -27.525505 155.67111
1140000000 -17.339693 173.96097 -1.9314398 -161.02243 -1.929926 -161.09818 -27.928711 153.23686
1150000000 -17.409777 172.47391 -1.9334203 -162.68475 -1.9315041 -162.74667 -28.32572 150.73784
1160000000 -17.470827 171.06635 -1.9358903 -164.33411 -1.9350177 -164.40051 -28.682652 148.39993
1170000000 -17.53245 169.59915 -1.9390235 -165.98322 -1.9368455 -166.04878 -29.033916 145.10341
1180000000 -17.587938 168.15422 -1.9423949 -167.62906 -1.9393743 -167.69313 -29.399189 141.90816
1190000000 -17.643908 166.69792 -1.9450281 -169.27367 -1.941246 -169.33385 -29.803516 138.38684
1200000000 -17.697905 165.19525 -1.9466317 -170.91142 -1.9427253 -170.97652 -30.20187 135.04547
1210000000 -17.735888 163.65256 -1.9505396 -172.55205 -1.946689 -172.61617 -30.519337 131.459
1220000000 -17.776972 162.00531 -1.9533374 -174.19385 -1.9485399 -174.26688 -30.801357 127.55595
1230000000 -17.826891 160.34132 -1.9549918 -175.83684 -1.9535073 -175.90175 -31.066282 123.24722
1240000000 -17.883867 158.67181 -1.9582345 -177.47855 -1.9567007 -177.54422 -31.297188 118.57057
1250000000 -17.939566 157.0174 -1.9623089 -179.11909 -1.9592835 -179.17717 -31.542568 113.77918
1260000000 -17.989145 155.33762 -1.9658935 179.24155 -1.9608798 179.18834 -31.742155 109.05602
1270000000 -18.035311 153.56924 -1.9683001 177.60661 -1.9658369 177.54735 -31.882765 104.36102
1280000000 -18.08717 151.85939 -1.9713424 175.96834 -1.9695288 175.91229 -31.913074 99.365204
1290000000 -18.133156 150.20329 -1.9745908 174.33842 -1.9730699 174.27391 -31.911364 94.217758
1300000000 -18.161989 148.46948 -1.9779624 172.69925 -1.9766554 172.63902 -31.877686 88.874443
1310000000 -18.182909 146.61465 -1.9820333 171.0602 -1.9797035 171.00745 -31.801342 83.879364
1320000000 -18.209738 144.58629 -1.9851451 169.42642 -1.9837102 169.37068 -31.668274 79.2789
1330000000 -18.269138 142.5361 -1.9886568 167.79594 -1.9881073 167.73958 -31.455009 74.877937
1340000000 -18.337831 140.63503 -1.9932004 166.16301 -1.9921269 166.10905 -31.185808 70.520302
1350000000 -18.391676 138.89035 -1.9966407 164.53297 -1.9963115 164.47624 -30.90592 66.26973
1360000000 -18.406717 137.11763 -2.0009363 162.89757 -2.0001855 162.85306 -30.623383 62.055164
1370000000 -18.416445 135.14091 -2.0057428 161.26752 -2.0034585 161.22012 -30.346323 58.341087
1380000000 -18.439213 133.03032 -2.0115259 159.64264 -2.0072613 159.5885 -30.027641 54.911781
1390000000 -18.480955 130.94028 -2.0152555 158.01051 -2.0133617 157.96034 -29.698471 51.660282
1400000000 -18.526312 128.94157 -2.0201948 156.37941 -2.0185087 156.33331 -29.380459 48.353642
1410000000 -18.556002 126.97599 -2.0252087 154.74568 -2.0225661 154.70302 -29.069857 45.192806
1420000000 -18.575953 124.92937 -2.030432 153.11729 -2.0274577 153.07147 -28.783215 42.519276
1430000000 -18.60244 122.80968 -2.0363166 151.4877 -2.0327716 151.44435 -28.500534 39.930092
1440000000 -18.645357 120.69572 -2.0410888 149.86424 -2.0379796 149.81407 -28.182373 37.610203
1450000000 -18.686249 118.6912 -2.0475426 148.22702 -2.0436852 148.18422 -27.859016 35.302578
1460000000 -18.712652 116.69926 -2.0528781 146.5957 -2.0500119 146.55542 -27.541706 32.834938
1470000000 -18.72434 114.66651 -2.0591223 144.96545 -2.0561688 144.92099 -27.229555 30.675743
1480000000 -18.738876 112.47924 -2.0656788 143.33714 -2.0620377 143.29155 -26.91922 28.582771
1490000000 -18.758417 110.25572 -2.0719151 141.70197 -2.0694592 141.66063 -26.592386 26.631174
1500000000 -18.785294 108.01711 -2.0772157 140.07159 -2.0764992 140.02609 -26.27648 24.70034
1510000000 -18.822189 105.82869 -2.0844822 138.43704 -2.0832675 138.39478 -25.969826 22.763218
1520000000 -18.859165 103.61058 -2.0921743 136.79976 -2.0906711 136.76498 -25.695446 21.075323
1530000000 -18.902275 101.37511 -2.1010261 135.16557 -2.098325 135.1297 -25.417629 19.525299
1540000000 -18.951824 99.316368 -2.1091876 133.52669 -2.1061459 133.49019 -25.126154 18.227131
1550000000 -18.994549 97.329033 -2.1187105 131.88614 -2.1161788 131.84811 -24.818056 16.853109
1560000000 -19.015686 95.36058 -2.129072 130.24165 -2.1276782 130.20709 -24.535933 15.496576
1570000000 -19.024048 93.327438 -2.1396735 128.59914 -2.1361365 128.56531 -24.273071 14.073018
1580000000 -19.051931 91.18689 -2.1511471 126.95079 -2.1485267 126.92474 -24.026115 12.856288
1590000000 -19.100443 89.081375 -2.1657536 125.30911 -2.1611536 125.27551 -23.773945 11.848002
1600000000 -19.160398 87.226074 -2.1805305 123.66522 -2.1751876 123.63175 -23.495296 10.860591
1610000000 -19.217264 85.445404 -2.1968262 122.01764 -2.1923122 121.97799 -23.206396 9.8161716
1620000000 -19.26693 83.813423 -2.2175193 120.37273 -2.2124748 120.34322 -22.925207 8.6851835
1630000000 -19.329885 82.312729 -2.2387235 118.73321 -2.2351403 118.70621 -22.648531 7.7271338
1640000000 -19.389168 81.175514 -2.2662964 117.10834 -2.2599268 117.08451 -22.339111 6.8945961
1650000000 -19.423067 80.348106 -2.296 115.50103 -2.2903368 115.47738 -21.981148 6.0144224
1660000000 -19.393047 79.83062 -2.3291366 113.93254 -2.3245542 113.90672 -21.580997 4.9708962
1670000000 -19.292944 79.411804 -2.3668063 112.41336 -2.3588572 112.38325 -21.160034 3.5776405
1680000000 -19.123066 78.954285 -2.4030139 110.96049 -2.3959289 110.93261 -20.73123 1.7894094
1690000000 -18.874346 78.38588 -2.4361622 109.57716 -2.4273982 109.55278 -20.321507 -0.29953456
1700000000 -18.544952 77.508484 -2.4572573 108.25642 -2.4483781 108.23341 -19.935083 -2.7519681
1710000000 -18.154999 75.975319 -2.4658659 106.95546 -2.457144 106.92995 -19.596357 -5.4914908
1720000000 -17.756338 73.671654 -2.460223 105.64073 -2.4528141 105.62228 -19.326256 -8.4842844
1730000000 -17.411892 70.698959 -2.445672 104.26967 -2.4356661 104.25829 -19.131086 -11.427649
1740000000 -17.16674 67.454308 -2.4244359 102.84461 -2.4144046 102.8269 -18.998825 -14.282734
1750000000 -16.988214 64.22728 -2.4012556 101.34909 -2.3914502 101.33698 -18.920567 -16.851465
1760000000 -16.841496 61.128384 -2.3798356 99.806519 -2.3699157 99.794891 -18.86496 -19.169359
1770000000 -16.724201 58.133224 -2.3621633 98.230125 -2.3503366 98.212814 -18.816235 -21.179033
1780000000 -16.623306 55.112724 -2.3475468 96.625992 -2.3351083 96.60672 -18.77301 -23.03647
1790000000 -16.557055 52.166 -2.3367934 95.007355 -2.3235989 94.989014 -18.72497 -24.747356
1800000000 -16.518177 49.388554 -2.3294888 93.384575 -2.3139935 93.362953 -18.667681 -26.365749
1810000000 -16.48731 46.773769 -2.3223376 91.757301 -2.3083706 91.732956 -18.605135 -27.90856
1820000000 -16.451124 44.263577 -2.3183699 90.120346 -2.3030522 90.101974 -18.542246 -29.438478
1830000000 -16.413811 41.800297 -2.3163357 88.490479 -2.3001671 88.469826 -18.480062 -30.846512
1840000000 -16.38331 39.376663 -2.3138094 86.857178 -2.2975099 86.836456 -18.420757 -32.235538
1850000000 -16.358234 37.032898 -2.3135555 85.226868 -2.2979121 85.205788 -18.34968 -33.508728
1860000000 -16.327799 34.73481 -2.3161006 83.598244 -2.2986665 83.574387 -18.268618 -34.799385
1870000000 -16.290176 32.439266 -2.3177512 81.972015 -2.2996171 81.9505 -18.185476 -36.090576
1880000000 -16.260441 30.111235 -2.3206913 80.349831 -2.3042533 80.330582 -18.117992 -37.446037
1890000000 -16.24601 27.809183 -2.3234603 78.73307 -2.3070748 78.710503 -18.050529 -38.728878
1900000000 -16.239676 25.645117 -2.3247504 77.115822 -2.309227 77.092216 -17.984407 -39.967247
1910000000 -16.220707 23.639708 -2.3286273 75.496361 -2.3124156 75.468803 -17.90922 -41.179039
1920000000 -16.193426 21.645531 -2.333107 73.877518 -2.3169177 73.853302 -17.833752 -42.444134
1930000000 -16.149155 19.621105 -2.3391869 72.266869 -2.3227348 72.241051 -17.758411 -43.78772
1940000000 -16.111298 17.508194 -2.3436916 70.666595 -2.3280635 70.631676 -17.696753 -45.176426
1950000000 -16.092461 15.420818 -2.3483491 69.061073 -2.3332345 69.033798 -17.648634 -46.552605
1960000000 -16.082146 13.458712 -2.3531237 67.455185 -2.3368547 67.427513 -17.596048 -47.828575
1970000000 -16.059855 11.516761 -2.3566694 65.85424 -2.3406734 65.821838 -17.537296 -49.072262
1980000000 -16.035681 9.5907907 -2.3609512 64.246742 -2.3456855 64.221008 -17.467957 -50.347679
1990000000 -16.021805 7.6394906 -2.3657904 62.646332 -2.3500016 62.62606 -17.402407 -51.722408
2000000000 -16.015955 5.7416782 -2.3708301 61.030632 -2.3560734 61.039043 -17.350716 -53.096897
2010000000 -16.006876 3.9574585 -2.3745501 59.422531 -2.3606443 59.427422 -17.300177 -54.431004
2020000000 -15.9804 2.2312934 -2.3786924 57.820873 -2.3657842 57.830647 -17.248697 -55.731174
2030000000 -15.94297 0.41622013 -2.3836145 56.213303 -2.3708401 56.22686 -17.193266 -57.049706
2040000000 -15.915197 -1.4612232 -2.3895447 54.624901 -2.3754601 54.626358 -17.136707 -58.403904
2050000000 -15.885397 -3.3739936 -2.3936477 53.022991 -2.3812699 53.027489 -17.087646 -59.704964
2060000000 -15.869428 -5.2223072 -2.3984334 51.420616 -2.3850956 51.432655 -17.05534 -61.021416
2070000000 -15.850996 -7.0584168 -2.4033971 49.816051 -2.3885775 49.832977 -17.015455 -62.249355
2080000000 -15.832242 -8.9037685 -2.4080982 48.211258 -2.3924148 48.228794 -16.974424 -63.503849
2090000000 -15.820242 -10.779136 -2.413697 46.613178 -2.4003568 46.624874 -16.938393 -64.745773
2100000000 -15.826264 -12.616517 -2.4187834 45.012798 -2.4047642 45.019463 -16.897058 -66.028709
2110000000 -15.8362 -14.35356 -2.4237618 43.408932 -2.4110441 43.424023 -16.868641 -67.362
2120000000 -15.838475 -15.985652 -2.4289441 41.809216 -2.4168909 41.823929 -16.846081 -68.654259
2130000000 -15.832237 -17.634686 -2.4342766 40.210209 -2.4223273 40.215454 -16.829407 -69.966354
2140000000 -15.825744 -19.35704 -2.4382253 38.611923 -2.4281783 38.615978 -16.804632 -71.270569
2150000000 -15.833501 -21.076498 -2.4454219 37.020241 -2.4340665 37.022385 -16.794432 -72.59124
2160000000 -15.849168 -22.748806 -2.4502442 35.428307 -2.4402785 35.429878 -16.785898 -73.934387
2170000000 -15.86644 -24.351213 -2.4552093 33.831646 -2.4475374 33.834324 -16.781336 -75.288422
2180000000 -15.877398 -25.987135 -2.4601774 32.240242 -2.453141 32.246986 -16.790171 -76.6287
2190000000 -15.897539 -27.660917 -2.4639492 30.65041 -2.4565432 30.66087 -16.792572 -77.98864
2200000000 -15.931943 -29.313646 -2.4693627 29.060232 -2.461587 29.068943 -16.803061 -79.298859
2210000000 -15.966798 -30.872015 -2.4725106 27.462294 -2.4653184 27.477219 -16.810518 -80.624268
2220000000 -15.991196 -32.400906 -2.4761152 25.861647 -2.469198 25.88542 -16.832596 -81.941917
2230000000 -16.006153 -33.959949 -2.4813821 24.263552 -2.4741118 24.290413 -16.844959 -83.258446
2240000000 -16.030159 -35.615658 -2.4859107 22.667643 -2.4784939 22.691444 -16.864397 -84.579422
2250000000 -16.066084 -37.254192 -2.4906385 21.072166 -2.4828074 21.101976 -16.884804 -85.912369
2260000000 -16.11536 -38.793152 -2.4934769 19.481314 -2.4863615 19.509699 -16.916004 -87.244896
2270000000 -16.152811 -40.250965 -2.4964278 17.880819 -2.4916623 17.915396 -16.945082 -88.552025
2280000000 -16.182705 -41.815002 -2.5007293 16.28516 -2.4952331 16.316519 -16.975504 -89.863609
2290000000 -16.223963 -43.423477 -2.5045059 14.69215 -2.4980557 14.715164 -17.005886 -91.185997
2300000000 -16.285154 -44.983295 -2.5078199 13.095379 -2.5004539 13.11831 -17.04534 -92.508278
2310000000 -16.360083 -46.418594 -2.5116003 11.494779 -2.5045896 11.517091 -17.090412 -93.859451
2320000000 -16.422359 -47.733521 -2.5145388 9.8913364 -2.5074389 9.9116774 -17.143742 -95.149666
2330000000 -16.467539 -49.059479 -2.517082 8.287425 -2.5109997 8.3164358 -17.200493 -96.413712
2340000000 -16.504375 -50.508533 -2.521435 6.6843452 -2.5131249 6.7158613 -17.25746 -97.652527
2350000000 -16.560347 -52.03125 -2.5233717 5.0868168 -2.518436 5.1114535 -17.316088 -98.94944
2360000000 -16.632999 -53.526039 -2.5263021 3.4798789 -2.5202174 3.5119023 -17.387951 -100.24416
2370000000 -16.718855 -54.972786 -2.5293806 1.8740509 -2.5233681 1.9086192 -17.465586 -101.53206
2380000000 -16.798687 -56.39447 -2.5337875 0.26533958 -2.5252483 0.30437577 -17.555405 -102.75265
2390000000 -16.888527 -57.852627 -2.5377216 -1.3407406 -2.5268762 -1.3007855 -17.641094 -103.98023
2400000000 -16.995869 -59.220486 -2.5400813 -2.9396057 -2.5311916 -2.901655 -17.730629 -105.20464
2410000000 -17.104734 -60.493694 -2.5428092 -4.54462 -2.5340273 -4.5042238 -17.819281 -106.47923
2420000000 -17.20215 -61.689812 -2.5447934 -6.1465697 -2.5361028 -6.1038094 -17.925566 -107.82271
2430000000 -17.284243 -62.922894 -2.5479841 -7.7530761 -2.5372696 -7.6960959 -18.035601 -109.13622
2440000000 -17.369499 -64.262764 -2.5484042 -9.3529158 -2.5385211 -9.3013916 -18.157936 -110.35394
2450000000 -17.482939 -65.665833 -2.551568 -10.961147 -2.5384722 -10.91379 -18.282303 -111.5822
2460000000 -17.61503 -66.941772 -2.5516663 -12.569116 -2.5389845 -12.529969 -18.399767 -112.73528
2470000000 -17.742756 -68.004799 -2.552618 -14.186975 -2.5414786 -14.149927 -18.510033 -113.96745
2480000000 -17.853102 -69.054474 -2.553467 -15.811248 -2.5417531 -15.771616 -18.629744 -115.18315
2490000000 -17.956646 -70.159149 -2.5563133 -17.429777 -2.5431809 -17.394398 -18.764801 -116.40916
2500000000 -18.068256 -71.358353 -2.5593114 -19.051565 -2.5441809 -19.019981 -18.903282 -117.64923
2510000000 -18.200199 -72.538788 -2.560497 -20.671904 -2.5468857 -20.636786 -19.051802 -118.83331
2520000000 -18.334885 -73.647804 -2.56232 -22.297504 -2.5494723 -22.260132 -19.211622 -119.9186
2530000000 -18.464903 -74.805954 -2.5652328 -23.922651 -2.5514531 -23.881741 -19.373274 -121.01403
2540000000 -18.618765 -75.998032 -2.5663979 -25.54357 -2.5538535 -25.503996 -19.547991 -122.09267
2550000000 -18.805996 -77.147377 -2.5690348 -27.165974 -2.5555789 -27.127672 -19.732813 -123.1688
2560000000 -19.013382 -78.089249 -2.5685816 -28.793169 -2.5568361 -28.754068 -19.929033 -124.21538
2570000000 -19.206257 -78.830658 -2.5694957 -30.423538 -2.5578668 -30.380999 -20.14319 -125.19468
2580000000 -19.374117 -79.498283 -2.5706728 -32.059673 -2.5587637 -32.023685 -20.357733 -126.16932
2590000000 -19.527681 -80.30854 -2.5737402 -33.703926 -2.5599473 -33.656528 -20.582144 -127.103
2600000000 -19.708368 -81.312363 -2.5743861 -35.336609 -2.5631669 -35.297539 -20.815393 -128.07191
2610000000 -19.932972 -82.233238 -2.578903 -36.969864 -2.5634327 -36.935577 -21.060263 -129.08765
2620000000 -20.162411 -82.941628 -2.5796061 -38.609665 -2.5670192 -38.574051 -21.327333 -130.07852
2630000000 -20.383955 -83.582756 -2.5810418 -40.254852 -2.5698302 -40.215363 -21.610725 -130.93398
2640000000 -20.610834 -84.231796 -2.5833404 -41.897034 -2.5703549 -41.85376 -21.890217 -131.7095
2650000000 -20.859716 -84.920166 -2.5860569 -43.53648 -2.5720549 -43.499474 -22.177608 -132.4303
2660000000 -21.141069 -85.337372 -2.587697 -45.179604 -2.5744054 -45.143509 -22.460857 -133.20157
2670000000 -21.408638 -85.489655 -2.59114 -46.826267 -2.5761228 -46.793278 -22.767845 -133.89136
2680000000 -21.653341 -85.564163 -2.5948455 -48.470306 -2.5797861 -48.437759 -23.109779 -134.54973
2690000000 -21.878902 -85.727875 -2.5972168 -50.121727 -2.5818896 -50.088463 -23.478731 -134.95302
2700000000 -22.142977 -86.051979 -2.5991807 -51.769604 -2.5852127 -51.74057 -23.860039 -135.07858
2710000000 -22.457989 -86.208534 -2.6038861 -53.426411 -2.5860398 -53.391304 -24.242125 -134.99548
2720000000 -22.783726 -86.029167 -2.6060286 -55.075523 -2.5875766 -55.041752 -24.623158 -134.84131
2730000000 -23.09409 -85.500961 -2.6090415 -56.734303 -2.59061 -56.695255 -25.022909 -134.65007
2740000000 -23.40237 -84.962685 -2.6125329 -58.388828 -2.5935214 -58.348743 -25.468143 -134.31665
2750000000 -23.719423 -84.31768 -2.6162274 -60.044495 -2.5967693 -60.00322 -25.950163 -133.74739
2760000000 -24.059265 -83.360565 -2.6205392 -61.699421 -2.5991232 -61.659794 -26.455868 -132.77615
2770000000 -24.378942 -81.948494 -2.6236451 -63.35812 -2.6019416 -63.321846 -26.959188 -131.42586
2780000000 -24.650103 -80.499718 -2.626363 -65.018936 -2.6057217 -64.982925 -27.456945 -129.87793
2790000000 -24.890932 -79.159622 -2.6295207 -66.683937 -2.6096175 -66.647385 -27.977306 -128.18727
2800000000 -25.166761 -77.781044 -2.634779 -68.351227 -2.6138086 -68.309425 -28.520832 -125.94862
2810000000 -25.490444 -75.97776 -2.6397645 -70.014557 -2.6170068 -69.971809 -29.065149 -123.20149
2820000000 -25.770311 -73.570717 -2.6440017 -71.684753 -2.6213605 -71.630463 -29.553019 -119.57948
2830000000 -25.973932 -70.788597 -2.6489484 -73.346268 -2.6257482 -73.29982 -29.96172 -115.56553
2840000000 -26.103653 -68.134972 -2.6515164 -75.01416 -2.6309311 -74.968407 -30.290035 -111.2955
2850000000 -26.227175 -65.387871 -2.6570823 -76.677429 -2.6344085 -76.641861 -30.556425 -106.6413
2860000000 -26.307327 -62.408653 -2.6616147 -78.343742 -2.6374829 -78.318863 -30.769917 -101.46423
2870000000 -26.320513 -59.258327 -2.6657739 -80.011925 -2.6425259 -79.997734 -30.813292 -95.490799
2880000000 -26.236168 -56.165466 -2.6707594 -81.686928 -2.6479018 -81.671745 -30.680517 -89.478737
2890000000 -26.130009 -53.361958 -2.6755209 -83.361786 -2.6526196 -83.355469 -30.365978 -83.945641
2900000000 -26.012129 -50.742989 -2.6802149 -85.043015 -2.658021 -85.033249 -29.960451 -79.016861
2910000000 -25.864126 -47.786373 -2.6860309 -86.722069 -2.6650977 -86.709969 -29.493824 -74.874657
2920000000 -25.631639 -44.929558 -2.6910217 -88.404297 -2.6712821 -88.385567 -28.993998 -70.984856
2930000000 -25.334549 -42.521091 -2.6967661 -90.085403 -2.6760569 -90.06749 -28.459349 -67.763565
2940000000 -25.028688 -40.371128 -2.7032657 -91.769058 -2.6826885 -91.74926 -27.918371 -64.939125
2950000000 -24.708479 -38.426693 -2.7085562 -93.450653 -2.6884313 -93.434677 -27.35675 -62.543003
2960000000 -24.357815 -36.646133 -2.7155342 -95.133385 -2.6943643 -95.121468 -26.807951 -60.703068
2970000000 -23.989918 -35.315437 -2.7229362 -96.819199 -2.7006037 -96.800537 -26.260435 -59.327019
2980000000 -23.613714 -34.454296 -2.7294562 -98.497513 -2.7082927 -98.483429 -25.755222 -58.336784
2990000000 -23.292023 -33.74115 -2.7362759 -100.18301 -2.7138822 -100.17381 -25.261854 -57.586815
3000000000 -22.988426 -32.949673 -2.7414644 -101.86907 -2.7215352 -101.86313 -24.782001 -57.059471
3010000000 -22.654699 -32.081062 -2.7500279 -103.56133 -2.7309494 -103.54179 -24.318363 -56.846878
3020000000 -22.273512 -31.394377 -2.7580574 -105.25346 -2.7366025 -105.23313 -23.86187 -56.846714
3030000000 -21.881802 -31.158903 -2.7682612 -106.93116 -2.744802 -106.92342 -23.433386 -57.11216
