!Agilent Technologies,N5224A,MY51441093,A.09.90.21
!Agilent N5224A: A.09.90.21
!Date: Wednesday, October 01, 2025 16:38:07
!Correction: S11(Full 2 Port(1,2)) 
!S21(Full 2 Port(1,2)) 
!S12(Full 2 Port(1,2)) 
!S22(Full 2 Port(1,2)) 
!S2P File: Measurements: S11, S21, S12, S22:
# Hz S  dB   R 50
1000000000 -1.6387737 149.17427 -27.063778 59.102863 -27.039959 59.075481 -1.8743664 -172.62645
1010000000 -1.6752688 146.70067 -26.635063 55.605335 -26.61178 55.588116 -1.9365948 -175.05524
1020000000 -1.7101064 144.20772 -26.198935 52.108219 -26.174538 52.047581 -2.0039463 -177.51646
1030000000 -1.7440757 141.69746 -25.766678 48.609577 -25.738363 48.614609 -2.0771608 179.97804
1040000000 -1.7802842 139.17569 -25.321047 45.178783 -25.28969 45.112392 -2.1575689 177.44348
1050000000 -1.8159205 136.6445 -24.870291 41.7472 -24.844885 41.632721 -2.2443273 174.8763
1060000000 -1.8547108 134.09741 -24.407879 38.308895 -24.387423 38.202244 -2.3328846 172.29414
1070000000 -1.8917836 131.53285 -23.943796 34.880539 -23.928778 34.795654 -2.4292412 169.67639
1080000000 -1.9308416 128.96063 -23.474716 31.460165 -23.462408 31.381182 -2.531095 167.02718
1090000000 -1.9707998 126.37104 -22.999855 28.058201 -22.991877 27.957218 -2.6363051 164.33841
1100000000 -2.0125549 123.76273 -22.527544 24.588291 -22.513515 24.473379 -2.7520249 161.60049
1110000000 -2.0560105 121.14592 -22.041624 21.122837 -22.039801 21.018049 -2.8753202 158.81525
1120000000 -2.1004121 118.5047 -21.560801 17.591291 -21.557383 17.518034 -3.007431 155.99065
1130000000 -2.1468272 115.84805 -21.081865 14.079356 -21.07762 14.006455 -3.1508522 153.12898
1140000000 -2.1978123 113.17793 -20.602287 10.544332 -20.596626 10.480928 -3.3037708 150.22896
1150000000 -2.2491269 110.50002 -20.121193 6.9987793 -20.112556 6.9480419 -3.4678395 147.29077
1160000000 -2.3021376 107.79216 -19.633173 3.4258921 -19.628237 3.3537295 -3.6412325 144.31021
1170000000 -2.3618007 105.08669 -19.151148 -0.18984376 -19.146009 -0.25452268 -3.8264732 141.27803
1180000000 -2.4217167 102.35925 -18.663166 -3.8301673 -18.657564 -3.8901727 -4.0240626 138.19482
1190000000 -2.4842572 99.619827 -18.177973 -7.5190248 -18.16938 -7.5738602 -4.2368579 135.05542
1200000000 -2.5488143 96.864136 -17.689314 -11.246391 -17.68067 -11.301723 -4.4669843 131.85675
1210000000 -2.6193812 94.095764 -17.209711 -15.028681 -17.19849 -15.102395 -4.7149463 128.60573
1220000000 -2.6927912 91.312782 -16.730364 -18.860409 -16.722651 -18.93722 -4.9827995 125.29549
1230000000 -2.7681804 88.521729 -16.255159 -22.736885 -16.247568 -22.803679 -5.2721095 121.9347
1240000000 -2.8488061 85.707779 -15.780905 -26.647512 -15.776075 -26.710897 -5.5863061 118.52001
1250000000 -2.936393 82.898216 -15.314147 -30.608673 -15.306824 -30.657854 -5.9253383 115.05595
1260000000 -3.0281677 80.072136 -14.852407 -34.617085 -14.842723 -34.663853 -6.2933431 111.54036
1270000000 -3.123522 77.246208 -14.396829 -38.67437 -14.386556 -38.733517 -6.6951032 107.9621
1280000000 -3.2250824 74.416962 -13.946539 -42.787113 -13.936564 -42.857227 -7.1337724 104.32478
1290000000 -3.3327584 71.584129 -13.502694 -46.94767 -13.496248 -47.023079 -7.6126323 100.6422
1300000000 -3.4448647 68.754951 -13.068332 -51.167995 -13.061895 -51.23193 -8.1389103 96.906662
1310000000 -3.564255 65.931061 -12.645448 -55.445843 -12.638437 -55.485996 -8.7168598 93.146484
1320000000 -3.6910145 63.11441 -12.233634 -59.750244 -12.224993 -59.799221 -9.3546324 89.364738
1330000000 -3.8242145 60.309868 -11.832471 -64.076523 -11.823277 -64.141403 -10.061488 85.553802
1340000000 -3.9646029 57.536278 -11.440313 -68.450874 -11.433045 -68.510941 -10.848437 81.731766
1350000000 -4.1099997 54.781555 -11.059768 -72.861893 -11.054957 -72.922058 -11.728739 77.921989
1360000000 -4.2620583 52.061211 -10.694521 -77.314194 -10.688124 -77.3554 -12.72649 74.142517
1370000000 -4.4196267 49.366096 -10.342714 -81.78833 -10.335447 -81.833199 -13.863847 70.424919
1380000000 -4.5843639 46.703709 -10.007567 -86.264801 -9.9980307 -86.322777 -15.183956 66.803108
1390000000 -4.7534847 44.088768 -9.6824198 -90.766739 -9.6749563 -90.817062 -16.74305 63.374073
1400000000 -4.9282527 41.525417 -9.3723726 -95.264397 -9.3667698 -95.313118 -18.635738 60.299835
1410000000 -5.1067653 39.010204 -9.0781889 -99.766449 -9.0723104 -99.809334 -21.031523 57.9184
1420000000 -5.287281 36.539822 -8.7994471 -104.26412 -8.7910976 -104.3103 -24.270811 57.125786
1430000000 -5.4714932 34.127094 -8.5344706 -108.74172 -8.5265093 -108.78883 -29.243143 61.431862
1440000000 -5.6572814 31.771111 -8.283782 -113.20396 -8.2749615 -113.25377 -37.981308 101.37895
1450000000 -5.8411403 29.468224 -8.0468264 -117.64738 -8.0399904 -117.68718 -32.62154 -174.59239
1460000000 -6.025785 27.218115 -7.823648 -122.04502 -7.8154893 -122.08571 -26.528475 -163.65109
1470000000 -6.2090774 25.009583 -7.6129928 -126.41846 -7.6052928 -126.46216 -22.963352 -163.03355
1480000000 -6.390306 22.848869 -7.4153438 -130.73978 -7.406693 -130.78708 -20.514135 -164.81117
1490000000 -6.5683522 20.739605 -7.2277865 -135.02432 -7.2219138 -135.0737 -18.679371 -167.49484
1500000000 -6.74473 18.6667 -7.0524974 -139.26872 -7.0464201 -139.30965 -17.227163 -170.58839
1510000000 -6.9152474 16.636774 -6.8866906 -143.45879 -6.8826413 -143.50284 -16.051088 -173.93965
1520000000 -7.0830283 14.641837 -6.7322092 -147.60516 -6.7275949 -147.64328 -15.070956 -177.36961
1530000000 -7.2449245 12.678465 -6.5878782 -151.69464 -6.5830612 -151.73726 -14.240548 179.15382
1540000000 -7.4008989 10.738285 -6.4536443 -155.72638 -6.4465098 -155.7681 -13.529692 175.66174
1550000000 -7.5506897 8.8025093 -6.3254881 -159.69389 -6.3195686 -159.73569 -12.91146 172.14771
1560000000 -7.6999626 6.8662491 -6.2043762 -163.61119 -6.1983647 -163.64838 -12.375638 168.6512
1570000000 -7.8445044 4.943985 -6.0863056 -167.47694 -6.0801463 -167.51045 -11.909057 165.18434
1580000000 -7.9879718 3.0437799 -5.9770708 -171.29376 -5.970726 -171.32593 -11.503502 161.74731
1590000000 -8.1261482 1.1627012 -5.8745852 -175.05736 -5.8685665 -175.09314 -11.14495 158.36572
1600000000 -8.2587233 -0.73910147 -5.7775412 -178.76071 -5.77038 -178.79715 -10.82913 155.02466
1610000000 -8.3893194 -2.6544409 -5.6849699 177.58722 -5.6762733 177.54724 -10.554998 151.70276
1620000000 -8.5200062 -4.5630956 -5.5947027 173.98346 -5.5868835 173.95482 -10.318651 148.42163
1630000000 -8.6443348 -6.4858317 -5.5089865 170.42564 -5.5014586 170.40103 -10.113863 145.20673
1640000000 -8.7700348 -8.4265928 -5.4290037 166.93129 -5.4185791 166.89899 -9.9354229 142.04651
1650000000 -8.8947668 -10.402432 -5.3500814 163.47716 -5.3425217 163.44212 -9.781415 138.92072
1660000000 -9.0220461 -12.388046 -5.2726331 160.07625 -5.2652845 160.03369 -9.647049 135.81487
1670000000 -9.1518316 -14.365032 -5.1993122 156.70171 -5.1885352 156.67236 -9.5360003 132.74156
1680000000 -9.279295 -16.318428 -5.1269331 153.36453 -5.1166253 153.35164 -9.4470377 129.68736
1690000000 -9.4022837 -18.302017 -5.0596256 150.07336 -5.0473604 150.05911 -9.3744278 126.70471
1700000000 -9.5268574 -20.329283 -4.9951148 146.83437 -4.9807329 146.80592 -9.3169909 123.75863
1710000000 -9.6542978 -22.381449 -4.9291344 143.63284 -4.9179292 143.59035 -9.2725887 120.84217
1720000000 -9.7924109 -24.417185 -4.8641582 140.46297 -4.8559651 140.43169 -9.2410603 117.95824
1730000000 -9.9302616 -26.441608 -4.8023386 137.31296 -4.7940145 137.30145 -9.2212982 115.10323
1740000000 -10.063004 -28.49124 -4.7434759 134.21231 -4.7322049 134.20665 -9.2151117 112.30336
1750000000 -10.198685 -30.593708 -4.6858168 131.14888 -4.6716523 131.1449 -9.2205706 109.547
1760000000 -10.344181 -32.706318 -4.6287622 128.11705 -4.6133394 128.10202 -9.235033 106.81874
1770000000 -10.499004 -34.822815 -4.5714378 125.11631 -4.5562677 125.08922 -9.2592316 104.127
1780000000 -10.654132 -36.914696 -4.5140157 122.12993 -4.5006061 122.10319 -9.2923555 101.4839
1790000000 -10.810188 -39.016354 -4.4613214 119.17014 -4.4475522 119.149 -9.3359795 98.859718
1800000000 -10.967358 -41.148724 -4.4096498 116.25322 -4.3942785 116.22828 -9.3873787 96.272324
1810000000 -11.133228 -43.328835 -4.358253 113.35323 -4.3431334 113.33807 -9.448019 93.712898
1820000000 -11.30532 -45.497395 -4.3063431 110.48936 -4.2892332 110.46496 -9.5176706 91.198769
1830000000 -11.481589 -47.668026 -4.2562995 107.64175 -4.2390289 107.62415 -9.5922728 88.701492
1840000000 -11.663359 -49.85146 -4.2078743 104.81367 -4.1876321 104.79431 -9.6747704 86.265739
1850000000 -11.849957 -52.052277 -4.1593475 102.01474 -4.1392722 101.98863 -9.7575073 83.843163
1860000000 -12.041269 -54.242546 -4.1096277 99.237503 -4.0926962 99.200439 -9.8524113 81.434425
1870000000 -12.239592 -56.43549 -4.0636978 96.47187 -4.0465074 96.443436 -9.9518375 79.065338
1880000000 -12.437008 -58.632149 -4.0174665 93.724693 -4.002275 93.706589 -10.059456 76.754761
1890000000 -12.639474 -60.859829 -3.9753084 91.011673 -3.9586775 90.989609 -10.172359 74.488564
1900000000 -12.852899 -63.157803 -3.9338584 88.326851 -3.9147785 88.296158 -10.28617 72.263939
1910000000 -13.085594 -65.444275 -3.8902991 85.664536 -3.8715127 85.625198 -10.401914 70.069801
1920000000 -13.327126 -67.699028 -3.8466103 83.016121 -3.8309278 82.974159 -10.528723 67.903923
1930000000 -13.575035 -69.897179 -3.8038337 80.365776 -3.7888067 80.340775 -10.663981 65.775124
1940000000 -13.820431 -72.099442 -3.7654164 77.745628 -3.7472174 77.71476 -10.806086 63.705757
1950000000 -14.075936 -74.382263 -3.7273571 75.141647 -3.7090051 75.1138 -10.952422 61.727318
1960000000 -14.346321 -76.739113 -3.6884294 72.563553 -3.6714404 72.522713 -11.098838 59.774059
1970000000 -14.627856 -79.043198 -3.6483324 69.999634 -3.634793 69.957138 -11.249033 57.84943
1980000000 -14.921414 -81.353508 -3.6127071 67.445953 -3.5971589 67.418976 -11.405026 55.928772
1990000000 -15.216369 -83.725708 -3.5767608 64.915543 -3.5619624 64.89473 -11.570761 54.058914
2000000000 -15.533124 -86.143562 -3.5411742 62.385582 -3.5254171 62.392487 -11.739967 52.255131
2010000000 -15.867945 -88.627289 -3.5068257 59.885201 -3.4898572 59.883621 -11.911232 50.499653
2020000000 -16.222916 -91.005745 -3.4699671 57.401131 -3.4562659 57.39328 -12.086251 48.765705
2030000000 -16.58742 -93.337067 -3.4381986 54.915558 -3.4245222 54.917095 -12.266847 47.065342
2040000000 -16.951429 -95.758957 -3.4062877 52.449886 -3.3921733 52.459431 -12.45256 45.413441
2050000000 -17.326532 -98.195778 -3.3762298 50.005032 -3.3607442 50.009457 -12.639942 43.824772
2060000000 -17.724176 -100.72254 -3.3470306 47.570351 -3.3320415 47.57869 -12.828176 42.32893
2070000000 -18.146235 -103.29726 -3.3174736 45.153942 -3.3028293 45.161842 -13.014996 40.873203
2080000000 -18.580004 -105.90819 -3.2904625 42.748947 -3.2758217 42.759861 -13.206886 39.451233
2090000000 -19.036945 -108.63071 -3.2634959 40.359444 -3.2495644 40.373466 -13.39722 38.10379
2100000000 -19.521877 -111.55395 -3.2401295 37.992363 -3.2240021 37.999649 -13.595319 36.830162
2110000000 -20.049931 -114.61388 -3.213943 35.640495 -3.1990502 35.643013 -13.798474 35.643143
2120000000 -20.623367 -117.69449 -3.1896224 33.296612 -3.1761365 33.297581 -13.994954 34.558125
2130000000 -21.230751 -120.81143 -3.1645119 30.966356 -3.1531529 30.968262 -14.194786 33.55138
2140000000 -21.848562 -124.06968 -3.1404383 28.645105 -3.1300833 28.648094 -14.396091 32.576962
2150000000 -22.507259 -127.71387 -3.1202447 26.344706 -3.1082451 26.348454 -14.596364 31.72821
2160000000 -23.219967 -131.7435 -3.0977757 24.058863 -3.0863948 24.058416 -14.797468 30.952755
2170000000 -23.994854 -136.06145 -3.0770757 21.780979 -3.0677648 21.778189 -14.997525 30.270241
2180000000 -24.809 -140.7627 -3.0589747 19.518847 -3.0487652 19.517746 -15.193776 29.716494
2190000000 -25.640207 -146.14157 -3.037231 17.266317 -3.029901 17.274479 -15.385545 29.226011
2200000000 -26.524212 -152.47609 -3.0207193 15.030908 -3.0119298 15.043869 -15.566263 28.816248
2210000000 -27.470604 -159.82066 -3.0009921 12.810329 -2.9937861 12.824028 -15.746288 28.490891
2220000000 -28.453617 -168.20453 -2.9843764 10.597589 -2.976855 10.617406 -15.910522 28.26927
2230000000 -29.379774 -177.72891 -2.9674604 8.3911085 -2.9605131 8.4198275 -16.073296 28.055374
2240000000 -30.145981 171.24358 -2.9522636 6.2021494 -2.943521 6.2304444 -16.224184 27.973383
2250000000 -30.637989 158.51476 -2.9381382 4.0224185 -2.9290884 4.0554652 -16.371096 27.929592
2260000000 -30.809563 144.41803 -2.9238241 1.8605446 -2.9138598 1.8856802 -16.497709 27.99427
2270000000 -30.674992 130.26364 -2.9089415 -0.28897378 -2.901104 -0.26727507 -16.617064 28.082254
2280000000 -30.199099 117.64934 -2.8954439 -2.4333246 -2.8891823 -2.4120708 -16.723978 28.211575
2290000000 -29.483744 106.88808 -2.8833873 -4.567482 -2.8764009 -4.543983 -16.817924 28.405748
2300000000 -28.575916 97.324577 -2.8725476 -6.6834002 -2.8643367 -6.6594787 -16.89599 28.659628
2310000000 -27.612797 89.032982 -2.8609283 -8.7911072 -2.8534575 -8.7656603 -16.957968 28.967546
2320000000 -26.710903 81.70845 -2.8512037 -10.88139 -2.8413253 -10.860545 -16.997532 29.284925
2330000000 -25.907303 75.379616 -2.8380833 -12.964067 -2.8314826 -12.940947 -17.022015 29.603376
2340000000 -25.185463 70.179459 -2.829212 -15.04223 -2.8205795 -15.017189 -17.029415 29.89242
2350000000 -24.466829 65.837593 -2.8198683 -17.108273 -2.812304 -17.077122 -17.026928 30.256529
2360000000 -23.767393 61.967964 -2.8118281 -19.159212 -2.8045704 -19.12928 -17.005468 30.595432
2370000000 -23.103247 58.373516 -2.8053975 -21.195139 -2.7965574 -21.162189 -16.962473 30.931499
2380000000 -22.485765 54.984947 -2.7977908 -23.221188 -2.7892747 -23.186274 -16.895121 31.168917
2390000000 -21.910269 51.892994 -2.789834 -25.236334 -2.7808576 -25.196465 -16.823977 31.337362
2400000000 -21.346958 48.934593 -2.7836509 -27.235897 -2.7730188 -27.189663 -16.744833 31.472782
2410000000 -20.820257 46.016045 -2.7753177 -29.226271 -2.765151 -29.182274 -16.662205 31.594254
2420000000 -20.341993 43.094288 -2.7688241 -31.208418 -2.7579663 -31.165888 -16.560242 31.688992
2430000000 -19.9217 40.306892 -2.760808 -33.184902 -2.7506399 -33.138054 -16.454622 31.743469
2440000000 -19.53261 37.83017 -2.7526493 -35.153301 -2.7438333 -35.110493 -16.332882 31.620371
2450000000 -19.146139 35.53582 -2.7492101 -37.12059 -2.7372663 -37.07019 -16.2171 31.476873
2460000000 -18.754654 33.284443 -2.7452657 -39.070492 -2.7317476 -39.024765 -16.100893 31.23732
2470000000 -18.377668 30.874344 -2.740859 -41.007103 -2.7268577 -40.968899 -15.985841 31.002075
2480000000 -18.042778 28.468607 -2.7332695 -42.935337 -2.7224207 -42.902683 -15.862319 30.689451
2490000000 -17.740833 26.183519 -2.7292855 -44.854187 -2.7181492 -44.824211 -15.728116 30.318701
2500000000 -17.454996 24.034 -2.7269037 -46.772465 -2.7127426 -46.739784 -15.593071 29.897648
2510000000 -17.173265 22.00382 -2.7221639 -48.680569 -2.710408 -48.641106 -15.453087 29.394794
2520000000 -16.90176 19.973351 -2.7196927 -50.57185 -2.7072029 -50.538078 -15.312268 28.797131
2530000000 -16.655743 17.982639 -2.7175343 -52.462219 -2.7033482 -52.426888 -15.174751 28.180111
2540000000 -16.416338 16.145683 -2.7141576 -54.339104 -2.7008941 -54.305691 -15.03414 27.509768
2550000000 -16.167439 14.385982 -2.7132547 -56.214737 -2.7007148 -56.175682 -14.892766 26.817501
2560000000 -15.91173 12.557977 -2.7122219 -58.075966 -2.6982138 -58.03088 -14.75067 26.083725
2570000000 -15.672009 10.612712 -2.7104127 -59.917652 -2.6986113 -59.87899 -14.608606 25.294054
2580000000 -15.460935 8.6249065 -2.7103381 -61.748936 -2.697335 -61.718906 -14.475641 24.493237
2590000000 -15.275296 6.7316442 -2.7065969 -63.584915 -2.6954663 -63.547321 -14.339497 23.664444
2600000000 -15.098794 4.9993324 -2.7043462 -65.412476 -2.6946695 -65.370316 -14.208183 22.823439
2610000000 -14.91601 3.3497975 -2.7054377 -67.232491 -2.6913834 -67.191467 -14.074842 21.969179
2620000000 -14.732735 1.6182408 -2.7055886 -69.042839 -2.6918128 -69.002968 -13.94275 21.053505
2630000000 -14.56342 -0.12103503 -2.7046249 -70.842155 -2.6910708 -70.804565 -13.815365 20.070953
2640000000 -14.405842 -1.8151488 -2.7058344 -72.633972 -2.6911652 -72.595619 -13.697268 19.069983
2650000000 -14.252351 -3.4372072 -2.7045777 -74.418686 -2.6906903 -74.378891 -13.583412 18.0368
2660000000 -14.090169 -5.0730891 -2.7058287 -76.192665 -2.6921284 -76.151329 -13.475591 17.036493
2670000000 -13.931065 -6.7958794 -2.7089627 -77.953072 -2.690721 -77.920334 -13.366774 15.994519
2680000000 -13.792487 -8.5674915 -2.7084286 -79.702072 -2.6919656 -79.678116 -13.253308 14.917146
2690000000 -13.674618 -10.288429 -2.7068622 -81.446861 -2.6907632 -81.425903 -13.142454 13.768513
2700000000 -13.562694 -11.869025 -2.706003 -83.202461 -2.690712 -83.174225 -13.038797 12.577324
2710000000 -13.445107 -13.382322 -2.7076559 -84.954048 -2.6898079 -84.909256 -12.939439 11.372954
2720000000 -13.320469 -14.93914 -2.7094305 -86.684387 -2.6897871 -86.642265 -12.845648 10.207532
2730000000 -13.198296 -16.539169 -2.7112045 -88.404953 -2.690408 -88.370201 -12.755243 9.0528069
2740000000 -13.094884 -18.120575 -2.7122421 -90.111565 -2.6926587 -90.084656 -12.657408 7.8922043
2750000000 -12.988612 -19.664677 -2.713331 -91.820206 -2.695261 -91.783211 -12.562793 6.705265
2760000000 -12.883416 -21.191029 -2.7162201 -93.515121 -2.6955326 -93.471802 -12.470227 5.503057
2770000000 -12.779915 -22.761526 -2.7172468 -95.201149 -2.6953564 -95.156494 -12.391138 4.3062124
2780000000 -12.689466 -24.360929 -2.7159901 -96.877724 -2.6941974 -96.839638 -12.311399 3.1097889
2790000000 -12.61276 -25.956923 -2.7141926 -98.55426 -2.6929581 -98.521477 -12.234324 1.9527696
2800000000 -12.542226 -27.444942 -2.7136137 -100.23352 -2.6920829 -100.19674 -12.158986 0.7596724
2810000000 -12.465112 -28.893623 -2.7144902 -101.91099 -2.6914833 -101.86665 -12.089281 -0.44877669
2820000000 -12.383471 -30.384083 -2.7153792 -103.5851 -2.6925144 -103.5295 -12.024934 -1.6976167
2830000000 -12.302372 -31.913017 -2.7169294 -105.23705 -2.6927738 -105.19678 -11.967239 -2.9159691
2840000000 -12.236182 -33.462521 -2.715898 -106.8791 -2.692909 -106.8485 -11.912047 -4.1291189
2850000000 -12.175397 -34.971317 -2.7161553 -108.52528 -2.6928201 -108.49635 -11.855269 -5.317297
2860000000 -12.113271 -36.451027 -2.7158737 -110.17034 -2.69262 -110.13898 -11.794368 -6.5383396
2870000000 -12.052938 -37.945919 -2.7155864 -111.79725 -2.6915417 -111.77342 -11.734566 -7.8064036
2880000000 -11.994902 -39.479935 -2.7166388 -113.42038 -2.6922247 -113.40468 -11.677309 -9.090148
2890000000 -11.950693 -40.978806 -2.7157328 -115.03635 -2.691268 -115.03853 -11.626624 -10.390945
2900000000 -11.909526 -42.44714 -2.713491 -116.6675 -2.6922174 -116.65937 -11.58104 -11.65414
2910000000 -11.864911 -43.849709 -2.7132905 -118.28761 -2.6913786 -118.28381 -11.534578 -12.903381
2920000000 -11.818062 -45.280392 -2.7136517 -119.90658 -2.6927314 -119.89386 -11.490616 -14.135497
2930000000 -11.776053 -46.751087 -2.7133861 -121.50953 -2.6908605 -121.49773 -11.444314 -15.351521
2940000000 -11.741293 -48.216747 -2.71158 -123.11046 -2.6910954 -123.09594 -11.401326 -16.56938
2950000000 -11.705291 -49.653774 -2.7119851 -124.71363 -2.6906419 -124.69186 -11.357742 -17.80052
2960000000 -11.671638 -51.086212 -2.7127464 -126.30267 -2.6900914 -126.28341 -11.322781 -19.007175
2970000000 -11.644028 -52.560112 -2.7139828 -127.88491 -2.6889822 -127.86442 -11.287509 -20.213625
2980000000 -11.623883 -54.076977 -2.7110984 -129.45569 -2.6868775 -129.44691 -11.258493 -21.396038
2990000000 -11.616991 -55.532135 -2.7088819 -131.03044 -2.6862073 -131.03036 -11.232784 -22.600267
3000000000 -11.609373 -56.904255 -2.7061021 -132.60846 -2.6865945 -132.60941 -11.207022 -23.811403
3010000000 -11.592291 -58.251522 -2.7048025 -134.1925 -2.6859086 -134.16933 -11.187772 -25.028791
3020000000 -11.566483 -59.640186 -2.7047651 -135.76595 -2.6846766 -135.73508 -11.17229 -26.245554
3030000000 -11.546409 -61.113403 -2.7063832 -137.32028 -2.6831806 -137.29657 -11.158632 -27.454556
3040000000 -11.543395 -62.605057 -2.7055233 -138.85799 -2.6802104 -138.85632 -11.145275 -28.655611
