!Agilent Technologies,N5224A,MY51441093,A.09.90.21
!Agilent N5224A: A.09.90.21
!Date: Wednesday, October 01, 2025 16:38:31
!Correction: S11(Full 2 Port(1,2)) 
!S21(Full 2 Port(1,2)) 
!S12(Full 2 Port(1,2)) 
!S22(Full 2 Port(1,2)) 
!S2P File: Measurements: S11, S21, S12, S22:
# Hz S  dB   R 50
1000000000 -1.6995114 148.42534 -25.10111 20.619684 -25.07646 20.600506 -3.9227219 176.62502
1010000000 -1.7453357 145.91537 -24.358807 16.472834 -24.339674 16.452324 -4.2273769 173.99458
1020000000 -1.7932158 143.38969 -23.623905 12.212127 -23.597553 12.194917 -4.5655165 171.38107
1030000000 -1.8396192 140.84969 -22.902252 7.8362131 -22.869543 7.8086061 -4.9439406 168.81149
1040000000 -1.8931872 138.30118 -22.183723 3.3554049 -22.155445 3.2800491 -5.3670468 166.31795
1050000000 -1.9475453 135.75441 -21.477427 -1.2199631 -21.454115 -1.3352823 -5.8369169 163.95038
1060000000 -2.0024872 133.19919 -20.780535 -5.9435186 -20.761738 -6.0507407 -6.3609629 161.77681
1070000000 -2.0633557 130.64558 -20.101923 -10.752977 -20.086723 -10.860131 -6.9438739 159.87292
1080000000 -2.1246696 128.09126 -19.439863 -15.689051 -19.422979 -15.787381 -7.5896468 158.33502
1090000000 -2.1889818 125.53645 -18.794649 -20.711742 -18.779047 -20.82099 -8.3006611 157.29932
1100000000 -2.2562013 122.97748 -18.170668 -25.885277 -18.158487 -25.975204 -9.0771027 156.9586
1110000000 -2.3255281 120.43328 -17.56889 -31.121584 -17.56249 -31.231802 -9.9022188 157.53944
1120000000 -2.3977113 117.88969 -16.993668 -36.44561 -16.991676 -36.547989 -10.752424 159.31888
1130000000 -2.4724426 115.36082 -16.4505 -41.84333 -16.444616 -41.917683 -11.571444 162.57387
1140000000 -2.5504029 112.84846 -15.934306 -47.271755 -15.928432 -47.344723 -12.2694 167.42484
1150000000 -2.6275218 110.35459 -15.447289 -52.7355 -15.438323 -52.799904 -12.734752 173.68611
1160000000 -2.7058938 107.87131 -14.98773 -58.202435 -14.981701 -58.273312 -12.872396 -179.32204
1170000000 -2.7847412 105.40979 -14.562556 -63.658607 -14.554997 -63.730766 -12.654802 -172.58231
1180000000 -2.8626726 102.96306 -14.162269 -69.082466 -14.156278 -69.154129 -12.151801 -166.97272
1190000000 -2.9394515 100.52323 -13.790575 -74.462326 -13.782291 -74.513344 -11.473061 -162.91858
1200000000 -3.0136886 98.090218 -13.44533 -79.773354 -13.434667 -79.822174 -10.720732 -160.44267
1210000000 -3.0871572 95.66375 -13.122995 -85.008423 -13.112282 -85.085289 -9.9675388 -159.30386
1220000000 -3.156786 93.23513 -12.823847 -90.173309 -12.814496 -90.264206 -9.2506618 -159.2253
1230000000 -3.2253335 90.807968 -12.546317 -95.251488 -12.540745 -95.324951 -8.5938263 -159.96355
1240000000 -3.2901862 88.367088 -12.288767 -100.231 -12.28189 -100.29325 -7.9990845 -161.30948
1250000000 -3.3568377 85.926216 -12.048459 -105.0909 -12.041172 -105.14901 -7.469027 -163.10385
1260000000 -3.4213281 83.470589 -11.821742 -109.84737 -11.81367 -109.90536 -6.9980197 -165.21523
1270000000 -3.4823709 81.001137 -11.606393 -114.5051 -11.600201 -114.56261 -6.5827827 -167.56929
1280000000 -3.5447514 78.523804 -11.406007 -119.04186 -11.396832 -119.10101 -6.216444 -170.0881
1290000000 -3.6053481 76.018044 -11.211438 -123.47896 -11.20395 -123.54305 -5.89469 -172.73549
1300000000 -3.6637671 73.498352 -11.023882 -127.81609 -11.016883 -127.8866 -5.6134896 -175.48091
1310000000 -3.7269294 70.964249 -10.843372 -132.07523 -10.837703 -132.1418 -5.3693519 -178.28465
1320000000 -3.7888691 68.423393 -10.669039 -136.2513 -10.663552 -136.30998 -5.1549754 178.87918
1330000000 -3.8506966 65.854477 -10.504435 -140.34622 -10.498099 -140.39459 -4.9710183 176.02409
1340000000 -3.9108138 63.273376 -10.344901 -144.33656 -10.335972 -144.38062 -4.8130198 173.15614
1350000000 -3.9751825 60.663017 -10.184538 -148.2211 -10.175713 -148.2868 -4.6770358 170.29507
1360000000 -4.041328 58.046658 -10.024426 -152.0461 -10.016488 -152.11499 -4.5612254 167.44356
1370000000 -4.1096864 55.413475 -9.86446 -155.83139 -9.8607197 -155.88959 -4.4627533 164.59865
1380000000 -4.1773987 52.769085 -9.7109642 -159.55852 -9.704833 -159.60178 -4.3791652 161.76047
1390000000 -4.247479 50.101521 -9.5604973 -163.22719 -9.552803 -163.26291 -4.3127108 158.93427
1400000000 -4.3194432 47.410313 -9.4107933 -166.81938 -9.4027348 -166.86411 -4.2610664 156.12708
1410000000 -4.3962317 44.699875 -9.2592535 -170.35878 -9.2490396 -170.4183 -4.2211585 153.33331
1420000000 -4.4755373 41.976612 -9.1086254 -173.87474 -9.1008139 -173.93193 -4.1943464 150.57359
1430000000 -4.5594187 39.252468 -8.9614658 -177.34782 -8.9527941 -177.39697 -4.1770396 147.83847
1440000000 -4.6416769 36.507477 -8.8144312 179.22179 -8.8067474 179.18153 -4.1701546 145.12321
1450000000 -4.7309852 33.747761 -8.6683531 175.83948 -8.6598301 175.80121 -4.1692061 142.41805
1460000000 -4.8209801 30.978918 -8.5209999 172.49484 -8.5128479 172.45514 -4.1808786 139.72554
1470000000 -4.9164619 28.195282 -8.3741379 169.17491 -8.3646317 169.12323 -4.1984811 137.04663
1480000000 -5.013577 25.407846 -8.2300081 165.87152 -8.2211504 165.82027 -4.2245083 134.38052
1490000000 -5.1117706 22.600681 -8.0861034 162.60109 -8.0787563 162.55345 -4.2601128 131.72354
1500000000 -5.2161932 19.767736 -7.943243 159.36047 -7.9370165 159.31096 -4.2997885 129.08302
1510000000 -5.3226357 16.918676 -7.800312 156.13831 -7.7968574 156.09206 -4.3497262 126.45651
1520000000 -5.4333353 14.069827 -7.6605701 152.93579 -7.655129 152.8999 -4.4048848 123.85986
1530000000 -5.5477862 11.199526 -7.5239439 149.75597 -7.5170317 149.72322 -4.4665999 121.2827
1540000000 -5.6682959 8.3163137 -7.3863101 146.61623 -7.3802032 146.57158 -4.5309081 118.7251
1550000000 -5.794632 5.4229507 -7.2494426 143.49611 -7.2426777 143.44347 -4.5993462 116.17542
1560000000 -5.9247565 2.5243208 -7.1106277 140.37036 -7.1064835 140.33101 -4.675528 113.644
1570000000 -6.0599113 -0.37052751 -6.974577 137.24632 -6.9693031 137.21429 -4.7563415 111.11968
1580000000 -6.1962852 -3.278336 -6.841475 134.13734 -6.8347759 134.11255 -4.8432927 108.62449
1590000000 -6.340107 -6.2050519 -6.7160196 131.05276 -6.7071772 131.01727 -4.9381404 106.14899
1600000000 -6.4903927 -9.1542015 -6.5879259 127.99661 -6.5808306 127.94846 -5.0347209 103.69236
1610000000 -6.6458173 -12.120116 -6.4617033 124.94286 -6.4561415 124.90305 -5.1412649 101.25266
1620000000 -6.8077288 -15.077846 -6.3380036 121.9 -6.3304181 121.87085 -5.2524137 98.842377
1630000000 -6.9724741 -18.063639 -6.2161603 118.87257 -6.2060642 118.84909 -5.3668537 96.472893
1640000000 -7.1500239 -21.068382 -6.0976958 115.86948 -6.0866838 115.83237 -5.4876189 94.115166
1650000000 -7.3328524 -24.082504 -5.9779577 112.87395 -5.969543 112.82844 -5.6116595 91.770966
1660000000 -7.5239983 -27.090782 -5.860992 109.87677 -5.8541074 109.84589 -5.7403193 89.436089
1670000000 -7.7166996 -30.101641 -5.7475314 106.88451 -5.7391009 106.86626 -5.8752217 87.128998
1680000000 -7.9149628 -33.131306 -5.6374979 103.90102 -5.6268935 103.89201 -6.0146327 84.843086
1690000000 -8.1212835 -36.199295 -5.5327363 100.945 -5.5190368 100.92257 -6.1603322 82.601349
1700000000 -8.3391705 -39.293728 -5.4275575 98.01622 -5.4134426 97.9701 -6.308394 80.388268
1710000000 -8.5661869 -42.378517 -5.3249917 95.087425 -5.3134904 95.040924 -6.4619193 78.191658
1720000000 -8.8010397 -45.461353 -5.2223892 92.160652 -5.2155986 92.13163 -6.6198215 76.04155
1730000000 -9.0395536 -48.567024 -5.125927 89.231262 -5.1174688 89.229233 -6.7811828 73.916451
1740000000 -9.2865391 -51.73769 -5.0327911 86.343636 -5.0197225 86.342186 -6.9466658 71.853615
1750000000 -9.5465107 -54.940956 -4.9419312 83.466545 -4.9262443 83.45858 -7.1149144 69.829315
1760000000 -9.8196859 -58.149376 -4.8509016 80.600281 -4.8348894 80.578102 -7.2867217 67.830406
1770000000 -10.103774 -61.357658 -4.7624259 77.74041 -4.7488217 77.710854 -7.4623618 65.872513
1780000000 -10.39077 -64.594345 -4.6779823 74.880989 -4.6656284 74.855087 -7.6429648 63.960297
1790000000 -10.685879 -67.883018 -4.5993681 72.035515 -4.5859489 72.024216 -7.8266401 62.097034
1800000000 -10.995076 -71.247459 -4.5221119 69.225639 -4.5052576 69.203682 -8.0131121 60.274513
1810000000 -11.317372 -74.656044 -4.4464865 66.424553 -4.4308953 66.402771 -8.2050772 58.505051
1820000000 -11.650708 -78.080254 -4.3719726 63.633808 -4.3562813 63.608994 -8.3976049 56.791489
1830000000 -11.993005 -81.550476 -4.3009582 60.852848 -4.2832451 60.834377 -8.5871954 55.124645
1840000000 -12.347181 -85.091225 -4.2335815 58.084511 -4.214365 58.057858 -8.7805405 53.521698
1850000000 -12.713191 -88.687546 -4.1677289 55.336231 -4.1493235 55.303078 -8.9744949 51.94342
1860000000 -13.091095 -92.346283 -4.1033788 52.594002 -4.0870218 52.559296 -9.1714964 50.416
1870000000 -13.476933 -96.086784 -4.0443978 49.861702 -4.0261178 49.840168 -9.3698854 48.970116
1880000000 -13.868505 -99.929489 -3.9870269 47.154568 -3.9695432 47.132256 -9.5648909 47.612686
1890000000 -14.275838 -103.94144 -3.9330981 44.467247 -3.9143147 44.446072 -9.7596769 46.314312
1900000000 -14.707392 -108.09487 -3.8812892 41.80669 -3.8626051 41.773327 -9.949441 45.069927
1910000000 -15.15785 -112.31617 -3.8287995 39.159485 -3.8113186 39.122948 -10.139933 43.867863
1920000000 -15.617224 -116.65076 -3.779062 36.51936 -3.7616911 36.486164 -10.330977 42.749126
1930000000 -16.07793 -121.11334 -3.733494 33.886402 -3.7149634 33.857559 -10.523051 41.711674
1940000000 -16.536646 -125.83098 -3.6902182 31.270071 -3.6714537 31.23769 -10.708906 40.761673
1950000000 -17.007326 -130.88951 -3.649466 28.67807 -3.6305554 28.644545 -10.887636 39.886917
1960000000 -17.490139 -136.18755 -3.6102257 26.111423 -3.5920982 26.072947 -11.059261 39.031231
1970000000 -17.973408 -141.71812 -3.5714974 23.554632 -3.5546391 23.518246 -11.227245 38.230381
1980000000 -18.443417 -147.54984 -3.5336187 21.01198 -3.5180449 20.986963 -11.394382 37.484089
1990000000 -18.890324 -153.77461 -3.5001922 18.492895 -3.4834082 18.469833 -11.554257 36.816086
2000000000 -19.323479 -160.40469 -3.4677455 15.970989 -3.4525073 15.974981 -11.702064 36.199749
2010000000 -19.731564 -167.33948 -3.4352472 13.48116 -3.4204378 13.474195 -11.837825 35.604855
2020000000 -20.105247 -174.43239 -3.4064486 11.000076 -3.3924644 10.998339 -11.966473 35.034576
2030000000 -20.408001 178.26157 -3.37972 8.5286427 -3.3653073 8.5353251 -12.089884 34.508621
2040000000 -20.621626 170.72398 -3.3540339 6.0814981 -3.3396719 6.0876698 -12.203936 34.049187
2050000000 -20.760073 162.98257 -3.3309383 3.6488459 -3.3161044 3.6535668 -12.303168 33.59156
2060000000 -20.822996 155.15581 -3.3087468 1.2351871 -3.2961209 1.2433871 -12.387378 33.16782
2070000000 -20.818045 147.43523 -3.2896364 -1.1596551 -3.2763801 -1.1518809 -12.46258 32.742912
2080000000 -20.725138 139.92424 -3.2704532 -3.5419774 -3.2563446 -3.5293727 -12.530184 32.321896
2090000000 -20.554436 132.63333 -3.2531075 -5.9054961 -3.2396839 -5.8878198 -12.586481 31.936842
2100000000 -20.326965 125.53117 -3.2381554 -8.2391958 -3.2246218 -8.2325897 -12.634854 31.5812
2110000000 -20.057499 118.77513 -3.2231159 -10.558643 -3.2093883 -10.551415 -12.671673 31.233534
2120000000 -19.771671 112.43298 -3.2079928 -12.863573 -3.1960473 -12.861572 -12.692384 30.859655
2130000000 -19.461721 106.57595 -3.1940429 -15.156622 -3.1816812 -15.152006 -12.705498 30.4711
2140000000 -19.12048 101.1471 -3.1818707 -17.437864 -3.1706069 -17.434278 -12.715217 30.079245
2150000000 -18.755917 95.992676 -3.1718705 -19.697348 -3.1600211 -19.69314 -12.713319 29.665031
2160000000 -18.38928 91.111618 -3.1606357 -21.938156 -3.1486778 -21.937906 -12.701643 29.246498
2170000000 -18.038696 86.510124 -3.1511424 -24.166124 -3.1411667 -24.170399 -12.683067 28.782179
2180000000 -17.687927 82.224365 -3.1429086 -26.380877 -3.1337657 -26.382191 -12.658436 28.30361
2190000000 -17.341438 78.173439 -3.1349013 -28.581268 -3.1254034 -28.575083 -12.627819 27.775324
2200000000 -16.99999 74.272354 -3.1292129 -30.758083 -3.1204407 -30.751158 -12.591671 27.205166
2210000000 -16.682997 70.511238 -3.1216543 -32.922047 -3.1133797 -32.914837 -12.550086 26.614161
2220000000 -16.38674 66.960457 -3.1136501 -35.075424 -3.1085112 -35.057503 -12.501719 25.962526
2230000000 -16.103037 63.622974 -3.108638 -37.225285 -3.1026289 -37.194183 -12.45215 25.292393
2240000000 -15.822885 60.480343 -3.1040673 -39.353703 -3.0962858 -39.322163 -12.395496 24.591318
2250000000 -15.544029 57.398888 -3.1019862 -41.473289 -3.0913179 -41.438347 -12.336893 23.846199
2260000000 -15.274552 54.364388 -3.0980759 -43.569775 -3.0892012 -43.541115 -12.275852 23.037073
2270000000 -15.026103 51.394459 -3.0931723 -45.649712 -3.0874832 -45.628601 -12.215111 22.215944
2280000000 -14.792186 48.61343 -3.090368 -47.728447 -3.0846484 -47.709938 -12.154113 21.348843
2290000000 -14.559283 45.944046 -3.0892792 -49.793488 -3.0841534 -49.770416 -12.09135 20.448681
2300000000 -14.324307 43.247089 -3.0881319 -51.841709 -3.0810344 -51.810501 -12.023437 19.530334
2310000000 -14.099463 40.570148 -3.088474 -53.870937 -3.0816278 -53.844982 -11.958338 18.579142
2320000000 -13.904428 37.920891 -3.0874486 -55.881626 -3.080178 -55.865089 -11.890748 17.592617
2330000000 -13.728105 35.403645 -3.0852487 -57.886532 -3.0777075 -57.867134 -11.821996 16.569777
2340000000 -13.558737 33.059708 -3.0840626 -59.890003 -3.0759103 -59.864136 -11.754908 15.525393
2350000000 -13.384537 30.762922 -3.0844455 -61.877872 -3.0774302 -61.850975 -11.683374 14.483212
2360000000 -13.211652 28.490736 -3.0850699 -63.847298 -3.0761104 -63.820946 -11.615046 13.388054
2370000000 -13.049472 26.242495 -3.0853808 -65.803772 -3.077466 -65.776222 -11.54675 12.281474
2380000000 -12.895237 24.048294 -3.0851851 -67.748611 -3.0773435 -67.71357 -11.482015 11.131387
2390000000 -12.74239 21.909426 -3.0858994 -69.688629 -3.0767903 -69.645508 -11.418081 9.9662104
2400000000 -12.594732 19.774242 -3.0869851 -71.609566 -3.0760026 -71.562813 -11.357439 8.8161364
2410000000 -12.454635 17.618984 -3.0867593 -73.515419 -3.0751288 -73.478088 -11.295609 7.6587887
2420000000 -12.330634 15.50895 -3.0872707 -75.415054 -3.0759275 -75.382454 -11.231666 6.4548988
2430000000 -12.213932 13.469223 -3.085726 -77.311066 -3.074894 -77.274948 -11.170712 5.2421484
2440000000 -12.095265 11.526735 -3.0848589 -79.204834 -3.0755804 -79.160149 -11.113934 3.9644821
2450000000 -11.972904 9.5677481 -3.0872862 -81.082787 -3.0741868 -81.035194 -11.064006 2.6830156
2460000000 -11.852383 7.5695066 -3.0896509 -82.948608 -3.0743117 -82.904015 -11.01677 1.3960265
2470000000 -11.746648 5.5143881 -3.0893257 -84.801498 -3.0739648 -84.764328 -10.971228 0.13446397
2480000000 -11.657371 3.5522373 -3.087781 -86.642311 -3.0750921 -86.616402 -10.925427 -1.1732042
2490000000 -11.572781 1.6720653 -3.0866594 -88.485909 -3.0737379 -88.450821 -10.875769 -2.5061378
2500000000 -11.488678 -0.16940193 -3.0870872 -90.322884 -3.0720744 -90.291222 -10.826624 -3.8545229
2510000000 -11.401651 -1.9852039 -3.0867624 -92.147293 -3.0733967 -92.113052 -10.783972 -5.227509
2520000000 -11.322255 -3.7760069 -3.0871506 -93.962723 -3.0725634 -93.934273 -10.741914 -6.6186209
2530000000 -11.244712 -5.5195327 -3.087338 -95.780327 -3.0731876 -95.748573 -10.701936 -7.9916296
2540000000 -11.167069 -7.2357845 -3.0871208 -97.586624 -3.0745311 -97.548676 -10.665205 -9.3823681
2550000000 -11.083122 -8.968586 -3.0902164 -99.383621 -3.0766723 -99.33989 -10.630504 -10.76327
2560000000 -11.005475 -10.764925 -3.0914235 -101.15666 -3.0775418 -101.11234 -10.596374 -12.138186
2570000000 -10.943784 -12.576559 -3.0909986 -102.91315 -3.0769277 -102.87867 -10.563807 -13.521523
2580000000 -10.895314 -14.309088 -3.0890923 -104.6764 -3.0747945 -104.64796 -10.537053 -14.888
2590000000 -10.850282 -15.957789 -3.0868387 -106.44811 -3.0741823 -106.40786 -10.509408 -16.259201
2600000000 -10.797711 -17.553883 -3.0840878 -108.2121 -3.0723467 -108.1663 -10.485653 -17.632669
2610000000 -10.744654 -19.174034 -3.0864835 -109.96278 -3.0709105 -109.92171 -10.463121 -19.017376
2620000000 -10.696514 -20.833393 -3.0865536 -111.70325 -3.0715206 -111.66811 -10.444002 -20.437632
2630000000 -10.654699 -22.456148 -3.0834298 -113.44118 -3.0702829 -113.40578 -10.429229 -21.876331
2640000000 -10.61624 -24.036964 -3.0834129 -115.17431 -3.0703254 -115.12984 -10.422019 -23.289234
2650000000 -10.577225 -25.6015 -3.0838556 -116.89516 -3.0692189 -116.85118 -10.416043 -24.704575
2660000000 -10.537296 -27.210941 -3.0848835 -118.61283 -3.0686345 -118.56499 -10.407483 -26.105831
2670000000 -10.506304 -28.834221 -3.085192 -120.30277 -3.0656924 -120.27804 -10.399899 -27.521027
2680000000 -10.487423 -30.411343 -3.082376 -121.99528 -3.0658572 -121.97982 -10.391022 -28.983549
2690000000 -10.472323 -31.924797 -3.0778458 -123.69482 -3.0634902 -123.67336 -10.384624 -30.461531
2700000000 -10.448914 -33.382248 -3.0750749 -125.4038 -3.0597348 -125.36559 -10.386397 -31.949528
2710000000 -10.421119 -34.854324 -3.0749927 -127.10083 -3.0568123 -127.0575 -10.391724 -33.422459
2720000000 -10.395058 -36.381268 -3.0732038 -128.77986 -3.0542638 -128.74428 -10.397191 -34.837891
2730000000 -10.38185 -37.905521 -3.0730751 -130.45039 -3.0513659 -130.42371 -10.404447 -36.240051
2740000000 -10.37279 -39.390141 -3.0700681 -132.11803 -3.0507612 -132.08902 -10.409647 -37.649033
2750000000 -10.359889 -40.861416 -3.0669737 -133.77939 -3.048394 -133.75148 -10.417413 -39.082954
2760000000 -10.351086 -42.328236 -3.0658813 -135.44138 -3.0444109 -135.39587 -10.427401 -40.505344
2770000000 -10.34765 -43.826862 -3.0634811 -137.0876 -3.0399742 -137.04965 -10.447207 -41.908699
2780000000 -10.35501 -45.290825 -3.0578711 -138.73619 -3.0355642 -138.70259 -10.466105 -43.308025
2790000000 -10.366288 -46.683041 -3.0514431 -140.38835 -3.030688 -140.3589 -10.485651 -44.699894
2800000000 -10.372415 -48.043579 -3.0485818 -142.04416 -3.0271027 -142.0049 -10.509815 -46.11227
2810000000 -10.371442 -49.42009 -3.0458972 -143.69527 -3.0240803 -143.64816 -10.539672 -47.558605
2820000000 -10.374126 -50.844666 -3.0427387 -145.33443 -3.0200613 -145.28041 -10.572703 -49.009254
2830000000 -10.383676 -52.280838 -3.0399368 -146.95598 -3.0159729 -146.91879 -10.609106 -50.425697
2840000000 -10.401335 -53.681133 -3.0337133 -148.57928 -3.0104337 -148.54265 -10.644958 -51.836586
2850000000 -10.418562 -55.039726 -3.0291882 -150.20311 -3.0054057 -150.17276 -10.678888 -53.235737
2860000000 -10.434359 -56.400524 -3.025342 -151.82021 -3.0001843 -151.79393 -10.709989 -54.677395
2870000000 -10.452807 -57.780212 -3.0195034 -153.43179 -2.9942548 -153.41454 -10.746812 -56.142296
2880000000 -10.47987 -59.149849 -3.01424 -155.04413 -2.9904826 -155.03265 -10.788441 -57.612995
2890000000 -10.511525 -60.462528 -3.0081713 -156.65869 -2.9839609 -156.65616 -10.833463 -59.068207
2900000000 -10.539247 -61.753345 -3.0008371 -158.27919 -2.9780495 -158.27075 -10.882836 -60.489719
2910000000 -10.565826 -63.046459 -2.9955821 -159.89186 -2.9753497 -159.8846 -10.932564 -61.879501
2920000000 -10.590613 -64.377686 -2.9894376 -161.50061 -2.9691567 -161.49185 -10.983742 -63.25676
2930000000 -10.628706 -65.689972 -2.9844155 -163.10341 -2.961998 -163.09483 -11.036991 -64.641251
2940000000 -10.668725 -66.997475 -2.9770291 -164.7072 -2.9559629 -164.6911 -11.095523 -66.012329
2950000000 -10.705939 -68.286736 -2.9713185 -166.30647 -2.9493799 -166.28615 -11.153322 -67.411713
2960000000 -10.750284 -69.579292 -2.9665003 -167.9026 -2.9425855 -167.88544 -11.221829 -68.791878
2970000000 -10.799711 -70.879318 -2.9606478 -169.49161 -2.9358814 -169.47643 -11.291813 -70.162521
2980000000 -10.858371 -72.147873 -2.9506142 -171.07591 -2.928262 -171.0721 -11.36544 -71.526726
2990000000 -10.91839 -73.343407 -2.9440439 -172.67102 -2.9214749 -172.66719 -11.444506 -72.908844
3000000000 -10.968033 -74.497978 -2.9355578 -174.27042 -2.9154069 -174.25879 -11.52431 -74.31778
3010000000 -11.014098 -75.703102 -2.9300761 -175.86322 -2.910533 -175.83881 -11.612462 -75.729645
3020000000 -11.063951 -76.986992 -2.9242177 -177.44995 -2.9027059 -177.42413 -11.702909 -77.138725
3030000000 -11.129943 -78.264488 -2.919508 -179.01761 -2.895395 -179.00844 -11.794545 -78.526733
