!Agilent Technologies,N5224A,MY51441093,A.09.90.21
!Agilent N5224A: A.09.90.21
!Date: Wednesday, October 01, 2025 16:38:44
!Correction: S11(Full 2 Port(1,2)) 
!S21(Full 2 Port(1,2)) 
!S12(Full 2 Port(1,2)) 
!S22(Full 2 Port(1,2)) 
!S2P File: Measurements: S11, S21, S12, S22:
# Hz S  dB   R 50
1000000000 -1.7735606 148.15216 -24.013891 6.80057 -23.987385 6.7792764 -4.3695378 177.41383
1010000000 -1.8310349 145.64464 -23.160809 1.932116 -23.139853 1.8907738 -4.7478118 175.33128
1020000000 -1.8914121 143.12637 -22.330524 -3.1319356 -22.301765 -3.1504457 -5.1669488 173.44937
1030000000 -1.9521124 140.60855 -21.518589 -8.3555136 -21.485697 -8.4146833 -5.6276932 171.85333
1040000000 -2.0199344 138.09171 -20.724329 -13.723418 -20.693331 -13.80959 -6.1302342 170.65633
1050000000 -2.0907769 135.59367 -19.956144 -19.270412 -19.929405 -19.381119 -6.6632133 169.96504
1060000000 -2.1648729 133.11153 -19.217735 -24.995613 -19.193722 -25.109634 -7.2136326 169.93341
1070000000 -2.2396116 130.64989 -18.511509 -30.843575 -18.494345 -30.957516 -7.7570481 170.67821
1080000000 -2.3144255 128.20963 -17.841406 -36.824699 -17.828581 -36.922764 -8.257803 172.27844
1090000000 -2.3920076 125.79826 -17.214115 -42.878174 -17.199966 -42.986984 -8.6664915 174.71564
1100000000 -2.4687808 123.40514 -16.62686 -49.008366 -16.616125 -49.127613 -8.9320831 177.80751
1110000000 -2.545593 121.0384 -16.081383 -55.179966 -16.076078 -55.301285 -9.0176735 -178.78284
1120000000 -2.6196377 118.68465 -15.582737 -61.357933 -15.577435 -61.464218 -8.9164276 -175.50406
1130000000 -2.692075 116.35043 -15.129205 -67.509109 -15.1235 -67.590294 -8.6558733 -172.7571
1140000000 -2.762049 114.02967 -14.717222 -73.564392 -14.710262 -73.635162 -8.2782326 -170.79985
1150000000 -2.8280611 111.72362 -14.343194 -79.532379 -14.335554 -79.594978 -7.8333926 -169.7364
1160000000 -2.8896673 109.40425 -14.003514 -85.366646 -13.996168 -85.445305 -7.3670363 -169.50098
1170000000 -2.9480419 107.0854 -13.6961 -91.065994 -13.689993 -91.137978 -6.9064255 -170.00127
1180000000 -3.0032015 104.7526 -13.414544 -96.618065 -13.409153 -96.677467 -6.4721713 -171.08835
1190000000 -3.0554757 102.40611 -13.158769 -101.99165 -13.148684 -102.04765 -6.0733724 -172.65839
1200000000 -3.1051295 100.0367 -12.920119 -107.21614 -12.90883 -107.27335 -5.7150912 -174.60092
1210000000 -3.1539829 97.644279 -12.698236 -112.28704 -12.685403 -112.35947 -5.3991165 -176.81464
1220000000 -3.1996925 95.230301 -12.489162 -117.20263 -12.478091 -117.28569 -5.1215305 -179.23338
1230000000 -3.2448092 92.791077 -12.290203 -121.98039 -12.283762 -122.05311 -4.8820643 178.19106
1240000000 -3.2905133 90.328072 -12.102972 -126.60641 -12.096365 -126.67677 -4.6775532 175.51808
1250000000 -3.3373175 87.839493 -11.922661 -131.10065 -11.91666 -131.1644 -4.5043216 172.77148
1260000000 -3.3840768 85.327171 -11.74558 -135.47414 -11.738249 -135.52441 -4.3562179 169.98489
1270000000 -3.4327257 82.796906 -11.574869 -139.72606 -11.56415 -139.78421 -4.2327662 167.15938
1280000000 -3.4830127 80.245056 -11.404813 -143.86543 -11.395625 -143.93068 -4.1316333 164.31503
1290000000 -3.533874 77.668083 -11.235753 -147.90796 -11.225872 -147.98454 -4.0473852 161.45122
1300000000 -3.5868435 75.077202 -11.065539 -151.87175 -11.057725 -151.94208 -3.9836099 158.5695
1310000000 -3.6416137 72.472977 -10.897804 -155.76607 -10.891307 -155.82539 -3.9360092 155.69373
1320000000 -3.6997006 69.854591 -10.732712 -159.59865 -10.726241 -159.64554 -3.901264 152.82269
1330000000 -3.7583389 67.211761 -10.570425 -163.3365 -10.564303 -163.38087 -3.8827939 149.96222
1340000000 -3.8201404 64.557907 -10.410494 -166.99055 -10.399947 -167.04802 -3.8735032 147.10896
1350000000 -3.8865023 61.876507 -10.242998 -170.58282 -10.235415 -170.65442 -3.8747175 144.27034
1360000000 -3.9543869 59.202522 -10.074629 -174.13524 -10.068089 -174.19957 -3.8856537 141.4418
1370000000 -4.0258079 56.510986 -9.9057379 -177.66571 -9.8998003 -177.72169 -3.9040482 138.61809
1380000000 -4.0985451 53.815613 -9.7413778 178.84204 -9.7338209 178.80296 -3.9331982 135.79631
1390000000 -4.1719441 51.09507 -9.5772352 175.40271 -9.5693378 175.35966 -3.9702687 132.9841
1400000000 -4.2512012 48.359089 -9.4117136 172.02068 -9.4020653 171.96471 -4.0150356 130.17267
1410000000 -4.333868 45.604343 -9.2421322 168.65776 -9.2356949 168.60022 -4.0701904 127.38387
1420000000 -4.4222565 42.838631 -9.0766315 165.30798 -9.0687332 165.25291 -4.1294465 124.60967
1430000000 -4.5127358 40.074715 -8.9109564 161.97903 -8.9031792 161.93475 -4.1969848 121.84602
1440000000 -4.6087399 37.290585 -8.7480993 158.69246 -8.7379141 158.64845 -4.2690434 119.09599
1450000000 -4.7082882 34.498779 -8.5834045 155.42905 -8.5738602 155.38553 -4.348289 116.33883
1460000000 -4.8122973 31.706774 -8.4172459 152.18211 -8.411006 152.13698 -4.4344344 113.5803
1470000000 -4.9207706 28.916344 -8.2538967 148.94977 -8.2454147 148.89285 -4.5259056 110.82531
1480000000 -5.03194 26.118937 -8.0931845 145.72238 -8.0842037 145.66635 -4.6236539 108.07262
1490000000 -5.1437292 23.303856 -7.9344416 142.52298 -7.9255414 142.47235 -4.7275009 105.32849
1500000000 -5.2626615 20.460085 -7.7761054 139.34132 -7.7698927 139.29054 -4.8383784 102.59264
1510000000 -5.3860545 17.616453 -7.6165533 136.17653 -7.6136518 136.12991 -4.9568181 99.86277
1520000000 -5.5166259 14.767049 -7.4626455 133.01576 -7.4572439 132.98428 -5.0799847 97.162407
1530000000 -5.6510439 11.911697 -7.3100367 129.87964 -7.3034773 129.83563 -5.2076421 94.461014
1540000000 -5.7921915 9.0528564 -7.1582427 126.75897 -7.1500664 126.70676 -5.3368802 91.776733
1550000000 -5.9405894 6.1975975 -7.0077105 123.6407 -7.0015612 123.58952 -5.4753351 89.090614
1560000000 -6.0920687 3.3501835 -6.857173 120.51904 -6.8526149 120.47928 -5.6195121 86.414391
1570000000 -6.2478375 0.5053792 -6.7105227 117.39232 -6.7043839 117.36839 -5.7688842 83.754379
1580000000 -6.4071469 -2.3481095 -6.5677114 114.28513 -6.5601101 114.25851 -5.925961 81.117088
1590000000 -6.5746212 -5.2270284 -6.4311495 111.19539 -6.4224653 111.15975 -6.0910726 78.496643
1600000000 -6.7509103 -8.1101961 -6.2931457 108.12753 -6.2870512 108.08147 -6.260932 75.895035
1610000000 -6.9327121 -10.990983 -6.1587319 105.05767 -6.1523771 105.01848 -6.4390998 73.300476
1620000000 -7.1214108 -13.869903 -6.0269971 101.99605 -6.0202212 101.96852 -6.6242085 70.74099
1630000000 -7.3179684 -16.76713 -5.8989253 98.940407 -5.8893433 98.915428 -6.8154764 68.216949
1640000000 -7.5262632 -19.663258 -5.7727103 95.908852 -5.7629786 95.868294 -7.0115018 65.703583
1650000000 -7.7423043 -22.555079 -5.6478066 92.875839 -5.6415434 92.837891 -7.2124743 63.200909
1660000000 -7.9662862 -25.418522 -5.5265632 89.848969 -5.521081 89.815788 -7.4204874 60.713127
1670000000 -8.193737 -28.298555 -5.4129882 86.816681 -5.403007 86.80172 -7.6392274 58.252655
1680000000 -8.4297352 -31.191702 -5.3012958 83.812943 -5.2892404 83.793808 -7.8641138 55.837608
1690000000 -8.6773262 -34.101265 -5.1932359 80.826897 -5.1798964 80.795288 -8.0950842 53.467793
1700000000 -8.9402084 -37.006222 -5.0860667 77.859673 -5.0720696 77.810944 -8.3284445 51.132984
1710000000 -9.2107496 -39.874187 -4.9826484 74.88446 -4.9712496 74.845757 -8.5715647 48.823696
1720000000 -9.4878702 -42.72966 -4.8808274 71.922241 -4.873457 71.898796 -8.8224306 46.570927
1730000000 -9.7740698 -45.623211 -4.7867599 68.965958 -4.7768488 68.963394 -9.0804701 44.356987
1740000000 -10.074644 -48.558929 -4.693646 66.046478 -4.6804209 66.038132 -9.3456516 42.226124
1750000000 -10.392576 -51.476639 -4.6035919 63.140381 -4.588078 63.121937 -9.6136255 40.151073
1760000000 -10.725412 -54.354378 -4.5158787 60.236988 -4.5012207 60.210617 -9.8901443 38.132511
1770000000 -11.066746 -57.219006 -4.4299669 57.342049 -4.4171271 57.316956 -10.17313 36.160088
1780000000 -11.415847 -60.121136 -4.35008 54.455769 -4.3366094 54.437916 -10.460903 34.270191
1790000000 -11.781259 -63.069893 -4.2740026 51.595482 -4.2593436 51.578911 -10.756748 32.440052
1800000000 -12.169331 -66.033958 -4.2013712 48.760883 -4.1852112 48.735802 -11.058022 30.683784
1810000000 -12.574987 -69.001396 -4.129364 45.932598 -4.1137452 45.915138 -11.366826 29.01853
1820000000 -12.993425 -71.945824 -4.0590496 43.119381 -4.0424986 43.099205 -11.677994 27.44763
1830000000 -13.431351 -74.912003 -3.9946861 40.31992 -3.9754515 40.295647 -11.989835 25.963501
1840000000 -13.88571 -77.920273 -3.9314723 37.53545 -3.9123495 37.506901 -12.304269 24.588572
1850000000 -14.363058 -80.941658 -3.8694739 34.767056 -3.8519289 34.734997 -12.622967 23.286333
1860000000 -14.859039 -83.989082 -3.8124866 32.014046 -3.7958689 31.982616 -12.945814 22.102037
1870000000 -15.377418 -87.107681 -3.7594547 29.278732 -3.7422397 29.250313 -13.27234 21.054129
1880000000 -15.920982 -90.31897 -3.7068183 26.561195 -3.6904516 26.536514 -13.592398 20.167562
1890000000 -16.508076 -93.64463 -3.6594291 23.869152 -3.6408308 23.841602 -13.912126 19.40098
1900000000 -17.140324 -96.980583 -3.6125805 21.199867 -3.5944529 21.163893 -14.222616 18.752325
1910000000 -17.80617 -100.31296 -3.5661039 18.534708 -3.5497444 18.500757 -14.532771 18.188808
1920000000 -18.507515 -103.73404 -3.5233645 15.894766 -3.5064971 15.861969 -14.847398 17.833998
1930000000 -19.238153 -107.40298 -3.4837201 13.263707 -3.4665992 13.234566 -15.150347 17.65284
1940000000 -20.024061 -111.37701 -3.4464753 10.659051 -3.4280477 10.62417 -15.438336 17.639294
1950000000 -20.890301 -115.69665 -3.4108698 8.0709858 -3.3918784 8.0360918 -15.707265 17.747118
1960000000 -21.837967 -120.34247 -3.3757885 5.5063019 -3.3579447 5.47083 -15.96216 17.910719
1970000000 -22.857191 -125.3924 -3.3429813 2.9557378 -3.3278902 2.9202495 -16.202551 18.203411
1980000000 -23.945097 -131.1832 -3.313149 0.41929486 -3.2973406 0.39227313 -16.426228 18.616766
1990000000 -25.142418 -138.12823 -3.2841196 -2.0928662 -3.2674181 -2.1182797 -16.624817 19.167992
2000000000 -26.459192 -146.42604 -3.25635 -4.6069126 -3.240968 -4.6024766 -16.791304 19.779892
2010000000 -27.832989 -156.42982 -3.2298796 -7.0893927 -3.2138531 -7.094883 -16.924782 20.424631
2020000000 -29.162264 -168.61774 -3.2044425 -9.5557671 -3.1901696 -9.5619745 -17.034391 21.064579
2030000000 -30.237555 176.15187 -3.1825719 -12.010614 -3.1678054 -12.007511 -17.121462 21.742191
2040000000 -30.779207 158.27126 -3.1601672 -14.444729 -3.1468797 -14.441725 -17.177322 22.483248
2050000000 -30.630989 139.55261 -3.143223 -16.864695 -3.1284201 -16.861824 -17.202774 23.131353
2060000000 -29.909321 122.6555 -3.1260335 -19.262199 -3.110925 -19.258543 -17.189821 23.707527
2070000000 -28.873617 108.80716 -3.1094065 -21.650713 -3.0946879 -21.637493 -17.165426 24.236267
2080000000 -27.706852 97.976265 -3.0953529 -24.012218 -3.0801337 -24.002514 -17.123476 24.695406
2090000000 -26.544905 89.286003 -3.0813615 -26.360626 -3.0678506 -26.34804 -17.05323 25.088572
2100000000 -25.451736 81.953735 -3.0693605 -28.684231 -3.0551941 -28.676003 -16.969919 25.448103
2110000000 -24.479349 75.798721 -3.0586336 -30.990479 -3.0431952 -30.980017 -16.869429 25.6614
2120000000 -23.620014 70.639221 -3.0474126 -33.279072 -3.0326223 -33.270321 -16.753145 25.740955
2130000000 -22.833624 66.266121 -3.0363753 -35.549709 -3.0225296 -35.546955 -16.631374 25.723255
2140000000 -22.101397 62.451527 -3.0252376 -37.813305 -3.0131898 -37.809368 -16.506121 25.643915
2150000000 -21.409016 58.908257 -3.0175397 -40.051941 -3.0062473 -40.04995 -16.371428 25.437374
2160000000 -20.779778 55.545914 -3.0086644 -42.281826 -2.9965594 -42.282951 -16.229797 25.14959
2170000000 -20.209692 52.416267 -2.9998412 -44.493652 -2.991106 -44.497746 -16.086344 24.75787
2180000000 -19.685921 49.513939 -2.9949453 -46.698536 -2.985549 -46.697071 -15.942942 24.249041
2190000000 -19.191828 46.783062 -2.9890046 -48.879585 -2.9786127 -48.878155 -15.800019 23.66379
2200000000 -18.72443 44.029236 -2.982981 -51.050983 -2.972537 -51.039001 -15.659094 22.965099
2210000000 -18.30892 41.343132 -2.977366 -53.201111 -2.9684284 -53.189751 -15.515985 22.233219
2220000000 -17.938435 38.792839 -2.9701643 -55.341278 -2.9637623 -55.325115 -15.378339 21.386555
2230000000 -17.586353 36.462414 -2.9657207 -57.473988 -2.9592123 -57.45396 -15.242725 20.504765
2240000000 -17.250689 34.197556 -2.9632151 -59.5942 -2.9546525 -59.562878 -15.103619 19.56683
2250000000 -16.92115 31.943371 -2.9592314 -61.704865 -2.9503019 -61.670334 -14.969754 18.563255
2260000000 -16.614765 29.658243 -2.9566052 -63.791077 -2.9476535 -63.761765 -14.839166 17.469814
2270000000 -16.336348 27.396906 -2.9529195 -65.867325 -2.9459827 -65.842659 -14.717625 16.363749
2280000000 -16.075132 25.326262 -2.9513273 -67.937691 -2.9435773 -67.913956 -14.59738 15.203187
2290000000 -15.814 23.282953 -2.9490476 -69.999504 -2.9424572 -69.971329 -14.480764 13.989711
2300000000 -15.558176 21.144432 -2.948055 -72.041428 -2.9402115 -72.011986 -14.363572 12.750157
2310000000 -15.323834 18.980543 -2.9476566 -74.068092 -2.9396713 -74.044182 -14.254687 11.476035
2320000000 -15.123255 16.862543 -2.9472919 -76.07724 -2.9383302 -76.056236 -14.15042 10.169964
2330000000 -14.944367 14.848667 -2.9439533 -78.08371 -2.9365191 -78.062965 -14.045131 8.8207655
2340000000 -14.766109 12.992774 -2.943958 -80.084488 -2.935693 -80.058823 -13.946636 7.4765701
2350000000 -14.59025 11.124248 -2.9436216 -82.069794 -2.9366083 -82.038574 -13.847006 6.1116447
2360000000 -14.416049 9.25774 -2.9426901 -84.033989 -2.9347086 -84.007294 -13.755755 4.7206507
2370000000 -14.259414 7.382895 -2.942416 -85.990936 -2.9344249 -85.959824 -13.669527 3.2936187
2380000000 -14.114477 5.5762949 -2.9424639 -87.942368 -2.932894 -87.908813 -13.589574 1.8496976
2390000000 -13.964554 3.7947481 -2.9418283 -89.884689 -2.9323308 -89.841629 -13.513378 0.40773836
2400000000 -13.826581 2.0074768 -2.9421513 -91.808624 -2.9310803 -91.763298 -13.441878 -1.005276
2410000000 -13.696147 0.17903002 -2.9408715 -93.724297 -2.9297385 -93.685707 -13.371663 -2.434109
2420000000 -13.582501 -1.5912219 -2.9405167 -95.629257 -2.9287438 -95.594276 -13.299842 -3.9128258
2430000000 -13.474313 -3.292769 -2.9392796 -97.534271 -2.9271889 -97.497047 -13.234069 -5.4145751
2440000000 -13.358426 -4.923069 -2.9380372 -99.43586 -2.9262815 -99.387802 -13.179984 -6.9527793
2450000000 -13.241975 -6.6422224 -2.9386253 -101.32642 -2.9230902 -101.27261 -13.13356 -8.4905567
2460000000 -13.132109 -8.4183197 -2.9385099 -103.19668 -2.9225109 -103.15019 -13.089682 -10.01598
2470000000 -13.045937 -10.217621 -2.9370353 -105.05634 -2.9227734 -105.02276 -13.045353 -11.51164
2480000000 -12.974028 -11.90166 -2.9341135 -106.91583 -2.9215868 -106.88341 -13.002449 -13.066697
2490000000 -12.902814 -13.503575 -2.9334645 -108.76926 -2.9191673 -108.73522 -12.963749 -14.664174
2500000000 -12.828778 -15.08839 -2.9333816 -110.62024 -2.9170065 -110.58583 -12.924478 -16.242088
2510000000 -12.755484 -16.668207 -2.9307461 -112.46019 -2.9160099 -112.42467 -12.891609 -17.861231
2520000000 -12.692184 -18.218163 -2.9309034 -114.2899 -2.9151645 -114.2569 -12.865561 -19.46501
2530000000 -12.624545 -19.72312 -2.9298153 -116.12106 -2.9137397 -116.08559 -12.837743 -21.047148
2540000000 -12.557125 -21.236084 -2.928499 -117.94193 -2.9146636 -117.90405 -12.815439 -22.635187
2550000000 -12.486602 -22.796904 -2.9281881 -119.75682 -2.9142497 -119.7099 -12.796255 -24.218168
2560000000 -12.427743 -24.431459 -2.9275537 -121.54609 -2.9128149 -121.50346 -12.781627 -25.787453
2570000000 -12.391713 -26.055422 -2.9243703 -123.33022 -2.9105558 -123.29811 -12.769653 -27.352793
2580000000 -12.366897 -27.557825 -2.9215875 -125.11887 -2.9087346 -125.0864 -12.766433 -28.892366
2590000000 -12.339344 -28.956348 -2.9178069 -126.91245 -2.9056253 -126.86996 -12.762423 -30.43507
2600000000 -12.298783 -30.355064 -2.9156218 -128.70221 -2.9031754 -128.65462 -12.762663 -31.978834
2610000000 -12.262405 -31.812733 -2.9158804 -130.47305 -2.9006622 -130.43071 -12.766194 -33.539051
2620000000 -12.233782 -33.300163 -2.9128604 -132.23572 -2.8972836 -132.20438 -12.775265 -35.139439
2630000000 -12.216407 -34.73077 -2.9104476 -134.004 -2.8968558 -133.96831 -12.793694 -36.730495
2640000000 -12.197535 -36.124123 -2.9087441 -135.75908 -2.8941364 -135.72028 -12.814925 -38.317661
2650000000 -12.175385 -37.524288 -2.9077294 -137.51425 -2.8915684 -137.46988 -12.843447 -39.871716
2660000000 -12.159968 -38.990417 -2.9070067 -139.25568 -2.8905158 -139.21185 -12.865935 -41.426964
2670000000 -12.156233 -40.443672 -2.9044771 -140.98505 -2.8871651 -140.95819 -12.890612 -42.998245
2680000000 -12.164036 -41.806091 -2.9012148 -142.71309 -2.8837583 -142.69104 -12.914948 -44.62508
2690000000 -12.171782 -43.096493 -2.8965869 -144.45198 -2.8798699 -144.42163 -12.946736 -46.270363
2700000000 -12.162868 -44.369675 -2.8931844 -146.18788 -2.8761313 -146.1494 -12.98983 -47.895172
2710000000 -12.154312 -45.703182 -2.8925545 -147.92 -2.8727784 -147.87021 -13.036142 -49.479271
2720000000 -12.155833 -47.080585 -2.8888409 -149.62657 -2.869791 -149.59009 -13.082935 -50.991886
2730000000 -12.16823 -48.428669 -2.8857739 -151.33806 -2.8654878 -151.30663 -13.127932 -52.499458
2740000000 -12.186051 -49.726032 -2.8826976 -153.04048 -2.8638566 -153.0081 -13.172434 -54.026447
2750000000 -12.200012 -51.0243 -2.8797462 -154.7448 -2.8593192 -154.70692 -13.227713 -55.577061
2760000000 -12.218436 -52.329754 -2.8767211 -156.44228 -2.8535991 -156.39867 -13.288918 -57.111816
2770000000 -12.248779 -53.643711 -2.8731947 -158.13429 -2.848707 -158.09473 -13.359376 -58.61124
2780000000 -12.287317 -54.883617 -2.8672416 -159.82465 -2.8436551 -159.79169 -13.429894 -60.088871
2790000000 -12.324024 -56.038639 -2.8612216 -161.52011 -2.8396556 -161.48744 -13.501727 -61.581036
2800000000 -12.350913 -57.184162 -2.857429 -163.2153 -2.8348291 -163.17604 -13.581584 -63.095417
2810000000 -12.376038 -58.403057 -2.854501 -164.90451 -2.8299818 -164.85948 -13.669986 -64.644905
2820000000 -12.408991 -59.664566 -2.8509662 -166.58928 -2.8278508 -166.53357 -13.765848 -66.188713
2830000000 -12.454432 -60.900181 -2.8472977 -168.25319 -2.8217707 -168.21996 -13.863526 -67.669762
2840000000 -12.504548 -62.064392 -2.8403628 -169.92905 -2.817616 -169.89073 -13.95961 -69.160881
2850000000 -12.551696 -63.199593 -2.8371398 -171.59792 -2.8121464 -171.56398 -14.054065 -70.644302
2860000000 -12.596518 -64.361671 -2.8317978 -173.26361 -2.8068702 -173.23471 -14.151217 -72.202667
2870000000 -12.651055 -65.522041 -2.8269963 -174.92255 -2.8012042 -174.90807 -14.258529 -73.759155
2880000000 -12.712486 -66.632668 -2.8210886 -176.586 -2.7971981 -176.57887 -14.372976 -75.298103
2890000000 -12.775846 -67.681892 -2.8150127 -178.24864 -2.7908888 -178.2431 -14.494733 -76.791267
2900000000 -12.832036 -68.705734 -2.8092892 -179.91841 -2.7860241 -179.91185 -14.624718 -78.240097
2910000000 -12.888999 -69.782204 -2.8047156 178.41942 -2.7815058 178.42755 -14.749289 -79.643906
2920000000 -12.951456 -70.872917 -2.8007543 176.76323 -2.7767193 176.77019 -14.883525 -81.037148
2930000000 -13.02616 -71.90657 -2.7940185 175.10385 -2.7712784 175.11552 -15.024014 -82.426247
2940000000 -13.104175 -72.913284 -2.7881877 173.44807 -2.7664032 173.46457 -15.174464 -83.811607
2950000000 -13.17693 -73.926941 -2.7831151 171.79767 -2.7603016 171.81308 -15.32985 -85.238174
2960000000 -13.260108 -74.929398 -2.7785835 170.14725 -2.7561893 170.16512 -15.501704 -86.615898
2970000000 -13.351624 -75.896004 -2.7739131 168.50085 -2.7491624 168.51544 -15.677109 -87.964157
2980000000 -13.450464 -76.767899 -2.767432 166.8597 -2.7440388 166.86493 -15.862782 -89.317993
2990000000 -13.540385 -77.572052 -2.7620625 165.21317 -2.7386146 165.22052 -16.057556 -90.678856
3000000000 -13.617148 -78.382622 -2.7556221 163.56064 -2.7340605 163.5697 -16.256193 -92.079704
3010000000 -13.69621 -79.284668 -2.7522538 161.91267 -2.7305529 161.93228 -16.47221 -93.479958
3020000000 -13.794167 -80.242622 -2.747792 160.27271 -2.7250953 160.29553 -16.699286 -94.853935
3030000000 -13.909133 -81.105995 -2.7432384 158.64769 -2.7200158 158.6541 -16.925558 -96.169746
