!Agilent Technologies,N5224A,MY51441093,A.09.90.21
!Agilent N5224A: A.09.90.21
!Date: Wednesday, October 01, 2025 16:40:08
!Correction: S11(Full 2 Port(1,2)) 
!S21(Full 2 Port(1,2)) 
!S12(Full 2 Port(1,2)) 
!S22(Full 2 Port(1,2)) 
!S2P File: Measurements: S11, S21, S12, S22:
# Hz S  dB   R 50
1000000000 -1.6582898 149.20348 -21.120396 -125.68978 -21.095089 -125.6976 -3.5797138 161.77022
1010000000 -1.6935999 146.74832 -20.792107 -128.89821 -20.767897 -128.90822 -3.5979199 158.58278
1020000000 -1.7297562 144.27448 -20.470074 -132.06329 -20.440632 -132.09076 -3.6191921 155.38187
1030000000 -1.764541 141.79356 -20.149151 -135.17014 -20.114197 -135.22134 -3.6457705 152.18567
1040000000 -1.7996314 139.29619 -19.824734 -138.24992 -19.792477 -138.35272 -3.6745248 148.9883
1050000000 -1.8378282 136.79527 -19.500156 -141.33414 -19.475494 -141.45129 -3.7068553 145.79422
1060000000 -1.876068 134.28505 -19.174999 -144.38513 -19.157701 -144.49518 -3.737891 142.6151
1070000000 -1.9141142 131.76392 -18.856195 -147.41708 -18.840425 -147.52679 -3.772342 139.44093
1080000000 -1.9505635 129.23596 -18.536673 -150.44667 -18.52232 -150.54149 -3.8080108 136.2592
1090000000 -1.9871114 126.69792 -18.216974 -153.42693 -18.204052 -153.55322 -3.8434234 133.07729
1100000000 -2.0263247 124.13398 -17.897741 -156.42667 -17.890308 -156.55473 -3.8842087 129.88731
1110000000 -2.066427 121.56824 -17.578915 -159.45088 -17.576605 -159.56641 -3.9245706 126.69046
1120000000 -2.1057942 118.98003 -17.27141 -162.46053 -17.269075 -162.54694 -3.9680543 123.49664
1130000000 -2.1488414 116.37984 -16.967035 -165.44492 -16.960382 -165.50908 -4.0137596 120.31528
1140000000 -2.1920483 113.76867 -16.662159 -168.38298 -16.657463 -168.46747 -4.0608644 117.135
1150000000 -2.2375965 111.1475 -16.359619 -171.33369 -16.352461 -171.39926 -4.1091681 113.96897
1160000000 -2.2843959 108.50672 -16.057093 -174.27538 -16.051617 -174.35226 -4.1540184 110.79473
1170000000 -2.3322756 105.86913 -15.75862 -177.20407 -15.75298 -177.28049 -4.1986284 107.62622
1180000000 -2.381918 103.21349 -15.459345 179.85004 -15.45505 179.78596 -4.2429743 104.44889
1190000000 -2.4323757 100.55105 -15.166599 176.93307 -15.156815 176.86073 -4.2895427 101.26226
1200000000 -2.4830344 97.871117 -14.873105 174.00659 -14.865108 173.93423 -4.338572 98.077606
1210000000 -2.5366542 95.180191 -14.585481 171.07892 -14.576675 171.00768 -4.3875709 94.904976
1220000000 -2.5899618 92.480598 -14.298636 168.16502 -14.292064 168.07207 -4.4378133 91.719307
1230000000 -2.6446018 89.767036 -14.016044 165.2525 -14.00944 165.16937 -4.4874406 88.549187
1240000000 -2.7016251 87.028908 -13.733773 162.34076 -13.727407 162.27367 -4.5382547 85.383804
1250000000 -2.7613926 84.286308 -13.453577 159.43369 -13.445947 159.37685 -4.5893278 82.228378
1260000000 -2.8238301 81.53215 -13.177267 156.52023 -13.167102 156.46996 -4.6396322 79.063133
1270000000 -2.8836708 78.764229 -12.902653 153.61562 -12.892008 153.54675 -4.6915545 75.907059
1280000000 -2.9493663 75.987427 -12.631299 150.70532 -12.623009 150.62405 -4.7452354 72.735023
1290000000 -3.0162094 73.189285 -12.362576 147.78391 -12.355637 147.70589 -4.8006191 69.576859
1300000000 -3.0837958 70.387672 -12.098296 144.854 -12.092147 144.7892 -4.8583422 66.413712
1310000000 -3.1542993 67.567505 -11.838543 141.91975 -11.830389 141.88161 -4.9159317 63.276875
1320000000 -3.2279396 64.725395 -11.583535 139.00856 -11.573187 138.95886 -4.9745631 60.147118
1330000000 -3.305063 61.871052 -11.328188 136.1156 -11.318344 136.04701 -5.03333 57.029724
1340000000 -3.3837938 59.015343 -11.072429 133.21417 -11.066795 133.13541 -5.0935841 53.917778
1350000000 -3.4672399 56.143703 -10.822188 130.29054 -10.818353 130.21336 -5.1574945 50.811905
1360000000 -3.5513055 53.273273 -10.576721 127.34573 -10.571145 127.30705 -5.2223749 47.706379
1370000000 -3.6391287 50.377476 -10.336416 124.40707 -10.327445 124.3699 -5.2882032 44.611889
1380000000 -3.7288268 47.469017 -10.101666 121.49812 -10.090563 121.43359 -5.3593392 41.522461
1390000000 -3.8204439 44.541977 -9.863905 118.57294 -9.8563576 118.50217 -5.4317784 38.448383
1400000000 -3.9179969 41.602856 -9.6304035 115.63999 -9.6261816 115.57733 -5.5089936 35.39032
1410000000 -4.0177369 38.640926 -9.4007006 112.69587 -9.3952284 112.65217 -5.5874038 32.343731
1420000000 -4.1241379 35.663029 -9.1782751 109.74326 -9.1706572 109.70202 -5.6693964 29.315517
1430000000 -4.2338228 32.677502 -8.9579058 106.80262 -8.9479532 106.76011 -5.7508154 26.293886
1440000000 -4.3485236 29.675049 -8.7407532 103.8669 -8.731988 103.80823 -5.8384714 23.27948
1450000000 -4.4700766 26.661589 -8.5268183 100.90879 -8.5186853 100.84681 -5.9278898 20.263424
1460000000 -4.5932961 23.647278 -8.3166046 97.942078 -8.3111687 97.895042 -6.0231423 17.259954
1470000000 -4.722249 20.620634 -8.1129789 94.982971 -8.1062126 94.933006 -6.1209989 14.275505
1480000000 -4.8557663 17.574846 -7.9142828 92.033852 -7.9066734 91.977097 -6.2221837 11.32103
1490000000 -4.9914508 14.510947 -7.7179022 89.072128 -7.7110095 89.025215 -6.3269043 8.3798428
1500000000 -5.1345911 11.427807 -7.5251808 86.130272 -7.5203056 86.081154 -6.4356427 5.4646339
1510000000 -5.2845612 8.3253345 -7.3359141 83.172119 -7.33079 83.136185 -6.5485482 2.5762634
1520000000 -5.441586 5.218605 -7.1502233 80.227837 -7.1434608 80.185257 -6.6657052 -0.28050917
1530000000 -5.605731 2.1026442 -6.9685864 77.280334 -6.961206 77.222069 -6.7857075 -3.1353161
1540000000 -5.775526 -1.0115043 -6.7911596 74.314034 -6.7857184 74.254387 -6.911828 -5.9580197
1550000000 -5.9498186 -4.1263485 -6.6188555 71.343994 -6.6149669 71.29583 -7.0476465 -8.7677269
1560000000 -6.1289387 -7.2543745 -6.4512463 68.369781 -6.4479456 68.344284 -7.1888671 -11.544188
1570000000 -6.3135567 -10.411797 -6.2903748 65.413307 -6.2821879 65.38311 -7.3350778 -14.286644
1580000000 -6.5084229 -13.589734 -6.1321468 62.467464 -6.1233377 62.428215 -7.4880114 -16.995863
1590000000 -6.7123594 -16.778135 -5.9776449 59.528748 -5.9712343 59.473389 -7.6482959 -19.67407
1600000000 -6.9265337 -19.969646 -5.8266773 56.584843 -5.8222032 56.531971 -7.8114696 -22.331221
1610000000 -7.1470361 -23.177809 -5.6794405 53.630096 -5.6737719 53.600399 -7.9809618 -24.956425
1620000000 -7.3746085 -26.4079 -5.5386868 50.691708 -5.5316687 50.664936 -8.1632795 -27.547899
1630000000 -7.6147194 -29.649426 -5.400804 47.749229 -5.3926382 47.717464 -8.3483839 -30.085409
1640000000 -7.8650336 -32.900024 -5.2681699 44.822231 -5.2612314 44.78056 -8.5370407 -32.589066
1650000000 -8.1238489 -36.14843 -5.1410718 41.883579 -5.1350994 41.850674 -8.7335072 -35.057388
1660000000 -8.3884277 -39.429649 -5.0189252 38.962418 -5.0130925 38.935623 -8.9368019 -37.49321
1670000000 -8.6645107 -42.766605 -4.9048772 36.058678 -4.8929505 36.029091 -9.1525421 -39.870281
1680000000 -8.9563684 -46.129719 -4.7894845 33.169075 -4.778203 33.132847 -9.3744173 -42.164192
1690000000 -9.2634888 -49.49099 -4.6787972 30.284912 -4.669384 30.243814 -9.6011496 -44.388004
1700000000 -9.5835123 -52.837986 -4.5723548 27.397701 -4.5623312 27.357363 -9.8326616 -46.551983
1710000000 -9.9098711 -56.221107 -4.4705095 24.511175 -4.4624825 24.491943 -10.072931 -48.695629
1720000000 -10.246865 -59.636665 -4.374537 21.649254 -4.3640113 21.638336 -10.324286 -50.752686
1730000000 -10.603045 -63.152805 -4.2838945 18.805927 -4.2718596 18.789154 -10.584448 -52.750053
1740000000 -10.979809 -66.678459 -4.1936216 15.977753 -4.1809044 15.948393 -10.854751 -54.648048
1750000000 -11.373172 -70.209419 -4.1070919 13.15278 -4.0951591 13.12433 -11.130118 -56.445431
1760000000 -11.77704 -73.753632 -4.0268278 10.335448 -4.0152874 10.318283 -11.413788 -58.152813
1770000000 -12.193213 -77.41011 -3.9509573 7.5382624 -3.937665 7.5224333 -11.698762 -59.778908
1780000000 -12.628203 -81.183075 -3.8790295 4.7568541 -3.8645921 4.7397394 -11.99248 -61.310703
1790000000 -13.089825 -85.055367 -3.8106332 2.0016749 -3.795315 1.980284 -12.292241 -62.752335
1800000000 -13.573849 -88.973648 -3.7435954 -0.74156022 -3.7289422 -0.77227169 -12.597332 -64.073296
1810000000 -14.076949 -92.958466 -3.6815879 -3.4762611 -3.665091 -3.5022848 -12.908657 -65.280029
1820000000 -14.592584 -97.0896 -3.6220262 -6.2000575 -3.6057842 -6.2263112 -13.224964 -66.327759
1830000000 -15.132507 -101.35327 -3.5679576 -8.9014397 -3.5494673 -8.9308681 -13.538797 -67.226868
1840000000 -15.695408 -105.82258 -3.5162318 -11.588573 -3.4962692 -11.618464 -13.850833 -67.993141
1850000000 -16.274456 -110.46909 -3.4662225 -14.25451 -3.4494157 -14.283633 -14.169468 -68.652702
1860000000 -16.872295 -115.39057 -3.42033 -16.904619 -3.4030578 -16.932728 -14.487874 -69.131538
1870000000 -17.491367 -120.6242 -3.3781412 -19.536079 -3.3589103 -19.558447 -14.805247 -69.424957
1880000000 -18.142641 -126.2315 -3.3364635 -22.139357 -3.319248 -22.172976 -15.109829 -69.509735
1890000000 -18.82338 -132.18927 -3.2986479 -24.729971 -3.2810714 -24.766426 -15.407268 -69.469681
1900000000 -19.507565 -138.48923 -3.2628231 -27.300522 -3.2463923 -27.339001 -15.689279 -69.293022
1910000000 -20.17403 -145.30481 -3.2284994 -29.863388 -3.214114 -29.894236 -15.962506 -68.989029
1920000000 -20.807974 -152.73889 -3.1991146 -32.402813 -3.183358 -32.430332 -16.231325 -68.490311
1930000000 -21.39674 -161.09903 -3.172837 -34.915215 -3.1552877 -34.950703 -16.475372 -67.792343
1940000000 -21.93589 -170.17798 -3.1468489 -37.404297 -3.1292136 -37.448277 -16.685171 -66.925865
1950000000 -22.391241 -179.83864 -3.1216271 -39.877872 -3.1049118 -39.916965 -16.861664 -66.00753
1960000000 -22.709444 170.11159 -3.0994 -42.335876 -3.0826919 -42.369698 -17.011444 -65.099281
1970000000 -22.855309 159.84134 -3.0768754 -44.775387 -3.061239 -44.810833 -17.142431 -64.110245
1980000000 -22.828876 149.54343 -3.0581295 -47.198898 -3.0417421 -47.229416 -17.249439 -62.994473
1990000000 -22.666052 139.48448 -3.040015 -49.600662 -3.0233054 -49.635242 -17.313652 -61.825153
2000000000 -22.391678 130.01772 -3.0230286 -52.006096 -3.0082636 -52.004528 -17.337017 -60.690521
2010000000 -22.014153 121.47614 -3.0087392 -54.381325 -2.9941432 -54.383152 -17.330641 -59.627647
2020000000 -21.563059 113.71261 -2.9954579 -56.737854 -2.9812129 -56.734688 -17.295753 -58.619968
2030000000 -21.055965 106.5631 -2.9865115 -59.081554 -2.9710505 -59.07143 -17.241364 -57.664509
2040000000 -20.535698 99.931068 -2.9746447 -61.400814 -2.9607086 -61.394489 -17.156771 -56.718613
2050000000 -20.015835 93.742859 -2.9670258 -63.701317 -2.9532528 -63.703003 -17.051434 -55.918201
2060000000 -19.528399 88.110191 -2.96088 -65.988556 -2.9467626 -65.980278 -16.9161 -55.297913
2070000000 -19.062614 82.961662 -2.9560604 -68.263283 -2.9412177 -68.248482 -16.780636 -54.79221
2080000000 -18.605116 78.167549 -2.9513099 -70.512817 -2.9345303 -70.497192 -16.635334 -54.386635
2090000000 -18.171968 73.656403 -2.9483616 -72.739777 -2.9332802 -72.72802 -16.476942 -54.074955
2100000000 -17.776251 69.412521 -2.9450479 -74.946846 -2.9318058 -74.937439 -16.315342 -53.890339
2110000000 -17.406279 65.538193 -2.9436913 -77.133522 -2.9295795 -77.12426 -16.144356 -53.843052
2120000000 -17.045176 61.996685 -2.9411402 -79.312462 -2.9286349 -79.303848 -15.974128 -53.948948
2130000000 -16.687193 58.649338 -2.9395611 -81.474045 -2.9270222 -81.467773 -15.804085 -54.169327
2140000000 -16.336731 55.369511 -2.9389489 -83.620323 -2.9251227 -83.615173 -15.639896 -54.421753
2150000000 -16.005604 52.168663 -2.9379964 -85.75013 -2.9259853 -85.749237 -15.472769 -54.81432
2160000000 -15.70182 49.089142 -2.937839 -87.861557 -2.9270039 -87.868515 -15.307661 -55.27602
2170000000 -15.413082 46.166435 -2.9372804 -89.972778 -2.9278383 -89.970818 -15.145263 -55.82761
2180000000 -15.133685 43.320286 -2.9393084 -92.060631 -2.929724 -92.060204 -14.986422 -56.468781
2190000000 -14.870188 40.502625 -2.9385674 -94.137367 -2.9305308 -94.12748 -14.831923 -57.185505
2200000000 -14.633082 37.734047 -2.9398143 -96.193504 -2.9315457 -96.183884 -14.683613 -57.965775
2210000000 -14.417747 35.102623 -2.9401395 -98.24369 -2.9325449 -98.233536 -14.538591 -58.767849
2220000000 -14.207221 32.597404 -2.9403024 -100.28779 -2.9353929 -100.26414 -14.399375 -59.691067
2230000000 -13.994699 30.150497 -2.943701 -102.32027 -2.936039 -102.29218 -14.264315 -60.601715
2240000000 -13.791296 27.696711 -2.9471536 -104.3338 -2.9393637 -104.3089 -14.131004 -61.554848
2250000000 -13.603804 25.225296 -2.9503832 -106.33434 -2.9407883 -106.30878 -14.000398 -62.55191
2260000000 -13.432302 22.836424 -2.95135 -108.3228 -2.9448597 -108.29651 -13.877643 -63.614697
2270000000 -13.271204 20.516058 -2.9536893 -110.30869 -2.9487133 -110.27364 -13.759839 -64.681938
2280000000 -13.106405 18.255304 -2.9569798 -112.27776 -2.9502866 -112.24834 -13.645503 -65.77536
2290000000 -12.9467 15.947525 -2.9611113 -114.23588 -2.9538081 -114.20763 -13.533916 -66.920074
2300000000 -12.809639 13.637922 -2.9643536 -116.17989 -2.9548554 -116.15939 -13.421683 -68.085609
2310000000 -12.686631 11.387765 -2.9666338 -118.11771 -2.9602697 -118.1046 -13.3199 -69.28907
2320000000 -12.573908 9.2745609 -2.9694633 -120.05225 -2.9639144 -120.03304 -13.225818 -70.525528
2330000000 -12.460913 7.2308822 -2.973362 -121.97556 -2.9673526 -121.94839 -13.13303 -71.753387
2340000000 -12.34245 5.2016859 -2.9788795 -123.88317 -2.9709711 -123.8512 -13.048427 -72.991096
2350000000 -12.235879 3.1150856 -2.9842255 -125.7739 -2.9755521 -125.74155 -12.963121 -74.224724
2360000000 -12.13668 1.0674651 -2.9870589 -127.64178 -2.9795854 -127.61669 -12.887709 -75.519859
2370000000 -12.050022 -0.93546504 -2.9897568 -129.51518 -2.9826252 -129.48012 -12.817945 -76.829117
2380000000 -11.964892 -2.8822691 -2.9919708 -131.38069 -2.982558 -131.34067 -12.756824 -78.151192
2390000000 -11.88059 -4.8429599 -2.9941435 -133.23958 -2.9829929 -133.19572 -12.697639 -79.453026
2400000000 -11.807104 -6.7798572 -2.9955385 -135.08545 -2.9849398 -135.04466 -12.645524 -80.745346
2410000000 -11.741959 -8.6798115 -2.9968772 -136.92952 -2.9869974 -136.89487 -12.591008 -82.049576
2420000000 -11.676579 -10.523787 -2.9988265 -138.76936 -2.9893205 -138.73036 -12.538922 -83.420074
2430000000 -11.60719 -12.355029 -3.0022697 -140.60643 -2.9916134 -140.55 -12.48997 -84.786942
2440000000 -11.535262 -14.227484 -3.0051892 -142.42336 -2.9943182 -142.36061 -12.45003 -86.183174
2450000000 -11.476153 -16.160946 -3.0087709 -144.22552 -2.9935782 -144.1689 -12.416201 -87.599846
2460000000 -11.431763 -18.074253 -3.0086908 -146.0175 -2.9942358 -145.98088 -12.3832 -88.976906
2470000000 -11.400743 -19.888025 -3.007422 -147.81616 -2.9939275 -147.78787 -12.346693 -90.349922
2480000000 -11.364943 -21.630802 -3.0081928 -149.62253 -2.9947879 -149.58453 -12.312342 -91.757034
2490000000 -11.326008 -23.329998 -3.0097013 -151.41129 -2.9954827 -151.3732 -12.282947 -93.199387
2500000000 -11.286249 -25.066725 -3.0124695 -153.1949 -2.995724 -153.15248 -12.254435 -94.636513
2510000000 -11.253058 -26.798475 -3.0124316 -154.96304 -2.9959137 -154.92976 -12.23177 -96.082108
2520000000 -11.221098 -28.499758 -3.0115724 -156.72887 -2.9981711 -156.69508 -12.218746 -97.510048
2530000000 -11.188593 -30.198914 -3.0132785 -158.49281 -2.998735 -158.45488 -12.205747 -98.921906
2540000000 -11.160376 -31.933262 -3.0131741 -160.24519 -2.998605 -160.207 -12.196633 -100.33686
2550000000 -11.143135 -33.699409 -3.0140598 -161.98897 -3.000385 -161.94728 -12.193398 -101.75491
2560000000 -11.141545 -35.435928 -3.010571 -163.72311 -2.9966037 -163.68947 -12.191779 -103.17683
2570000000 -11.149665 -37.061028 -3.0071719 -165.46515 -2.9959486 -165.42957 -12.198124 -104.59859
2580000000 -11.149651 -38.60453 -3.004832 -167.21548 -2.992347 -167.16898 -12.207565 -106.01334
2590000000 -11.140302 -40.151196 -3.0051723 -168.96414 -2.9900997 -168.90993 -12.22146 -107.44851
2600000000 -11.129787 -41.770523 -3.0035639 -170.69298 -2.9890723 -170.64861 -12.237418 -108.89798
2610000000 -11.133477 -43.421906 -3.0032578 -172.40915 -2.986059 -172.37912 -12.255558 -110.35565
2620000000 -11.146705 -45.036751 -3.0001895 -174.12737 -2.9868116 -174.10094 -12.276958 -111.85463
2630000000 -11.161617 -46.593052 -2.9985731 -175.85039 -2.9845927 -175.80696 -12.305587 -113.34909
2640000000 -11.172385 -48.159832 -2.99698 -177.56699 -2.9799399 -177.51172 -12.33552 -114.82567
2650000000 -11.184673 -49.759769 -2.9937809 -179.26468 -2.9772899 -179.22314 -12.371418 -116.28836
2660000000 -11.214309 -51.354801 -2.9912908 179.03265 -2.9745433 179.0708 -12.397757 -117.74517
2670000000 -11.249426 -52.870369 -2.986984 177.32993 -2.9703403 177.35602 -12.429378 -119.21408
2680000000 -11.278798 -54.312119 -2.9832742 175.62659 -2.9677169 175.65724 -12.46189 -120.72018
2690000000 -11.301383 -55.749084 -2.980149 173.91501 -2.963644 173.95525 -12.502017 -122.24996
2700000000 -11.321749 -57.251488 -2.9777689 172.22699 -2.9603896 172.26231 -12.554701 -123.74668
2710000000 -11.352228 -58.814472 -2.9756205 170.53909 -2.955951 170.57527 -12.613174 -125.1786
2720000000 -11.396671 -60.344536 -2.9702675 168.86081 -2.9533803 168.89496 -12.670151 -126.57886
2730000000 -11.443002 -61.79734 -2.9657168 167.1757 -2.9484701 167.20712 -12.727589 -127.98253
2740000000 -11.492537 -63.23978 -2.9622042 165.49634 -2.9425445 165.53653 -12.782501 -129.41901
2750000000 -11.543222 -64.704483 -2.957525 163.81674 -2.9373841 163.86351 -12.849357 -130.89584
2760000000 -11.602333 -66.16571 -2.9536386 162.14278 -2.9302075 162.18993 -12.922388 -132.37015
2770000000 -11.667919 -67.55909 -2.9475574 160.46652 -2.9243283 160.50705 -13.004972 -133.82774
2780000000 -11.733715 -68.906548 -2.9411223 158.79105 -2.9188769 158.82547 -13.085267 -135.27563
2790000000 -11.785829 -70.239464 -2.9359417 157.10446 -2.9150808 157.14621 -13.16648 -136.7437
2800000000 -11.839161 -71.632271 -2.9334641 155.42697 -2.9101329 155.47517 -13.25478 -138.24463
2810000000 -11.904505 -73.106583 -2.9294472 153.76657 -2.9048393 153.81419 -13.344394 -139.76991
2820000000 -11.982059 -74.541824 -2.9227629 152.10416 -2.8997586 152.15543 -13.443085 -141.26224
2830000000 -12.065959 -75.888084 -2.9177375 150.44623 -2.8933377 150.48882 -13.538611 -142.72128
2840000000 -12.146856 -77.206551 -2.9106891 148.77702 -2.8861399 148.82002 -13.632451 -144.16
2850000000 -12.225642 -78.546631 -2.9047744 147.11992 -2.8804774 147.15762 -13.727914 -145.62289
2860000000 -12.310122 -79.903427 -2.9001524 145.46666 -2.8730228 145.48975 -13.822975 -147.13637
2870000000 -12.402933 -81.21331 -2.8936808 143.81454 -2.868372 143.82341 -13.932738 -148.6353
2880000000 -12.499004 -82.456772 -2.8869283 142.15143 -2.8619404 142.15854 -14.051359 -150.12431
2890000000 -12.5895 -83.700378 -2.8804536 140.48608 -2.8563161 140.49707 -14.178471 -151.5542
2900000000 -12.676754 -84.978172 -2.8741188 138.82578 -2.8511934 138.8367 -14.312957 -152.97121
2910000000 -12.779275 -86.304909 -2.8683105 137.17088 -2.8455245 137.17841 -14.444683 -154.34145
2920000000 -12.89209 -87.601677 -2.8625669 135.51263 -2.8395555 135.52452 -14.584398 -155.75095
2930000000 -13.007761 -88.813705 -2.8559172 133.85057 -2.8319159 133.86688 -14.726181 -157.17352
2940000000 -13.126171 -90.013748 -2.848695 132.19272 -2.8247409 132.21002 -14.877677 -158.62894
2950000000 -13.248543 -91.233643 -2.8425686 130.53593 -2.8188546 130.55305 -15.034868 -160.10681
2960000000 -13.379593 -92.430649 -2.8370078 128.88135 -2.812094 128.89362 -15.20169 -161.58252
2970000000 -13.51291 -93.551605 -2.8317721 127.23043 -2.8069847 127.2432 -15.374842 -163.04718
2980000000 -13.644345 -94.583374 -2.8236222 125.57146 -2.8011277 125.58281 -15.547573 -164.50497
2990000000 -13.76639 -95.680519 -2.8184774 123.91283 -2.7946908 123.93066 -15.726387 -165.99188
3000000000 -13.888376 -96.838341 -2.8143876 122.25841 -2.7893348 122.2736 -15.905574 -167.5038
3010000000 -14.033176 -98.069687 -2.8075421 120.61526 -2.7859092 120.62822 -16.100357 -169.00793
3020000000 -14.200994 -99.207451 -2.8006904 118.96243 -2.7776387 118.97765 -16.295301 -170.48169
3030000000 -14.374543 -100.16045 -2.7956769 117.31821 -2.772855 117.3228 -16.497196 -171.89911
